# vsim -c -coverage -sv_seed 52681611 "+UVM_TESTNAME=axi4_unaligned_test" "+UVM_VERBOSITY=UVM_HIGH" "+DUMP_VCD" -l ./report/logs/axi4_unaligned_test_run_1_seed_52681611.log -do "coverage save -onexit ./report/coverage/axi4_unaligned_test_run_1_seed_52681611.ucdb; run -all; quit -f" opt_tb_top 
# Start time: 14:43:33 on Jul 08,2026
# //  Questa Sim-64
# //  Version 10.6b linux_x86_64 May 25 2017
# //
# //  Copyright 1991-2017 Mentor Graphics Corporation
# //  All Rights Reserved.
# //
# //  QuestaSim and its associated documentation contain trade
# //  secrets and commercial or financial information that are the property of
# //  Mentor Graphics Corporation and are privileged, confidential,
# //  and exempt from disclosure under the Freedom of Information Act,
# //  5 U.S.C. Section 552. Furthermore, this information
# //  is prohibited from disclosure under the Trade Secrets Act,
# //  18 U.S.C. Section 1905.
# //
# Loading sv_std.std
# Loading work.axi4_if(fast)
# Loading mtiUvm.uvm_pkg
# Loading work.axi4_pkg(fast)
# Loading work.axi4_test_pkg(fast)
# Loading work.tb_top(fast)
# Loading work.axi4_if(fast)
# Loading work.axi4_sva(fast)
# Loading mtiUvm.questa_uvm_pkg(fast)
# Loading /cadtools/mentor/Questa_10.6b/questasim/uvm-1.1d/linux_x86_64/uvm_dpi.so
# coverage save -onexit ./report/coverage/axi4_unaligned_test_run_1_seed_52681611.ucdb
#  run -all
# ----------------------------------------------------------------
# UVM-1.1d
# (C) 2007-2013 Mentor Graphics Corporation
# (C) 2007-2013 Cadence Design Systems, Inc.
# (C) 2006-2013 Synopsys, Inc.
# (C) 2011-2013 Cypress Semiconductor Corp.
# ----------------------------------------------------------------
# 
#   ***********       IMPORTANT RELEASE NOTES         ************
# 
#   You are using a version of the UVM library that has been compiled
#   with `UVM_NO_DEPRECATED undefined.
#   See http://www.eda.org/svdb/view.php?id=3313 for more details.
# 
#   You are using a version of the UVM library that has been compiled
#   with `UVM_OBJECT_MUST_HAVE_CONSTRUCTOR undefined.
#   See http://www.eda.org/svdb/view.php?id=3770 for more details.
# 
#       (Specify +UVM_NO_RELNOTES to turn off this notice)
# 
# UVM_INFO verilog_src/questa_uvm_pkg-1.2/src/questa_uvm_pkg.sv(215) @ 0: reporter [Questa UVM] QUESTA_UVM-1.2.3
# UVM_INFO verilog_src/questa_uvm_pkg-1.2/src/questa_uvm_pkg.sv(217) @ 0: reporter [Questa UVM]  questa_uvm::init(+struct)
# UVM_INFO ../src/tb_top.sv(147) @ 0: reporter [TB_TOP] Virtual interface set in config_db
# UVM_INFO @ 0: reporter [RNTST] Running test axi4_unaligned_test...
# UVM_INFO ../src/tb_top.sv(161) @ 0: reporter [TB_TOP] Waveform VCD dumping enabled (axi4_vip.vcd)
# UVM_INFO ../src/env/axi4_vip_env.sv(83) @ 0: uvm_test_top.env [axi4_vip_env] slave_vif not set - reusing master_vif (passthrough mode)
# UVM_INFO ../src/env/axi4_vip_env.sv(93) @ 0: uvm_test_top.env [axi4_vip_env] Scoreboard created
# UVM_INFO ../src/env/axi4_vip_env.sv(100) @ 0: uvm_test_top.env [axi4_vip_env] Coverage collectors created
# UVM_INFO ../src/mst/axi4_master_agent.sv(69) @ 0: uvm_test_top.env.master_agent [axi4_master_agent] ACTIVE mode - driver + sequencer created
# UVM_INFO ../src/slv/axi4_slave_agent.sv(82) @ 0: uvm_test_top.env.slave_agent [axi4_slave_agent] ACTIVE mode - ready_delay=[0:0] resp_delay=[0:0]
# UVM_INFO ../src/env/axi4_vip_env.sv(116) @ 0: uvm_test_top.env [axi4_vip_env] Scoreboard connected: master_mon.ap -> scb, slave_mon.ap -> scb
# UVM_INFO ../src/env/axi4_vip_env.sv(124) @ 0: uvm_test_top.env [axi4_vip_env] Coverage connected: master_mon.ap -> master_cov, slave_mon.ap -> slave_cov
# UVM_INFO @ 0: reporter [UVMTOP] UVM testbench topology:
# ---------------------------------------------------------------
# Name                       Type                     Size  Value
# ---------------------------------------------------------------
# uvm_test_top               axi4_unaligned_test      -     @475 
#   env                      axi4_vip_env             -     @490 
#     master_agent           axi4_master_agent        -     @505 
#       drv                  axi4_master_driver       -     @569 
#         rsp_port           uvm_analysis_port        -     @584 
#         seq_item_port      uvm_seq_item_pull_port   -     @576 
#       mon                  axi4_master_monitor      -     @561 
#         ap                 uvm_analysis_port        -     @702 
#       sqr                  axi4_master_sequencer    -     @592 
#         rsp_export         uvm_analysis_export      -     @599 
#         seq_item_export    uvm_seq_item_pull_imp    -     @693 
#         arbitration_queue  array                    0     -    
#         lock_queue         array                    0     -    
#         num_last_reqs      integral                 32    'd1  
#         num_last_rsps      integral                 32    'd1  
#     master_cov             axi4_coverage            -     @526 
#       analysis_imp         uvm_analysis_imp         -     @533 
#     scb                    axi4_scoreboard          -     @519 
#       master_export        uvm_analysis_imp_master  -     @716 
#       slave_export         uvm_analysis_imp_slave   -     @724 
#     slave_agent            axi4_slave_agent         -     @512 
#       drv                  axi4_slave_driver        -     @755 
#         rsp_port           uvm_analysis_port        -     @770 
#         seq_item_port      uvm_seq_item_pull_port   -     @762 
#       mon                  axi4_slave_monitor       -     @737 
#         ap                 uvm_analysis_port        -     @894 
#       sqr                  axi4_slave_sequencer     -     @778 
#         rsp_export         uvm_analysis_export      -     @785 
#         seq_item_export    uvm_seq_item_pull_imp    -     @879 
#         arbitration_queue  array                    0     -    
#         lock_queue         array                    0     -    
#         num_last_reqs      integral                 32    'd1  
#         num_last_rsps      integral                 32    'd1  
#     slave_cov              axi4_coverage            -     @541 
#       analysis_imp         uvm_analysis_imp         -     @548 
# ---------------------------------------------------------------
# 
# UVM_INFO verilog_src/questa_uvm_pkg-1.2/src/questa_uvm_pkg.sv(277) @ 0: reporter [Questa UVM] End Of Elaboration
# UVM_INFO ../src/test/axi4_unaligned_test.sv(24) @ 0: uvm_test_top [axi4_unaligned_test] Starting unaligned access test
# UVM_INFO ../src/seq/axi4_unaligned_seq.sv(28) @ 0: uvm_test_top.env.master_agent.sqr@@unalign_seq [axi4_unaligned_seq] Starting unaligned access sequence: 40 transactions
# UVM_INFO ../src/tb_top.sv(49) @ 95000: reporter [TOP_TB] Reset de-asserted
# UVM_INFO ../src/slv/axi4_slave_driver.sv(131) @ 95000: uvm_test_top.env.slave_agent.drv [axi4_slave_driver] Reset deasserted - slave driver active
# UVM_INFO ../src/mst/axi4_master_driver.sv(64) @ 95000: uvm_test_top.env.master_agent.drv [axi4_master_driver] Reset deasserted - master driver active
# UVM_INFO ../src/mst/axi4_master_monitor.sv(77) @ 95000: uvm_test_top.env.master_agent.mon [axi4_master_monitor] Reset deasserted - monitor active
# UVM_INFO ../src/slv/axi4_slave_monitor.sv(71) @ 95000: uvm_test_top.env.slave_agent.mon [axi4_slave_monitor] Reset deasserted - monitor active
# UVM_INFO ../src/mst/axi4_master_driver.sv(73) @ 95000: uvm_test_top.env.master_agent.drv [axi4_master_driver] Driving AXI4_WRITE  ID=0x4  ADDR=0xb8ae8cb1  LEN=190
# UVM_INFO ../src/seq/axi4_unaligned_seq.sv(54) @ 95000: uvm_test_top.env.master_agent.sqr@@unalign_seq [axi4_unaligned_seq] [1/40] Unaligned AXI4_WRITE: ADDR=0xb8ae8cb1 SIZE=AXI4_SIZE_4B BURST=AXI4_BURST_INCR (AlignmentOffset=1)
# UVM_INFO ../src/mst/axi4_master_driver.sv(73) @ 95000: uvm_test_top.env.master_agent.drv [axi4_master_driver] Driving AXI4_WRITE  ID=0xd  ADDR=0xa838c695  LEN=17
# UVM_INFO ../src/seq/axi4_unaligned_seq.sv(54) @ 95000: uvm_test_top.env.master_agent.sqr@@unalign_seq [axi4_unaligned_seq] [2/40] Unaligned AXI4_WRITE: ADDR=0xa838c695 SIZE=AXI4_SIZE_2B BURST=AXI4_BURST_INCR (AlignmentOffset=1)
# UVM_INFO ../src/mst/axi4_master_driver.sv(73) @ 95000: uvm_test_top.env.master_agent.drv [axi4_master_driver] Driving AXI4_WRITE  ID=0xa  ADDR=0x08686f5e  LEN=135
# UVM_INFO ../src/seq/axi4_unaligned_seq.sv(54) @ 95000: uvm_test_top.env.master_agent.sqr@@unalign_seq [axi4_unaligned_seq] [3/40] Unaligned AXI4_WRITE: ADDR=0x08686f5e SIZE=AXI4_SIZE_4B BURST=AXI4_BURST_INCR (AlignmentOffset=2)
# UVM_INFO ../src/mst/axi4_master_driver.sv(73) @ 95000: uvm_test_top.env.master_agent.drv [axi4_master_driver] Driving AXI4_READ  ID=0x6  ADDR=0xc88ed313  LEN=103
# UVM_INFO ../src/seq/axi4_unaligned_seq.sv(54) @ 95000: uvm_test_top.env.master_agent.sqr@@unalign_seq [axi4_unaligned_seq] [4/40] Unaligned AXI4_READ: ADDR=0xc88ed313 SIZE=AXI4_SIZE_2B BURST=AXI4_BURST_INCR (AlignmentOffset=1)
# UVM_INFO ../src/mst/axi4_master_driver.sv(73) @ 95000: uvm_test_top.env.master_agent.drv [axi4_master_driver] Driving AXI4_WRITE  ID=0x1  ADDR=0x72fe1be1  LEN=23
# UVM_INFO ../src/seq/axi4_unaligned_seq.sv(54) @ 95000: uvm_test_top.env.master_agent.sqr@@unalign_seq [axi4_unaligned_seq] [5/40] Unaligned AXI4_WRITE: ADDR=0x72fe1be1 SIZE=AXI4_SIZE_2B BURST=AXI4_BURST_INCR (AlignmentOffset=1)
# UVM_INFO ../src/mst/axi4_master_driver.sv(73) @ 95000: uvm_test_top.env.master_agent.drv [axi4_master_driver] Driving AXI4_READ  ID=0x7  ADDR=0x1de9f6de  LEN=20
# UVM_INFO ../src/seq/axi4_unaligned_seq.sv(54) @ 95000: uvm_test_top.env.master_agent.sqr@@unalign_seq [axi4_unaligned_seq] [6/40] Unaligned AXI4_READ: ADDR=0x1de9f6de SIZE=AXI4_SIZE_4B BURST=AXI4_BURST_INCR (AlignmentOffset=2)
# UVM_INFO ../src/mst/axi4_master_driver.sv(73) @ 95000: uvm_test_top.env.master_agent.drv [axi4_master_driver] Driving AXI4_WRITE  ID=0xd  ADDR=0x329ffd1f  LEN=163
# UVM_INFO ../src/seq/axi4_unaligned_seq.sv(54) @ 95000: uvm_test_top.env.master_agent.sqr@@unalign_seq [axi4_unaligned_seq] [7/40] Unaligned AXI4_WRITE: ADDR=0x329ffd1f SIZE=AXI4_SIZE_2B BURST=AXI4_BURST_INCR (AlignmentOffset=1)
# UVM_INFO ../src/mst/axi4_master_driver.sv(73) @ 95000: uvm_test_top.env.master_agent.drv [axi4_master_driver] Driving AXI4_READ  ID=0x0  ADDR=0x94b00567  LEN=98
# UVM_INFO ../src/seq/axi4_unaligned_seq.sv(54) @ 95000: uvm_test_top.env.master_agent.sqr@@unalign_seq [axi4_unaligned_seq] [8/40] Unaligned AXI4_READ: ADDR=0x94b00567 SIZE=AXI4_SIZE_2B BURST=AXI4_BURST_INCR (AlignmentOffset=1)
# UVM_INFO ../src/mst/axi4_master_driver.sv(73) @ 95000: uvm_test_top.env.master_agent.drv [axi4_master_driver] Driving AXI4_READ  ID=0xf  ADDR=0xc40319d6  LEN=33
# UVM_INFO ../src/seq/axi4_unaligned_seq.sv(54) @ 95000: uvm_test_top.env.master_agent.sqr@@unalign_seq [axi4_unaligned_seq] [9/40] Unaligned AXI4_READ: ADDR=0xc40319d6 SIZE=AXI4_SIZE_4B BURST=AXI4_BURST_INCR (AlignmentOffset=2)
# UVM_INFO ../src/mst/axi4_master_driver.sv(73) @ 95000: uvm_test_top.env.master_agent.drv [axi4_master_driver] Driving AXI4_WRITE  ID=0x3  ADDR=0x7bfdfc3b  LEN=251
# UVM_INFO ../src/seq/axi4_unaligned_seq.sv(54) @ 95000: uvm_test_top.env.master_agent.sqr@@unalign_seq [axi4_unaligned_seq] [10/40] Unaligned AXI4_WRITE: ADDR=0x7bfdfc3b SIZE=AXI4_SIZE_2B BURST=AXI4_BURST_INCR (AlignmentOffset=1)
# UVM_INFO ../src/mst/axi4_master_driver.sv(73) @ 95000: uvm_test_top.env.master_agent.drv [axi4_master_driver] Driving AXI4_WRITE  ID=0x8  ADDR=0xbebc1c2a  LEN=125
# UVM_INFO ../src/seq/axi4_unaligned_seq.sv(54) @ 95000: uvm_test_top.env.master_agent.sqr@@unalign_seq [axi4_unaligned_seq] [11/40] Unaligned AXI4_WRITE: ADDR=0xbebc1c2a SIZE=AXI4_SIZE_4B BURST=AXI4_BURST_INCR (AlignmentOffset=2)
# UVM_INFO ../src/mst/axi4_master_driver.sv(73) @ 95000: uvm_test_top.env.master_agent.drv [axi4_master_driver] Driving AXI4_WRITE  ID=0x7  ADDR=0x65fe0df7  LEN=241
# UVM_INFO ../src/seq/axi4_unaligned_seq.sv(54) @ 95000: uvm_test_top.env.master_agent.sqr@@unalign_seq [axi4_unaligned_seq] [12/40] Unaligned AXI4_WRITE: ADDR=0x65fe0df7 SIZE=AXI4_SIZE_4B BURST=AXI4_BURST_INCR (AlignmentOffset=3)
# UVM_INFO ../src/mst/axi4_master_driver.sv(73) @ 95000: uvm_test_top.env.master_agent.drv [axi4_master_driver] Driving AXI4_WRITE  ID=0x0  ADDR=0x6362f742  LEN=108
# UVM_INFO ../src/seq/axi4_unaligned_seq.sv(54) @ 95000: uvm_test_top.env.master_agent.sqr@@unalign_seq [axi4_unaligned_seq] [13/40] Unaligned AXI4_WRITE: ADDR=0x6362f742 SIZE=AXI4_SIZE_4B BURST=AXI4_BURST_INCR (AlignmentOffset=2)
# UVM_INFO ../src/mst/axi4_master_driver.sv(73) @ 95000: uvm_test_top.env.master_agent.drv [axi4_master_driver] Driving AXI4_WRITE  ID=0x5  ADDR=0x29a30809  LEN=24
# UVM_INFO ../src/seq/axi4_unaligned_seq.sv(54) @ 95000: uvm_test_top.env.master_agent.sqr@@unalign_seq [axi4_unaligned_seq] [14/40] Unaligned AXI4_WRITE: ADDR=0x29a30809 SIZE=AXI4_SIZE_4B BURST=AXI4_BURST_INCR (AlignmentOffset=1)
# UVM_INFO ../src/mst/axi4_master_driver.sv(73) @ 95000: uvm_test_top.env.master_agent.drv [axi4_master_driver] Driving AXI4_READ  ID=0x0  ADDR=0xce338596  LEN=11
# UVM_INFO ../src/seq/axi4_unaligned_seq.sv(54) @ 95000: uvm_test_top.env.master_agent.sqr@@unalign_seq [axi4_unaligned_seq] [15/40] Unaligned AXI4_READ: ADDR=0xce338596 SIZE=AXI4_SIZE_4B BURST=AXI4_BURST_FIXED (AlignmentOffset=2)
# UVM_INFO ../src/mst/axi4_master_driver.sv(73) @ 95000: uvm_test_top.env.master_agent.drv [axi4_master_driver] Driving AXI4_READ  ID=0x2  ADDR=0x40aed1ae  LEN=221
# UVM_INFO ../src/seq/axi4_unaligned_seq.sv(54) @ 95000: uvm_test_top.env.master_agent.sqr@@unalign_seq [axi4_unaligned_seq] [16/40] Unaligned AXI4_READ: ADDR=0x40aed1ae SIZE=AXI4_SIZE_4B BURST=AXI4_BURST_INCR (AlignmentOffset=2)
# UVM_INFO ../src/mst/axi4_master_driver.sv(73) @ 95000: uvm_test_top.env.master_agent.drv [axi4_master_driver] Driving AXI4_READ  ID=0xb  ADDR=0x49cef509  LEN=89
# UVM_INFO ../src/seq/axi4_unaligned_seq.sv(54) @ 95000: uvm_test_top.env.master_agent.sqr@@unalign_seq [axi4_unaligned_seq] [17/40] Unaligned AXI4_READ: ADDR=0x49cef509 SIZE=AXI4_SIZE_4B BURST=AXI4_BURST_INCR (AlignmentOffset=1)
# UVM_INFO ../src/mst/axi4_master_driver.sv(73) @ 95000: uvm_test_top.env.master_agent.drv [axi4_master_driver] Driving AXI4_READ  ID=0x8  ADDR=0x86562135  LEN=229
# UVM_INFO ../src/seq/axi4_unaligned_seq.sv(54) @ 95000: uvm_test_top.env.master_agent.sqr@@unalign_seq [axi4_unaligned_seq] [18/40] Unaligned AXI4_READ: ADDR=0x86562135 SIZE=AXI4_SIZE_2B BURST=AXI4_BURST_INCR (AlignmentOffset=1)
# UVM_INFO ../src/mst/axi4_master_driver.sv(73) @ 95000: uvm_test_top.env.master_agent.drv [axi4_master_driver] Driving AXI4_READ  ID=0x1  ADDR=0xaea287e1  LEN=11
# UVM_INFO ../src/seq/axi4_unaligned_seq.sv(54) @ 95000: uvm_test_top.env.master_agent.sqr@@unalign_seq [axi4_unaligned_seq] [19/40] Unaligned AXI4_READ: ADDR=0xaea287e1 SIZE=AXI4_SIZE_2B BURST=AXI4_BURST_INCR (AlignmentOffset=1)
# UVM_INFO ../src/mst/axi4_master_driver.sv(73) @ 95000: uvm_test_top.env.master_agent.drv [axi4_master_driver] Driving AXI4_WRITE  ID=0xc  ADDR=0x176eee1f  LEN=86
# UVM_INFO ../src/seq/axi4_unaligned_seq.sv(54) @ 95000: uvm_test_top.env.master_agent.sqr@@unalign_seq [axi4_unaligned_seq] [20/40] Unaligned AXI4_WRITE: ADDR=0x176eee1f SIZE=AXI4_SIZE_2B BURST=AXI4_BURST_INCR (AlignmentOffset=1)
# UVM_INFO ../src/mst/axi4_master_driver.sv(73) @ 95000: uvm_test_top.env.master_agent.drv [axi4_master_driver] Driving AXI4_WRITE  ID=0x5  ADDR=0x90940d87  LEN=138
# UVM_INFO ../src/seq/axi4_unaligned_seq.sv(54) @ 95000: uvm_test_top.env.master_agent.sqr@@unalign_seq [axi4_unaligned_seq] [21/40] Unaligned AXI4_WRITE: ADDR=0x90940d87 SIZE=AXI4_SIZE_4B BURST=AXI4_BURST_INCR (AlignmentOffset=3)
# UVM_INFO ../src/mst/axi4_master_driver.sv(73) @ 95000: uvm_test_top.env.master_agent.drv [axi4_master_driver] Driving AXI4_WRITE  ID=0x6  ADDR=0x421df056  LEN=157
# UVM_INFO ../src/seq/axi4_unaligned_seq.sv(54) @ 95000: uvm_test_top.env.master_agent.sqr@@unalign_seq [axi4_unaligned_seq] [22/40] Unaligned AXI4_WRITE: ADDR=0x421df056 SIZE=AXI4_SIZE_4B BURST=AXI4_BURST_INCR (AlignmentOffset=2)
# UVM_INFO ../src/mst/axi4_master_driver.sv(73) @ 95000: uvm_test_top.env.master_agent.drv [axi4_master_driver] Driving AXI4_READ  ID=0x7  ADDR=0x128104c5  LEN=115
# UVM_INFO ../src/seq/axi4_unaligned_seq.sv(54) @ 95000: uvm_test_top.env.master_agent.sqr@@unalign_seq [axi4_unaligned_seq] [23/40] Unaligned AXI4_READ: ADDR=0x128104c5 SIZE=AXI4_SIZE_4B BURST=AXI4_BURST_INCR (AlignmentOffset=1)
# UVM_INFO ../src/mst/axi4_master_driver.sv(73) @ 95000: uvm_test_top.env.master_agent.drv [axi4_master_driver] Driving AXI4_WRITE  ID=0x8  ADDR=0xb82664bd  LEN=10
# UVM_INFO ../src/seq/axi4_unaligned_seq.sv(54) @ 95000: uvm_test_top.env.master_agent.sqr@@unalign_seq [axi4_unaligned_seq] [24/40] Unaligned AXI4_WRITE: ADDR=0xb82664bd SIZE=AXI4_SIZE_2B BURST=AXI4_BURST_FIXED (AlignmentOffset=1)
# UVM_INFO ../src/mst/axi4_master_driver.sv(73) @ 95000: uvm_test_top.env.master_agent.drv [axi4_master_driver] Driving AXI4_WRITE  ID=0x6  ADDR=0x63cd3ea2  LEN=67
# UVM_INFO ../src/seq/axi4_unaligned_seq.sv(54) @ 95000: uvm_test_top.env.master_agent.sqr@@unalign_seq [axi4_unaligned_seq] [25/40] Unaligned AXI4_WRITE: ADDR=0x63cd3ea2 SIZE=AXI4_SIZE_4B BURST=AXI4_BURST_INCR (AlignmentOffset=2)
# UVM_INFO ../src/mst/axi4_master_driver.sv(73) @ 95000: uvm_test_top.env.master_agent.drv [axi4_master_driver] Driving AXI4_WRITE  ID=0xa  ADDR=0x0050dfb6  LEN=150
# UVM_INFO ../src/seq/axi4_unaligned_seq.sv(54) @ 95000: uvm_test_top.env.master_agent.sqr@@unalign_seq [axi4_unaligned_seq] [26/40] Unaligned AXI4_WRITE: ADDR=0x0050dfb6 SIZE=AXI4_SIZE_4B BURST=AXI4_BURST_INCR (AlignmentOffset=2)
# UVM_INFO ../src/mst/axi4_master_driver.sv(73) @ 95000: uvm_test_top.env.master_agent.drv [axi4_master_driver] Driving AXI4_WRITE  ID=0x0  ADDR=0x63ce0a73  LEN=151
# UVM_INFO ../src/seq/axi4_unaligned_seq.sv(54) @ 95000: uvm_test_top.env.master_agent.sqr@@unalign_seq [axi4_unaligned_seq] [27/40] Unaligned AXI4_WRITE: ADDR=0x63ce0a73 SIZE=AXI4_SIZE_2B BURST=AXI4_BURST_INCR (AlignmentOffset=1)
# UVM_INFO ../src/mst/axi4_master_driver.sv(73) @ 95000: uvm_test_top.env.master_agent.drv [axi4_master_driver] Driving AXI4_WRITE  ID=0x0  ADDR=0x70b8652a  LEN=238
# UVM_INFO ../src/seq/axi4_unaligned_seq.sv(54) @ 95000: uvm_test_top.env.master_agent.sqr@@unalign_seq [axi4_unaligned_seq] [28/40] Unaligned AXI4_WRITE: ADDR=0x70b8652a SIZE=AXI4_SIZE_4B BURST=AXI4_BURST_INCR (AlignmentOffset=2)
# UVM_INFO ../src/mst/axi4_master_driver.sv(73) @ 95000: uvm_test_top.env.master_agent.drv [axi4_master_driver] Driving AXI4_WRITE  ID=0x8  ADDR=0x9f61e2fa  LEN=114
# UVM_INFO ../src/seq/axi4_unaligned_seq.sv(54) @ 95000: uvm_test_top.env.master_agent.sqr@@unalign_seq [axi4_unaligned_seq] [29/40] Unaligned AXI4_WRITE: ADDR=0x9f61e2fa SIZE=AXI4_SIZE_4B BURST=AXI4_BURST_INCR (AlignmentOffset=2)
# UVM_INFO ../src/mst/axi4_master_driver.sv(73) @ 95000: uvm_test_top.env.master_agent.drv [axi4_master_driver] Driving AXI4_READ  ID=0x6  ADDR=0xc3d9c5ba  LEN=15
# UVM_INFO ../src/seq/axi4_unaligned_seq.sv(54) @ 95000: uvm_test_top.env.master_agent.sqr@@unalign_seq [axi4_unaligned_seq] [30/40] Unaligned AXI4_READ: ADDR=0xc3d9c5ba SIZE=AXI4_SIZE_4B BURST=AXI4_BURST_FIXED (AlignmentOffset=2)
# UVM_INFO ../src/mst/axi4_master_driver.sv(73) @ 95000: uvm_test_top.env.master_agent.drv [axi4_master_driver] Driving AXI4_READ  ID=0x1  ADDR=0xa511e3b3  LEN=75
# UVM_INFO ../src/seq/axi4_unaligned_seq.sv(54) @ 95000: uvm_test_top.env.master_agent.sqr@@unalign_seq [axi4_unaligned_seq] [31/40] Unaligned AXI4_READ: ADDR=0xa511e3b3 SIZE=AXI4_SIZE_2B BURST=AXI4_BURST_INCR (AlignmentOffset=1)
# UVM_INFO ../src/mst/axi4_master_driver.sv(73) @ 95000: uvm_test_top.env.master_agent.drv [axi4_master_driver] Driving AXI4_READ  ID=0x9  ADDR=0xa0a4d2eb  LEN=168
# UVM_INFO ../src/seq/axi4_unaligned_seq.sv(54) @ 95000: uvm_test_top.env.master_agent.sqr@@unalign_seq [axi4_unaligned_seq] [32/40] Unaligned AXI4_READ: ADDR=0xa0a4d2eb SIZE=AXI4_SIZE_4B BURST=AXI4_BURST_INCR (AlignmentOffset=3)
# UVM_INFO ../src/mst/axi4_master_driver.sv(73) @ 95000: uvm_test_top.env.master_agent.drv [axi4_master_driver] Driving AXI4_READ  ID=0xe  ADDR=0x5dc39e1d  LEN=5
# UVM_INFO ../src/seq/axi4_unaligned_seq.sv(54) @ 95000: uvm_test_top.env.master_agent.sqr@@unalign_seq [axi4_unaligned_seq] [33/40] Unaligned AXI4_READ: ADDR=0x5dc39e1d SIZE=AXI4_SIZE_4B BURST=AXI4_BURST_INCR (AlignmentOffset=1)
# UVM_INFO ../src/mst/axi4_master_driver.sv(73) @ 95000: uvm_test_top.env.master_agent.drv [axi4_master_driver] Driving AXI4_WRITE  ID=0x0  ADDR=0x1d3c4787  LEN=145
# UVM_INFO ../src/seq/axi4_unaligned_seq.sv(54) @ 95000: uvm_test_top.env.master_agent.sqr@@unalign_seq [axi4_unaligned_seq] [34/40] Unaligned AXI4_WRITE: ADDR=0x1d3c4787 SIZE=AXI4_SIZE_2B BURST=AXI4_BURST_INCR (AlignmentOffset=1)
# UVM_INFO ../src/mst/axi4_master_driver.sv(73) @ 95000: uvm_test_top.env.master_agent.drv [axi4_master_driver] Driving AXI4_WRITE  ID=0xb  ADDR=0x8f9bea93  LEN=219
# UVM_INFO ../src/seq/axi4_unaligned_seq.sv(54) @ 95000: uvm_test_top.env.master_agent.sqr@@unalign_seq [axi4_unaligned_seq] [35/40] Unaligned AXI4_WRITE: ADDR=0x8f9bea93 SIZE=AXI4_SIZE_4B BURST=AXI4_BURST_INCR (AlignmentOffset=3)
# UVM_INFO ../src/mst/axi4_master_driver.sv(73) @ 95000: uvm_test_top.env.master_agent.drv [axi4_master_driver] Driving AXI4_WRITE  ID=0xd  ADDR=0x65a9e845  LEN=21
# UVM_INFO ../src/seq/axi4_unaligned_seq.sv(54) @ 95000: uvm_test_top.env.master_agent.sqr@@unalign_seq [axi4_unaligned_seq] [36/40] Unaligned AXI4_WRITE: ADDR=0x65a9e845 SIZE=AXI4_SIZE_2B BURST=AXI4_BURST_INCR (AlignmentOffset=1)
# UVM_INFO ../src/mst/axi4_master_driver.sv(73) @ 95000: uvm_test_top.env.master_agent.drv [axi4_master_driver] Driving AXI4_READ  ID=0x2  ADDR=0x857cc1e1  LEN=47
# UVM_INFO ../src/seq/axi4_unaligned_seq.sv(54) @ 95000: uvm_test_top.env.master_agent.sqr@@unalign_seq [axi4_unaligned_seq] [37/40] Unaligned AXI4_READ: ADDR=0x857cc1e1 SIZE=AXI4_SIZE_4B BURST=AXI4_BURST_INCR (AlignmentOffset=1)
# UVM_INFO ../src/mst/axi4_master_driver.sv(73) @ 95000: uvm_test_top.env.master_agent.drv [axi4_master_driver] Driving AXI4_WRITE  ID=0xb  ADDR=0x52693bad  LEN=242
# UVM_INFO ../src/seq/axi4_unaligned_seq.sv(54) @ 95000: uvm_test_top.env.master_agent.sqr@@unalign_seq [axi4_unaligned_seq] [38/40] Unaligned AXI4_WRITE: ADDR=0x52693bad SIZE=AXI4_SIZE_4B BURST=AXI4_BURST_INCR (AlignmentOffset=1)
# UVM_INFO ../src/mst/axi4_master_driver.sv(73) @ 95000: uvm_test_top.env.master_agent.drv [axi4_master_driver] Driving AXI4_WRITE  ID=0x4  ADDR=0x05e31213  LEN=135
# UVM_INFO ../src/seq/axi4_unaligned_seq.sv(54) @ 95000: uvm_test_top.env.master_agent.sqr@@unalign_seq [axi4_unaligned_seq] [39/40] Unaligned AXI4_WRITE: ADDR=0x05e31213 SIZE=AXI4_SIZE_2B BURST=AXI4_BURST_INCR (AlignmentOffset=1)
# UVM_INFO ../src/mst/axi4_master_driver.sv(73) @ 95000: uvm_test_top.env.master_agent.drv [axi4_master_driver] Driving AXI4_READ  ID=0x7  ADDR=0x5364ab71  LEN=161
# UVM_INFO ../src/seq/axi4_unaligned_seq.sv(54) @ 95000: uvm_test_top.env.master_agent.sqr@@unalign_seq [axi4_unaligned_seq] [40/40] Unaligned AXI4_READ: ADDR=0x5364ab71 SIZE=AXI4_SIZE_2B BURST=AXI4_BURST_INCR (AlignmentOffset=1)
# UVM_INFO ../src/seq/axi4_unaligned_seq.sv(57) @ 95000: uvm_test_top.env.master_agent.sqr@@unalign_seq [axi4_unaligned_seq] Unaligned access sequence complete
# UVM_INFO ../src/slv/axi4_slave_driver.sv(386) @ 115000: uvm_test_top.env.slave_agent.drv [axi4_slave_driver] AR received: ID=0x6 ADDR=0xc88ed313 LEN=103 LOCK=AXI4_LOCK_NORMAL
# UVM_INFO ../src/slv/axi4_slave_driver.sv(228) @ 115000: uvm_test_top.env.slave_agent.drv [axi4_slave_driver] AW received: ID=0x4 ADDR=0xb8ae8cb1 LEN=190 LOCK=AXI4_LOCK_NORMAL
# UVM_INFO ../src/slv/axi4_slave_monitor.sv(224) @ 115000: uvm_test_top.env.slave_agent.mon [axi4_slave_monitor] AR received: ID=0x6 ADDR=0xc88ed313 LEN=103
# UVM_INFO ../src/slv/axi4_slave_monitor.sv(116) @ 115000: uvm_test_top.env.slave_agent.mon [axi4_slave_monitor] AW received: ID=0x4 ADDR=0xb8ae8cb1 LEN=190
# UVM_INFO ../src/mst/axi4_master_monitor.sv(246) @ 115000: uvm_test_top.env.master_agent.mon [axi4_master_monitor] AR observed: ID=0x6 ADDR=0xc88ed313 LEN=103
# UVM_INFO ../src/mst/axi4_master_monitor.sv(124) @ 115000: uvm_test_top.env.master_agent.mon [axi4_master_monitor] AW observed: ID=0x4 ADDR=0xb8ae8cb1 LEN=190
# UVM_INFO ../src/slv/axi4_slave_driver.sv(228) @ 145000: uvm_test_top.env.slave_agent.drv [axi4_slave_driver] AW received: ID=0xd ADDR=0xa838c695 LEN=17 LOCK=AXI4_LOCK_NORMAL
# UVM_INFO ../src/slv/axi4_slave_driver.sv(386) @ 145000: uvm_test_top.env.slave_agent.drv [axi4_slave_driver] AR received: ID=0x7 ADDR=0x1de9f6de LEN=20 LOCK=AXI4_LOCK_NORMAL
# UVM_INFO ../src/mst/axi4_master_monitor.sv(124) @ 145000: uvm_test_top.env.master_agent.mon [axi4_master_monitor] AW observed: ID=0xd ADDR=0xa838c695 LEN=17
# UVM_INFO ../src/mst/axi4_master_monitor.sv(246) @ 145000: uvm_test_top.env.master_agent.mon [axi4_master_monitor] AR observed: ID=0x7 ADDR=0x1de9f6de LEN=20
# UVM_INFO ../src/slv/axi4_slave_monitor.sv(116) @ 145000: uvm_test_top.env.slave_agent.mon [axi4_slave_monitor] AW received: ID=0xd ADDR=0xa838c695 LEN=17
# UVM_INFO ../src/slv/axi4_slave_monitor.sv(224) @ 145000: uvm_test_top.env.slave_agent.mon [axi4_slave_monitor] AR received: ID=0x7 ADDR=0x1de9f6de LEN=20
# UVM_INFO ../src/slv/axi4_slave_driver.sv(386) @ 175000: uvm_test_top.env.slave_agent.drv [axi4_slave_driver] AR received: ID=0x0 ADDR=0x94b00567 LEN=98 LOCK=AXI4_LOCK_NORMAL
# UVM_INFO ../src/slv/axi4_slave_driver.sv(228) @ 175000: uvm_test_top.env.slave_agent.drv [axi4_slave_driver] AW received: ID=0xa ADDR=0x08686f5e LEN=135 LOCK=AXI4_LOCK_NORMAL
# UVM_INFO ../src/slv/axi4_slave_monitor.sv(224) @ 175000: uvm_test_top.env.slave_agent.mon [axi4_slave_monitor] AR received: ID=0x0 ADDR=0x94b00567 LEN=98
# UVM_INFO ../src/slv/axi4_slave_monitor.sv(116) @ 175000: uvm_test_top.env.slave_agent.mon [axi4_slave_monitor] AW received: ID=0xa ADDR=0x08686f5e LEN=135
# UVM_INFO ../src/mst/axi4_master_monitor.sv(246) @ 175000: uvm_test_top.env.master_agent.mon [axi4_master_monitor] AR observed: ID=0x0 ADDR=0x94b00567 LEN=98
# UVM_INFO ../src/mst/axi4_master_monitor.sv(124) @ 175000: uvm_test_top.env.master_agent.mon [axi4_master_monitor] AW observed: ID=0xa ADDR=0x08686f5e LEN=135
# UVM_INFO ../src/slv/axi4_slave_driver.sv(228) @ 205000: uvm_test_top.env.slave_agent.drv [axi4_slave_driver] AW received: ID=0x1 ADDR=0x72fe1be1 LEN=23 LOCK=AXI4_LOCK_NORMAL
# UVM_INFO ../src/slv/axi4_slave_driver.sv(386) @ 205000: uvm_test_top.env.slave_agent.drv [axi4_slave_driver] AR received: ID=0xf ADDR=0xc40319d6 LEN=33 LOCK=AXI4_LOCK_NORMAL
# UVM_INFO ../src/mst/axi4_master_monitor.sv(124) @ 205000: uvm_test_top.env.master_agent.mon [axi4_master_monitor] AW observed: ID=0x1 ADDR=0x72fe1be1 LEN=23
# UVM_INFO ../src/mst/axi4_master_monitor.sv(246) @ 205000: uvm_test_top.env.master_agent.mon [axi4_master_monitor] AR observed: ID=0xf ADDR=0xc40319d6 LEN=33
# UVM_INFO ../src/slv/axi4_slave_monitor.sv(116) @ 205000: uvm_test_top.env.slave_agent.mon [axi4_slave_monitor] AW received: ID=0x1 ADDR=0x72fe1be1 LEN=23
# UVM_INFO ../src/slv/axi4_slave_monitor.sv(224) @ 205000: uvm_test_top.env.slave_agent.mon [axi4_slave_monitor] AR received: ID=0xf ADDR=0xc40319d6 LEN=33
# UVM_INFO ../src/slv/axi4_slave_driver.sv(386) @ 235000: uvm_test_top.env.slave_agent.drv [axi4_slave_driver] AR received: ID=0x0 ADDR=0xce338596 LEN=11 LOCK=AXI4_LOCK_NORMAL
# UVM_INFO ../src/slv/axi4_slave_monitor.sv(224) @ 235000: uvm_test_top.env.slave_agent.mon [axi4_slave_monitor] AR received: ID=0x0 ADDR=0xce338596 LEN=11
# UVM_INFO ../src/mst/axi4_master_monitor.sv(246) @ 235000: uvm_test_top.env.master_agent.mon [axi4_master_monitor] AR observed: ID=0x0 ADDR=0xce338596 LEN=11
# UVM_INFO ../src/slv/axi4_slave_driver.sv(386) @ 265000: uvm_test_top.env.slave_agent.drv [axi4_slave_driver] AR received: ID=0x2 ADDR=0x40aed1ae LEN=221 LOCK=AXI4_LOCK_NORMAL
# UVM_INFO ../src/mst/axi4_master_monitor.sv(246) @ 265000: uvm_test_top.env.master_agent.mon [axi4_master_monitor] AR observed: ID=0x2 ADDR=0x40aed1ae LEN=221
# UVM_INFO ../src/slv/axi4_slave_monitor.sv(224) @ 265000: uvm_test_top.env.slave_agent.mon [axi4_slave_monitor] AR received: ID=0x2 ADDR=0x40aed1ae LEN=221
# UVM_INFO ../src/slv/axi4_slave_driver.sv(386) @ 295000: uvm_test_top.env.slave_agent.drv [axi4_slave_driver] AR received: ID=0xb ADDR=0x49cef509 LEN=89 LOCK=AXI4_LOCK_NORMAL
# UVM_INFO ../src/slv/axi4_slave_monitor.sv(224) @ 295000: uvm_test_top.env.slave_agent.mon [axi4_slave_monitor] AR received: ID=0xb ADDR=0x49cef509 LEN=89
# UVM_INFO ../src/mst/axi4_master_monitor.sv(246) @ 295000: uvm_test_top.env.master_agent.mon [axi4_master_monitor] AR observed: ID=0xb ADDR=0x49cef509 LEN=89
# UVM_INFO ../src/slv/axi4_slave_driver.sv(386) @ 325000: uvm_test_top.env.slave_agent.drv [axi4_slave_driver] AR received: ID=0x8 ADDR=0x86562135 LEN=229 LOCK=AXI4_LOCK_NORMAL
# UVM_INFO ../src/mst/axi4_master_monitor.sv(246) @ 325000: uvm_test_top.env.master_agent.mon [axi4_master_monitor] AR observed: ID=0x8 ADDR=0x86562135 LEN=229
# UVM_INFO ../src/slv/axi4_slave_monitor.sv(224) @ 325000: uvm_test_top.env.slave_agent.mon [axi4_slave_monitor] AR received: ID=0x8 ADDR=0x86562135 LEN=229
# UVM_INFO ../src/slv/axi4_slave_driver.sv(386) @ 355000: uvm_test_top.env.slave_agent.drv [axi4_slave_driver] AR received: ID=0x1 ADDR=0xaea287e1 LEN=11 LOCK=AXI4_LOCK_NORMAL
# UVM_INFO ../src/slv/axi4_slave_monitor.sv(224) @ 355000: uvm_test_top.env.slave_agent.mon [axi4_slave_monitor] AR received: ID=0x1 ADDR=0xaea287e1 LEN=11
# UVM_INFO ../src/mst/axi4_master_monitor.sv(246) @ 355000: uvm_test_top.env.master_agent.mon [axi4_master_monitor] AR observed: ID=0x1 ADDR=0xaea287e1 LEN=11
# UVM_INFO ../src/slv/axi4_slave_driver.sv(386) @ 385000: uvm_test_top.env.slave_agent.drv [axi4_slave_driver] AR received: ID=0x7 ADDR=0x128104c5 LEN=115 LOCK=AXI4_LOCK_NORMAL
# UVM_INFO ../src/mst/axi4_master_monitor.sv(246) @ 385000: uvm_test_top.env.master_agent.mon [axi4_master_monitor] AR observed: ID=0x7 ADDR=0x128104c5 LEN=115
# UVM_INFO ../src/slv/axi4_slave_monitor.sv(224) @ 385000: uvm_test_top.env.slave_agent.mon [axi4_slave_monitor] AR received: ID=0x7 ADDR=0x128104c5 LEN=115
# UVM_INFO ../src/slv/axi4_slave_driver.sv(386) @ 415000: uvm_test_top.env.slave_agent.drv [axi4_slave_driver] AR received: ID=0x6 ADDR=0xc3d9c5ba LEN=15 LOCK=AXI4_LOCK_NORMAL
# UVM_INFO ../src/slv/axi4_slave_monitor.sv(224) @ 415000: uvm_test_top.env.slave_agent.mon [axi4_slave_monitor] AR received: ID=0x6 ADDR=0xc3d9c5ba LEN=15
# UVM_INFO ../src/mst/axi4_master_monitor.sv(246) @ 415000: uvm_test_top.env.master_agent.mon [axi4_master_monitor] AR observed: ID=0x6 ADDR=0xc3d9c5ba LEN=15
# UVM_INFO ../src/slv/axi4_slave_driver.sv(386) @ 445000: uvm_test_top.env.slave_agent.drv [axi4_slave_driver] AR received: ID=0x1 ADDR=0xa511e3b3 LEN=75 LOCK=AXI4_LOCK_NORMAL
# UVM_INFO ../src/mst/axi4_master_monitor.sv(246) @ 445000: uvm_test_top.env.master_agent.mon [axi4_master_monitor] AR observed: ID=0x1 ADDR=0xa511e3b3 LEN=75
# UVM_INFO ../src/slv/axi4_slave_monitor.sv(224) @ 445000: uvm_test_top.env.slave_agent.mon [axi4_slave_monitor] AR received: ID=0x1 ADDR=0xa511e3b3 LEN=75
# UVM_INFO ../src/slv/axi4_slave_driver.sv(386) @ 475000: uvm_test_top.env.slave_agent.drv [axi4_slave_driver] AR received: ID=0x9 ADDR=0xa0a4d2eb LEN=168 LOCK=AXI4_LOCK_NORMAL
# UVM_INFO ../src/slv/axi4_slave_monitor.sv(224) @ 475000: uvm_test_top.env.slave_agent.mon [axi4_slave_monitor] AR received: ID=0x9 ADDR=0xa0a4d2eb LEN=168
# UVM_INFO ../src/mst/axi4_master_monitor.sv(246) @ 475000: uvm_test_top.env.master_agent.mon [axi4_master_monitor] AR observed: ID=0x9 ADDR=0xa0a4d2eb LEN=168
# UVM_INFO ../src/slv/axi4_slave_driver.sv(386) @ 505000: uvm_test_top.env.slave_agent.drv [axi4_slave_driver] AR received: ID=0xe ADDR=0x5dc39e1d LEN=5 LOCK=AXI4_LOCK_NORMAL
# UVM_INFO ../src/mst/axi4_master_monitor.sv(246) @ 505000: uvm_test_top.env.master_agent.mon [axi4_master_monitor] AR observed: ID=0xe ADDR=0x5dc39e1d LEN=5
# UVM_INFO ../src/slv/axi4_slave_monitor.sv(224) @ 505000: uvm_test_top.env.slave_agent.mon [axi4_slave_monitor] AR received: ID=0xe ADDR=0x5dc39e1d LEN=5
# UVM_INFO ../src/slv/axi4_slave_driver.sv(386) @ 535000: uvm_test_top.env.slave_agent.drv [axi4_slave_driver] AR received: ID=0x2 ADDR=0x857cc1e1 LEN=47 LOCK=AXI4_LOCK_NORMAL
# UVM_INFO ../src/slv/axi4_slave_monitor.sv(224) @ 535000: uvm_test_top.env.slave_agent.mon [axi4_slave_monitor] AR received: ID=0x2 ADDR=0x857cc1e1 LEN=47
# UVM_INFO ../src/mst/axi4_master_monitor.sv(246) @ 535000: uvm_test_top.env.master_agent.mon [axi4_master_monitor] AR observed: ID=0x2 ADDR=0x857cc1e1 LEN=47
# UVM_INFO ../src/slv/axi4_slave_driver.sv(386) @ 565000: uvm_test_top.env.slave_agent.drv [axi4_slave_driver] AR received: ID=0x7 ADDR=0x5364ab71 LEN=161 LOCK=AXI4_LOCK_NORMAL
# UVM_INFO ../src/mst/axi4_master_monitor.sv(246) @ 565000: uvm_test_top.env.master_agent.mon [axi4_master_monitor] AR observed: ID=0x7 ADDR=0x5364ab71 LEN=161
# UVM_INFO ../src/slv/axi4_slave_monitor.sv(224) @ 565000: uvm_test_top.env.slave_agent.mon [axi4_slave_monitor] AR received: ID=0x7 ADDR=0x5364ab71 LEN=161
# UVM_INFO ../src/test/axi4_unaligned_test.sv(33) @ 1095000: uvm_test_top [axi4_unaligned_test] Unaligned access test complete
# UVM_INFO ../src/mst/axi4_master_driver.sv(348) @ 2195000: uvm_test_top.env.master_agent.drv [axi4_master_driver] Master driver received all R beats for ID=0x6
# UVM_INFO ../src/slv/axi4_slave_driver.sv(501) @ 2195000: uvm_test_top.env.slave_agent.drv [axi4_slave_driver] Read complete: ID=0x6 ADDR=0xc88ed313 RESP=AXI4_RESP_OKAY  104 beats sent
# UVM_INFO ../src/slv/axi4_slave_monitor.sv(287) @ 2195000: uvm_test_top.env.slave_agent.mon [axi4_slave_monitor] Read data sent: ID=0x6 ADDR=0xc88ed313 104 beats
# UVM_INFO ../src/env/axi4_scoreboard.sv(108) @ 2195000: uvm_test_top.env.scb [axi4_scoreboard] Slave AXI4_READ received: ID=0x6 ADDR=0xc88ed313 LEN=103
# UVM_INFO ../src/mst/axi4_master_monitor.sv(314) @ 2195000: uvm_test_top.env.master_agent.mon [axi4_master_monitor] Read complete: ID=0x6 ADDR=0xc88ed313 104 beats
# UVM_INFO ../src/env/axi4_scoreboard.sv(87) @ 2195000: uvm_test_top.env.scb [axi4_scoreboard] Master AXI4_READ received: ID=0x6 ADDR=0xc88ed313 LEN=103
# UVM_INFO ../src/env/axi4_scoreboard.sv(291) @ 2195000: uvm_test_top.env.scb [axi4_scoreboard] [READ] MATCH #1: ID=0x6 ADDR=0xc88ed313 LEN=103
# UVM_INFO ../src/mst/axi4_master_driver.sv(348) @ 2615000: uvm_test_top.env.master_agent.drv [axi4_master_driver] Master driver received all R beats for ID=0x7
# UVM_INFO ../src/slv/axi4_slave_driver.sv(501) @ 2615000: uvm_test_top.env.slave_agent.drv [axi4_slave_driver] Read complete: ID=0x7 ADDR=0x1de9f6de RESP=AXI4_RESP_OKAY  21 beats sent
# UVM_INFO ../src/slv/axi4_slave_monitor.sv(287) @ 2615000: uvm_test_top.env.slave_agent.mon [axi4_slave_monitor] Read data sent: ID=0x7 ADDR=0x1de9f6de 21 beats
# UVM_INFO ../src/env/axi4_scoreboard.sv(108) @ 2615000: uvm_test_top.env.scb [axi4_scoreboard] Slave AXI4_READ received: ID=0x7 ADDR=0x1de9f6de LEN=20
# UVM_INFO ../src/mst/axi4_master_monitor.sv(314) @ 2615000: uvm_test_top.env.master_agent.mon [axi4_master_monitor] Read complete: ID=0x7 ADDR=0x1de9f6de 21 beats
# UVM_INFO ../src/env/axi4_scoreboard.sv(87) @ 2615000: uvm_test_top.env.scb [axi4_scoreboard] Master AXI4_READ received: ID=0x7 ADDR=0x1de9f6de LEN=20
# UVM_INFO ../src/env/axi4_scoreboard.sv(291) @ 2615000: uvm_test_top.env.scb [axi4_scoreboard] [READ] MATCH #2: ID=0x7 ADDR=0x1de9f6de LEN=20
# UVM_INFO ../src/mst/axi4_master_monitor.sv(184) @ 3905000: uvm_test_top.env.master_agent.mon [axi4_master_monitor] W data assembled: ID=0x4 ADDR=0xb8ae8cb1 191 beats
# UVM_INFO ../src/slv/axi4_slave_monitor.sv(167) @ 3905000: uvm_test_top.env.slave_agent.mon [axi4_slave_monitor] W data assembled: ID=0x4 ADDR=0xb8ae8cb1 191 beats
# UVM_INFO ../src/mst/axi4_master_driver.sv(289) @ 3935000: uvm_test_top.env.master_agent.drv [axi4_master_driver] Master driver received B response: ID=0x4 RESP=AXI4_RESP_OKAY
# UVM_INFO ../src/slv/axi4_slave_driver.sv(348) @ 3935000: uvm_test_top.env.slave_agent.drv [axi4_slave_driver] Write complete: ID=0x4 RESP=AXI4_RESP_OKAY
# UVM_INFO ../src/slv/axi4_slave_monitor.sv(189) @ 3935000: uvm_test_top.env.slave_agent.mon [axi4_slave_monitor] Write response sent: ID=0x4 ADDR=0xb8ae8cb1 RESP=AXI4_RESP_OKAY
# UVM_INFO ../src/env/axi4_scoreboard.sv(108) @ 3935000: uvm_test_top.env.scb [axi4_scoreboard] Slave AXI4_WRITE received: ID=0x4 ADDR=0xb8ae8cb1 LEN=190
# UVM_INFO ../src/mst/axi4_master_monitor.sv(210) @ 3935000: uvm_test_top.env.master_agent.mon [axi4_master_monitor] Write complete: ID=0x4 ADDR=0xb8ae8cb1 RESP=AXI4_RESP_OKAY
# UVM_INFO ../src/env/axi4_scoreboard.sv(87) @ 3935000: uvm_test_top.env.scb [axi4_scoreboard] Master AXI4_WRITE received: ID=0x4 ADDR=0xb8ae8cb1 LEN=190
# UVM_INFO ../src/env/axi4_scoreboard.sv(291) @ 3935000: uvm_test_top.env.scb [axi4_scoreboard] [WRITE] MATCH #3: ID=0x4 ADDR=0xb8ae8cb1 LEN=190
# UVM_INFO ../src/env/axi4_scoreboard.sv(219) @ 3935000: uvm_test_top.env.scb [axi4_scoreboard] [REF_MEM_WRITE] Addr=0xb8ae8cb2 Data=0xda
# UVM_INFO ../src/env/axi4_scoreboard.sv(219) @ 3935000: uvm_test_top.env.scb [axi4_scoreboard] [REF_MEM_WRITE] Addr=0xb8ae8cb3 Data=0xc1
# UVM_INFO ../src/env/axi4_scoreboard.sv(219) @ 3935000: uvm_test_top.env.scb [axi4_scoreboard] [REF_MEM_WRITE] Addr=0xb8ae8cb4 Data=0x23
# UVM_INFO ../src/env/axi4_scoreboard.sv(219) @ 3935000: uvm_test_top.env.scb [axi4_scoreboard] [REF_MEM_WRITE] Addr=0xb8ae8cb5 Data=0x17
# UVM_INFO ../src/env/axi4_scoreboard.sv(219) @ 3935000: uvm_test_top.env.scb [axi4_scoreboard] [REF_MEM_WRITE] Addr=0xb8ae8cb6 Data=0x4b
# UVM_INFO ../src/env/axi4_scoreboard.sv(219) @ 3935000: uvm_test_top.env.scb [axi4_scoreboard] [REF_MEM_WRITE] Addr=0xb8ae8cb8 Data=0x84
# UVM_INFO ../src/env/axi4_scoreboard.sv(219) @ 3935000: uvm_test_top.env.scb [axi4_scoreboard] [REF_MEM_WRITE] Addr=0xb8ae8cba Data=0x2a
# UVM_INFO ../src/env/axi4_scoreboard.sv(219) @ 3935000: uvm_test_top.env.scb [axi4_scoreboard] [REF_MEM_WRITE] Addr=0xb8ae8cbc Data=0x84
# UVM_INFO ../src/env/axi4_scoreboard.sv(219) @ 3935000: uvm_test_top.env.scb [axi4_scoreboard] [REF_MEM_WRITE] Addr=0xb8ae8cbf Data=0xaa
# UVM_INFO ../src/env/axi4_scoreboard.sv(219) @ 3935000: uvm_test_top.env.scb [axi4_scoreboard] [REF_MEM_WRITE] Addr=0xb8ae8cc0 Data=0x17
# UVM_INFO ../src/env/axi4_scoreboard.sv(219) @ 3935000: uvm_test_top.env.scb [axi4_scoreboard] [REF_MEM_WRITE] Addr=0xb8ae8cc2 Data=0x8d
# UVM_INFO ../src/env/axi4_scoreboard.sv(219) @ 3935000: uvm_test_top.env.scb [axi4_scoreboard] [REF_MEM_WRITE] Addr=0xb8ae8cc4 Data=0xef
# UVM_INFO ../src/env/axi4_scoreboard.sv(219) @ 3935000: uvm_test_top.env.scb [axi4_scoreboard] [REF_MEM_WRITE] Addr=0xb8ae8cc9 Data=0xeb
# UVM_INFO ../src/env/axi4_scoreboard.sv(219) @ 3935000: uvm_test_top.env.scb [axi4_scoreboard] [REF_MEM_WRITE] Addr=0xb8ae8ccb Data=0x81
# UVM_INFO ../src/env/axi4_scoreboard.sv(219) @ 3935000: uvm_test_top.env.scb [axi4_scoreboard] [REF_MEM_WRITE] Addr=0xb8ae8ccd Data=0x4b
# UVM_INFO ../src/env/axi4_scoreboard.sv(219) @ 3935000: uvm_test_top.env.scb [axi4_scoreboard] [REF_MEM_WRITE] Addr=0xb8ae8cd1 Data=0xdb
# UVM_INFO ../src/env/axi4_scoreboard.sv(219) @ 3935000: uvm_test_top.env.scb [axi4_scoreboard] [REF_MEM_WRITE] Addr=0xb8ae8cd2 Data=0x63
# UVM_INFO ../src/env/axi4_scoreboard.sv(219) @ 3935000: uvm_test_top.env.scb [axi4_scoreboard] [REF_MEM_WRITE] Addr=0xb8ae8cd3 Data=0xfd
# UVM_INFO ../src/env/axi4_scoreboard.sv(219) @ 3935000: uvm_test_top.env.scb [axi4_scoreboard] [REF_MEM_WRITE] Addr=0xb8ae8cd4 Data=0x97
# UVM_INFO ../src/env/axi4_scoreboard.sv(219) @ 3935000: uvm_test_top.env.scb [axi4_scoreboard] [REF_MEM_WRITE] Addr=0xb8ae8cde Data=0x49
# UVM_INFO ../src/env/axi4_scoreboard.sv(219) @ 3935000: uvm_test_top.env.scb [axi4_scoreboard] [REF_MEM_WRITE] Addr=0xb8ae8ce0 Data=0x74
# UVM_INFO ../src/env/axi4_scoreboard.sv(219) @ 3935000: uvm_test_top.env.scb [axi4_scoreboard] [REF_MEM_WRITE] Addr=0xb8ae8ce6 Data=0xb0
# UVM_INFO ../src/env/axi4_scoreboard.sv(219) @ 3935000: uvm_test_top.env.scb [axi4_scoreboard] [REF_MEM_WRITE] Addr=0xb8ae8ce9 Data=0x7c
# UVM_INFO ../src/env/axi4_scoreboard.sv(219) @ 3935000: uvm_test_top.env.scb [axi4_scoreboard] [REF_MEM_WRITE] Addr=0xb8ae8cea Data=0xeb
# UVM_INFO ../src/env/axi4_scoreboard.sv(219) @ 3935000: uvm_test_top.env.scb [axi4_scoreboard] [REF_MEM_WRITE] Addr=0xb8ae8ceb Data=0x98
# UVM_INFO ../src/env/axi4_scoreboard.sv(219) @ 3935000: uvm_test_top.env.scb [axi4_scoreboard] [REF_MEM_WRITE] Addr=0xb8ae8cec Data=0x53
# UVM_INFO ../src/env/axi4_scoreboard.sv(219) @ 3935000: uvm_test_top.env.scb [axi4_scoreboard] [REF_MEM_WRITE] Addr=0xb8ae8cf0 Data=0xcb
# UVM_INFO ../src/env/axi4_scoreboard.sv(219) @ 3935000: uvm_test_top.env.scb [axi4_scoreboard] [REF_MEM_WRITE] Addr=0xb8ae8cf2 Data=0x9d
# UVM_INFO ../src/env/axi4_scoreboard.sv(219) @ 3935000: uvm_test_top.env.scb [axi4_scoreboard] [REF_MEM_WRITE] Addr=0xb8ae8cf3 Data=0x1a
# UVM_INFO ../src/env/axi4_scoreboard.sv(219) @ 3935000: uvm_test_top.env.scb [axi4_scoreboard] [REF_MEM_WRITE] Addr=0xb8ae8cf4 Data=0xf0
# UVM_INFO ../src/env/axi4_scoreboard.sv(219) @ 3935000: uvm_test_top.env.scb [axi4_scoreboard] [REF_MEM_WRITE] Addr=0xb8ae8cf7 Data=0x14
# UVM_INFO ../src/env/axi4_scoreboard.sv(219) @ 3935000: uvm_test_top.env.scb [axi4_scoreboard] [REF_MEM_WRITE] Addr=0xb8ae8cf8 Data=0x1f
# UVM_INFO ../src/env/axi4_scoreboard.sv(219) @ 3935000: uvm_test_top.env.scb [axi4_scoreboard] [REF_MEM_WRITE] Addr=0xb8ae8cf9 Data=0x42
# UVM_INFO ../src/env/axi4_scoreboard.sv(219) @ 3935000: uvm_test_top.env.scb [axi4_scoreboard] [REF_MEM_WRITE] Addr=0xb8ae8cfb Data=0xaa
# UVM_INFO ../src/env/axi4_scoreboard.sv(219) @ 3935000: uvm_test_top.env.scb [axi4_scoreboard] [REF_MEM_WRITE] Addr=0xb8ae8cfc Data=0x20
# UVM_INFO ../src/env/axi4_scoreboard.sv(219) @ 3935000: uvm_test_top.env.scb [axi4_scoreboard] [REF_MEM_WRITE] Addr=0xb8ae8d00 Data=0x25
# UVM_INFO ../src/env/axi4_scoreboard.sv(219) @ 3935000: uvm_test_top.env.scb [axi4_scoreboard] [REF_MEM_WRITE] Addr=0xb8ae8d03 Data=0xde
# UVM_INFO ../src/env/axi4_scoreboard.sv(219) @ 3935000: uvm_test_top.env.scb [axi4_scoreboard] [REF_MEM_WRITE] Addr=0xb8ae8d04 Data=0x21
# UVM_INFO ../src/env/axi4_scoreboard.sv(219) @ 3935000: uvm_test_top.env.scb [axi4_scoreboard] [REF_MEM_WRITE] Addr=0xb8ae8d07 Data=0x5c
# UVM_INFO ../src/env/axi4_scoreboard.sv(219) @ 3935000: uvm_test_top.env.scb [axi4_scoreboard] [REF_MEM_WRITE] Addr=0xb8ae8d0c Data=0xfc
# UVM_INFO ../src/env/axi4_scoreboard.sv(219) @ 3935000: uvm_test_top.env.scb [axi4_scoreboard] [REF_MEM_WRITE] Addr=0xb8ae8d0d Data=0x5a
# UVM_INFO ../src/env/axi4_scoreboard.sv(219) @ 3935000: uvm_test_top.env.scb [axi4_scoreboard] [REF_MEM_WRITE] Addr=0xb8ae8d12 Data=0x4c
# UVM_INFO ../src/env/axi4_scoreboard.sv(219) @ 3935000: uvm_test_top.env.scb [axi4_scoreboard] [REF_MEM_WRITE] Addr=0xb8ae8d16 Data=0x9e
# UVM_INFO ../src/env/axi4_scoreboard.sv(219) @ 3935000: uvm_test_top.env.scb [axi4_scoreboard] [REF_MEM_WRITE] Addr=0xb8ae8d17 Data=0x3a
# UVM_INFO ../src/env/axi4_scoreboard.sv(219) @ 3935000: uvm_test_top.env.scb [axi4_scoreboard] [REF_MEM_WRITE] Addr=0xb8ae8d26 Data=0x06
# UVM_INFO ../src/env/axi4_scoreboard.sv(219) @ 3935000: uvm_test_top.env.scb [axi4_scoreboard] [REF_MEM_WRITE] Addr=0xb8ae8d28 Data=0xc8
# UVM_INFO ../src/env/axi4_scoreboard.sv(219) @ 3935000: uvm_test_top.env.scb [axi4_scoreboard] [REF_MEM_WRITE] Addr=0xb8ae8d29 Data=0xf8
# UVM_INFO ../src/env/axi4_scoreboard.sv(219) @ 3935000: uvm_test_top.env.scb [axi4_scoreboard] [REF_MEM_WRITE] Addr=0xb8ae8d2a Data=0xfd
# UVM_INFO ../src/env/axi4_scoreboard.sv(219) @ 3935000: uvm_test_top.env.scb [axi4_scoreboard] [REF_MEM_WRITE] Addr=0xb8ae8d2b Data=0xfd
# UVM_INFO ../src/env/axi4_scoreboard.sv(219) @ 3935000: uvm_test_top.env.scb [axi4_scoreboard] [REF_MEM_WRITE] Addr=0xb8ae8d2c Data=0xaf
# UVM_INFO ../src/env/axi4_scoreboard.sv(219) @ 3935000: uvm_test_top.env.scb [axi4_scoreboard] [REF_MEM_WRITE] Addr=0xb8ae8d2e Data=0xdb
# UVM_INFO ../src/env/axi4_scoreboard.sv(219) @ 3935000: uvm_test_top.env.scb [axi4_scoreboard] [REF_MEM_WRITE] Addr=0xb8ae8d2f Data=0x6f
# UVM_INFO ../src/env/axi4_scoreboard.sv(219) @ 3935000: uvm_test_top.env.scb [axi4_scoreboard] [REF_MEM_WRITE] Addr=0xb8ae8d34 Data=0xd5
# UVM_INFO ../src/env/axi4_scoreboard.sv(219) @ 3935000: uvm_test_top.env.scb [axi4_scoreboard] [REF_MEM_WRITE] Addr=0xb8ae8d35 Data=0x7a
# UVM_INFO ../src/env/axi4_scoreboard.sv(219) @ 3935000: uvm_test_top.env.scb [axi4_scoreboard] [REF_MEM_WRITE] Addr=0xb8ae8d38 Data=0xd0
# UVM_INFO ../src/env/axi4_scoreboard.sv(219) @ 3935000: uvm_test_top.env.scb [axi4_scoreboard] [REF_MEM_WRITE] Addr=0xb8ae8d39 Data=0x17
# UVM_INFO ../src/env/axi4_scoreboard.sv(219) @ 3935000: uvm_test_top.env.scb [axi4_scoreboard] [REF_MEM_WRITE] Addr=0xb8ae8d3d Data=0xa9
# UVM_INFO ../src/env/axi4_scoreboard.sv(219) @ 3935000: uvm_test_top.env.scb [axi4_scoreboard] [REF_MEM_WRITE] Addr=0xb8ae8d3e Data=0xa4
# UVM_INFO ../src/env/axi4_scoreboard.sv(219) @ 3935000: uvm_test_top.env.scb [axi4_scoreboard] [REF_MEM_WRITE] Addr=0xb8ae8d40 Data=0x86
# UVM_INFO ../src/env/axi4_scoreboard.sv(219) @ 3935000: uvm_test_top.env.scb [axi4_scoreboard] [REF_MEM_WRITE] Addr=0xb8ae8d41 Data=0x9b
# UVM_INFO ../src/env/axi4_scoreboard.sv(219) @ 3935000: uvm_test_top.env.scb [axi4_scoreboard] [REF_MEM_WRITE] Addr=0xb8ae8d42 Data=0xf4
# UVM_INFO ../src/env/axi4_scoreboard.sv(219) @ 3935000: uvm_test_top.env.scb [axi4_scoreboard] [REF_MEM_WRITE] Addr=0xb8ae8d43 Data=0x8e
# UVM_INFO ../src/env/axi4_scoreboard.sv(219) @ 3935000: uvm_test_top.env.scb [axi4_scoreboard] [REF_MEM_WRITE] Addr=0xb8ae8d44 Data=0x71
# UVM_INFO ../src/env/axi4_scoreboard.sv(219) @ 3935000: uvm_test_top.env.scb [axi4_scoreboard] [REF_MEM_WRITE] Addr=0xb8ae8d45 Data=0x55
# UVM_INFO ../src/env/axi4_scoreboard.sv(219) @ 3935000: uvm_test_top.env.scb [axi4_scoreboard] [REF_MEM_WRITE] Addr=0xb8ae8d46 Data=0xd1
# UVM_INFO ../src/env/axi4_scoreboard.sv(219) @ 3935000: uvm_test_top.env.scb [axi4_scoreboard] [REF_MEM_WRITE] Addr=0xb8ae8d4b Data=0x56
# UVM_INFO ../src/env/axi4_scoreboard.sv(219) @ 3935000: uvm_test_top.env.scb [axi4_scoreboard] [REF_MEM_WRITE] Addr=0xb8ae8d4c Data=0xed
# UVM_INFO ../src/env/axi4_scoreboard.sv(219) @ 3935000: uvm_test_top.env.scb [axi4_scoreboard] [REF_MEM_WRITE] Addr=0xb8ae8d4e Data=0xad
# UVM_INFO ../src/env/axi4_scoreboard.sv(219) @ 3935000: uvm_test_top.env.scb [axi4_scoreboard] [REF_MEM_WRITE] Addr=0xb8ae8d50 Data=0xd6
# UVM_INFO ../src/env/axi4_scoreboard.sv(219) @ 3935000: uvm_test_top.env.scb [axi4_scoreboard] [REF_MEM_WRITE] Addr=0xb8ae8d51 Data=0xab
# UVM_INFO ../src/env/axi4_scoreboard.sv(219) @ 3935000: uvm_test_top.env.scb [axi4_scoreboard] [REF_MEM_WRITE] Addr=0xb8ae8d52 Data=0xfb
# UVM_INFO ../src/env/axi4_scoreboard.sv(219) @ 3935000: uvm_test_top.env.scb [axi4_scoreboard] [REF_MEM_WRITE] Addr=0xb8ae8d53 Data=0xd4
# UVM_INFO ../src/env/axi4_scoreboard.sv(219) @ 3935000: uvm_test_top.env.scb [axi4_scoreboard] [REF_MEM_WRITE] Addr=0xb8ae8d55 Data=0x30
# UVM_INFO ../src/env/axi4_scoreboard.sv(219) @ 3935000: uvm_test_top.env.scb [axi4_scoreboard] [REF_MEM_WRITE] Addr=0xb8ae8d57 Data=0xe3
# UVM_INFO ../src/env/axi4_scoreboard.sv(219) @ 3935000: uvm_test_top.env.scb [axi4_scoreboard] [REF_MEM_WRITE] Addr=0xb8ae8d58 Data=0x1e
# UVM_INFO ../src/env/axi4_scoreboard.sv(219) @ 3935000: uvm_test_top.env.scb [axi4_scoreboard] [REF_MEM_WRITE] Addr=0xb8ae8d59 Data=0x95
# UVM_INFO ../src/env/axi4_scoreboard.sv(219) @ 3935000: uvm_test_top.env.scb [axi4_scoreboard] [REF_MEM_WRITE] Addr=0xb8ae8d5a Data=0x88
# UVM_INFO ../src/env/axi4_scoreboard.sv(219) @ 3935000: uvm_test_top.env.scb [axi4_scoreboard] [REF_MEM_WRITE] Addr=0xb8ae8d5b Data=0xe2
# UVM_INFO ../src/env/axi4_scoreboard.sv(219) @ 3935000: uvm_test_top.env.scb [axi4_scoreboard] [REF_MEM_WRITE] Addr=0xb8ae8d5d Data=0xc1
# UVM_INFO ../src/env/axi4_scoreboard.sv(219) @ 3935000: uvm_test_top.env.scb [axi4_scoreboard] [REF_MEM_WRITE] Addr=0xb8ae8d5e Data=0x4a
# UVM_INFO ../src/env/axi4_scoreboard.sv(219) @ 3935000: uvm_test_top.env.scb [axi4_scoreboard] [REF_MEM_WRITE] Addr=0xb8ae8d5f Data=0xde
# UVM_INFO ../src/env/axi4_scoreboard.sv(219) @ 3935000: uvm_test_top.env.scb [axi4_scoreboard] [REF_MEM_WRITE] Addr=0xb8ae8d60 Data=0xa3
# UVM_INFO ../src/env/axi4_scoreboard.sv(219) @ 3935000: uvm_test_top.env.scb [axi4_scoreboard] [REF_MEM_WRITE] Addr=0xb8ae8d67 Data=0xdf
# UVM_INFO ../src/env/axi4_scoreboard.sv(219) @ 3935000: uvm_test_top.env.scb [axi4_scoreboard] [REF_MEM_WRITE] Addr=0xb8ae8d69 Data=0xcb
# UVM_INFO ../src/env/axi4_scoreboard.sv(219) @ 3935000: uvm_test_top.env.scb [axi4_scoreboard] [REF_MEM_WRITE] Addr=0xb8ae8d6a Data=0x3f
# UVM_INFO ../src/env/axi4_scoreboard.sv(219) @ 3935000: uvm_test_top.env.scb [axi4_scoreboard] [REF_MEM_WRITE] Addr=0xb8ae8d6d Data=0xb6
# UVM_INFO ../src/env/axi4_scoreboard.sv(219) @ 3935000: uvm_test_top.env.scb [axi4_scoreboard] [REF_MEM_WRITE] Addr=0xb8ae8d6e Data=0x4c
# UVM_INFO ../src/env/axi4_scoreboard.sv(219) @ 3935000: uvm_test_top.env.scb [axi4_scoreboard] [REF_MEM_WRITE] Addr=0xb8ae8d6f Data=0xda
# UVM_INFO ../src/env/axi4_scoreboard.sv(219) @ 3935000: uvm_test_top.env.scb [axi4_scoreboard] [REF_MEM_WRITE] Addr=0xb8ae8d70 Data=0xc7
# UVM_INFO ../src/env/axi4_scoreboard.sv(219) @ 3935000: uvm_test_top.env.scb [axi4_scoreboard] [REF_MEM_WRITE] Addr=0xb8ae8d71 Data=0x30
# UVM_INFO ../src/env/axi4_scoreboard.sv(219) @ 3935000: uvm_test_top.env.scb [axi4_scoreboard] [REF_MEM_WRITE] Addr=0xb8ae8d72 Data=0xaf
# UVM_INFO ../src/env/axi4_scoreboard.sv(219) @ 3935000: uvm_test_top.env.scb [axi4_scoreboard] [REF_MEM_WRITE] Addr=0xb8ae8d73 Data=0xf5
# UVM_INFO ../src/env/axi4_scoreboard.sv(219) @ 3935000: uvm_test_top.env.scb [axi4_scoreboard] [REF_MEM_WRITE] Addr=0xb8ae8d75 Data=0x42
# UVM_INFO ../src/env/axi4_scoreboard.sv(219) @ 3935000: uvm_test_top.env.scb [axi4_scoreboard] [REF_MEM_WRITE] Addr=0xb8ae8d78 Data=0x52
# UVM_INFO ../src/env/axi4_scoreboard.sv(219) @ 3935000: uvm_test_top.env.scb [axi4_scoreboard] [REF_MEM_WRITE] Addr=0xb8ae8d79 Data=0x5f
# UVM_INFO ../src/env/axi4_scoreboard.sv(219) @ 3935000: uvm_test_top.env.scb [axi4_scoreboard] [REF_MEM_WRITE] Addr=0xb8ae8d7a Data=0x80
# UVM_INFO ../src/env/axi4_scoreboard.sv(219) @ 3935000: uvm_test_top.env.scb [axi4_scoreboard] [REF_MEM_WRITE] Addr=0xb8ae8d7b Data=0x03
# UVM_INFO ../src/env/axi4_scoreboard.sv(219) @ 3935000: uvm_test_top.env.scb [axi4_scoreboard] [REF_MEM_WRITE] Addr=0xb8ae8d7c Data=0x6d
# UVM_INFO ../src/env/axi4_scoreboard.sv(219) @ 3935000: uvm_test_top.env.scb [axi4_scoreboard] [REF_MEM_WRITE] Addr=0xb8ae8d7d Data=0xc9
# UVM_INFO ../src/env/axi4_scoreboard.sv(219) @ 3935000: uvm_test_top.env.scb [axi4_scoreboard] [REF_MEM_WRITE] Addr=0xb8ae8d7f Data=0x77
# UVM_INFO ../src/env/axi4_scoreboard.sv(219) @ 3935000: uvm_test_top.env.scb [axi4_scoreboard] [REF_MEM_WRITE] Addr=0xb8ae8d82 Data=0xd2
# UVM_INFO ../src/env/axi4_scoreboard.sv(219) @ 3935000: uvm_test_top.env.scb [axi4_scoreboard] [REF_MEM_WRITE] Addr=0xb8ae8d84 Data=0x2d
# UVM_INFO ../src/env/axi4_scoreboard.sv(219) @ 3935000: uvm_test_top.env.scb [axi4_scoreboard] [REF_MEM_WRITE] Addr=0xb8ae8d87 Data=0xc9
# UVM_INFO ../src/env/axi4_scoreboard.sv(219) @ 3935000: uvm_test_top.env.scb [axi4_scoreboard] [REF_MEM_WRITE] Addr=0xb8ae8d8e Data=0xa4
# UVM_INFO ../src/env/axi4_scoreboard.sv(219) @ 3935000: uvm_test_top.env.scb [axi4_scoreboard] [REF_MEM_WRITE] Addr=0xb8ae8d8f Data=0xfb
# UVM_INFO ../src/env/axi4_scoreboard.sv(219) @ 3935000: uvm_test_top.env.scb [axi4_scoreboard] [REF_MEM_WRITE] Addr=0xb8ae8d92 Data=0x62
# UVM_INFO ../src/env/axi4_scoreboard.sv(219) @ 3935000: uvm_test_top.env.scb [axi4_scoreboard] [REF_MEM_WRITE] Addr=0xb8ae8d93 Data=0xfc
# UVM_INFO ../src/env/axi4_scoreboard.sv(219) @ 3935000: uvm_test_top.env.scb [axi4_scoreboard] [REF_MEM_WRITE] Addr=0xb8ae8d94 Data=0x97
# UVM_INFO ../src/env/axi4_scoreboard.sv(219) @ 3935000: uvm_test_top.env.scb [axi4_scoreboard] [REF_MEM_WRITE] Addr=0xb8ae8d95 Data=0xda
# UVM_INFO ../src/env/axi4_scoreboard.sv(219) @ 3935000: uvm_test_top.env.scb [axi4_scoreboard] [REF_MEM_WRITE] Addr=0xb8ae8d98 Data=0xab
# UVM_INFO ../src/env/axi4_scoreboard.sv(219) @ 3935000: uvm_test_top.env.scb [axi4_scoreboard] [REF_MEM_WRITE] Addr=0xb8ae8d9a Data=0xe0
# UVM_INFO ../src/env/axi4_scoreboard.sv(219) @ 3935000: uvm_test_top.env.scb [axi4_scoreboard] [REF_MEM_WRITE] Addr=0xb8ae8d9b Data=0xbf
# UVM_INFO ../src/env/axi4_scoreboard.sv(219) @ 3935000: uvm_test_top.env.scb [axi4_scoreboard] [REF_MEM_WRITE] Addr=0xb8ae8d9e Data=0xc8
# UVM_INFO ../src/env/axi4_scoreboard.sv(219) @ 3935000: uvm_test_top.env.scb [axi4_scoreboard] [REF_MEM_WRITE] Addr=0xb8ae8da1 Data=0xf7
# UVM_INFO ../src/env/axi4_scoreboard.sv(219) @ 3935000: uvm_test_top.env.scb [axi4_scoreboard] [REF_MEM_WRITE] Addr=0xb8ae8da2 Data=0x4e
# UVM_INFO ../src/env/axi4_scoreboard.sv(219) @ 3935000: uvm_test_top.env.scb [axi4_scoreboard] [REF_MEM_WRITE] Addr=0xb8ae8da4 Data=0x8e
# UVM_INFO ../src/env/axi4_scoreboard.sv(219) @ 3935000: uvm_test_top.env.scb [axi4_scoreboard] [REF_MEM_WRITE] Addr=0xb8ae8da5 Data=0x05
# UVM_INFO ../src/env/axi4_scoreboard.sv(219) @ 3935000: uvm_test_top.env.scb [axi4_scoreboard] [REF_MEM_WRITE] Addr=0xb8ae8da7 Data=0x81
# UVM_INFO ../src/env/axi4_scoreboard.sv(219) @ 3935000: uvm_test_top.env.scb [axi4_scoreboard] [REF_MEM_WRITE] Addr=0xb8ae8da8 Data=0x20
# UVM_INFO ../src/env/axi4_scoreboard.sv(219) @ 3935000: uvm_test_top.env.scb [axi4_scoreboard] [REF_MEM_WRITE] Addr=0xb8ae8da9 Data=0xb9
# UVM_INFO ../src/env/axi4_scoreboard.sv(219) @ 3935000: uvm_test_top.env.scb [axi4_scoreboard] [REF_MEM_WRITE] Addr=0xb8ae8dac Data=0xa0
# UVM_INFO ../src/env/axi4_scoreboard.sv(219) @ 3935000: uvm_test_top.env.scb [axi4_scoreboard] [REF_MEM_WRITE] Addr=0xb8ae8dad Data=0x98
# UVM_INFO ../src/env/axi4_scoreboard.sv(219) @ 3935000: uvm_test_top.env.scb [axi4_scoreboard] [REF_MEM_WRITE] Addr=0xb8ae8dae Data=0x43
# UVM_INFO ../src/env/axi4_scoreboard.sv(219) @ 3935000: uvm_test_top.env.scb [axi4_scoreboard] [REF_MEM_WRITE] Addr=0xb8ae8db2 Data=0x61
# UVM_INFO ../src/env/axi4_scoreboard.sv(219) @ 3935000: uvm_test_top.env.scb [axi4_scoreboard] [REF_MEM_WRITE] Addr=0xb8ae8db4 Data=0x98
# UVM_INFO ../src/env/axi4_scoreboard.sv(219) @ 3935000: uvm_test_top.env.scb [axi4_scoreboard] [REF_MEM_WRITE] Addr=0xb8ae8db5 Data=0x6e
# UVM_INFO ../src/env/axi4_scoreboard.sv(219) @ 3935000: uvm_test_top.env.scb [axi4_scoreboard] [REF_MEM_WRITE] Addr=0xb8ae8db6 Data=0xef
# UVM_INFO ../src/env/axi4_scoreboard.sv(219) @ 3935000: uvm_test_top.env.scb [axi4_scoreboard] [REF_MEM_WRITE] Addr=0xb8ae8db7 Data=0xd3
# UVM_INFO ../src/env/axi4_scoreboard.sv(219) @ 3935000: uvm_test_top.env.scb [axi4_scoreboard] [REF_MEM_WRITE] Addr=0xb8ae8db8 Data=0x00
# UVM_INFO ../src/env/axi4_scoreboard.sv(219) @ 3935000: uvm_test_top.env.scb [axi4_scoreboard] [REF_MEM_WRITE] Addr=0xb8ae8db9 Data=0x76
# UVM_INFO ../src/env/axi4_scoreboard.sv(219) @ 3935000: uvm_test_top.env.scb [axi4_scoreboard] [REF_MEM_WRITE] Addr=0xb8ae8dbc Data=0x37
# UVM_INFO ../src/env/axi4_scoreboard.sv(219) @ 3935000: uvm_test_top.env.scb [axi4_scoreboard] [REF_MEM_WRITE] Addr=0xb8ae8dbd Data=0x67
# UVM_INFO ../src/env/axi4_scoreboard.sv(219) @ 3935000: uvm_test_top.env.scb [axi4_scoreboard] [REF_MEM_WRITE] Addr=0xb8ae8dbf Data=0xa3
# UVM_INFO ../src/env/axi4_scoreboard.sv(219) @ 3935000: uvm_test_top.env.scb [axi4_scoreboard] [REF_MEM_WRITE] Addr=0xb8ae8dc0 Data=0xda
# UVM_INFO ../src/env/axi4_scoreboard.sv(219) @ 3935000: uvm_test_top.env.scb [axi4_scoreboard] [REF_MEM_WRITE] Addr=0xb8ae8dc1 Data=0x92
# UVM_INFO ../src/env/axi4_scoreboard.sv(219) @ 3935000: uvm_test_top.env.scb [axi4_scoreboard] [REF_MEM_WRITE] Addr=0xb8ae8dc2 Data=0x6b
# UVM_INFO ../src/env/axi4_scoreboard.sv(219) @ 3935000: uvm_test_top.env.scb [axi4_scoreboard] [REF_MEM_WRITE] Addr=0xb8ae8dc6 Data=0x51
# UVM_INFO ../src/env/axi4_scoreboard.sv(219) @ 3935000: uvm_test_top.env.scb [axi4_scoreboard] [REF_MEM_WRITE] Addr=0xb8ae8dc8 Data=0xb5
# UVM_INFO ../src/env/axi4_scoreboard.sv(219) @ 3935000: uvm_test_top.env.scb [axi4_scoreboard] [REF_MEM_WRITE] Addr=0xb8ae8dc9 Data=0x06
# UVM_INFO ../src/env/axi4_scoreboard.sv(219) @ 3935000: uvm_test_top.env.scb [axi4_scoreboard] [REF_MEM_WRITE] Addr=0xb8ae8dcc Data=0x2d
# UVM_INFO ../src/env/axi4_scoreboard.sv(219) @ 3935000: uvm_test_top.env.scb [axi4_scoreboard] [REF_MEM_WRITE] Addr=0xb8ae8dcf Data=0xdf
# UVM_INFO ../src/env/axi4_scoreboard.sv(219) @ 3935000: uvm_test_top.env.scb [axi4_scoreboard] [REF_MEM_WRITE] Addr=0xb8ae8dd0 Data=0x38
# UVM_INFO ../src/env/axi4_scoreboard.sv(219) @ 3935000: uvm_test_top.env.scb [axi4_scoreboard] [REF_MEM_WRITE] Addr=0xb8ae8dd3 Data=0x08
# UVM_INFO ../src/env/axi4_scoreboard.sv(219) @ 3935000: uvm_test_top.env.scb [axi4_scoreboard] [REF_MEM_WRITE] Addr=0xb8ae8dd8 Data=0xaf
# UVM_INFO ../src/env/axi4_scoreboard.sv(219) @ 3935000: uvm_test_top.env.scb [axi4_scoreboard] [REF_MEM_WRITE] Addr=0xb8ae8dda Data=0x3f
# UVM_INFO ../src/env/axi4_scoreboard.sv(219) @ 3935000: uvm_test_top.env.scb [axi4_scoreboard] [REF_MEM_WRITE] Addr=0xb8ae8dde Data=0xd1
# UVM_INFO ../src/env/axi4_scoreboard.sv(219) @ 3935000: uvm_test_top.env.scb [axi4_scoreboard] [REF_MEM_WRITE] Addr=0xb8ae8ddf Data=0x32
# UVM_INFO ../src/env/axi4_scoreboard.sv(219) @ 3935000: uvm_test_top.env.scb [axi4_scoreboard] [REF_MEM_WRITE] Addr=0xb8ae8de5 Data=0x21
# UVM_INFO ../src/env/axi4_scoreboard.sv(219) @ 3935000: uvm_test_top.env.scb [axi4_scoreboard] [REF_MEM_WRITE] Addr=0xb8ae8de6 Data=0x82
# UVM_INFO ../src/env/axi4_scoreboard.sv(219) @ 3935000: uvm_test_top.env.scb [axi4_scoreboard] [REF_MEM_WRITE] Addr=0xb8ae8de8 Data=0x9e
# UVM_INFO ../src/env/axi4_scoreboard.sv(219) @ 3935000: uvm_test_top.env.scb [axi4_scoreboard] [REF_MEM_WRITE] Addr=0xb8ae8dea Data=0x2d
# UVM_INFO ../src/env/axi4_scoreboard.sv(219) @ 3935000: uvm_test_top.env.scb [axi4_scoreboard] [REF_MEM_WRITE] Addr=0xb8ae8deb Data=0x1c
# UVM_INFO ../src/env/axi4_scoreboard.sv(219) @ 3935000: uvm_test_top.env.scb [axi4_scoreboard] [REF_MEM_WRITE] Addr=0xb8ae8ded Data=0xd2
# UVM_INFO ../src/env/axi4_scoreboard.sv(219) @ 3935000: uvm_test_top.env.scb [axi4_scoreboard] [REF_MEM_WRITE] Addr=0xb8ae8dee Data=0x3b
# UVM_INFO ../src/env/axi4_scoreboard.sv(219) @ 3935000: uvm_test_top.env.scb [axi4_scoreboard] [REF_MEM_WRITE] Addr=0xb8ae8def Data=0x90
# UVM_INFO ../src/env/axi4_scoreboard.sv(219) @ 3935000: uvm_test_top.env.scb [axi4_scoreboard] [REF_MEM_WRITE] Addr=0xb8ae8df2 Data=0x25
# UVM_INFO ../src/env/axi4_scoreboard.sv(219) @ 3935000: uvm_test_top.env.scb [axi4_scoreboard] [REF_MEM_WRITE] Addr=0xb8ae8df5 Data=0x52
# UVM_INFO ../src/env/axi4_scoreboard.sv(219) @ 3935000: uvm_test_top.env.scb [axi4_scoreboard] [REF_MEM_WRITE] Addr=0xb8ae8df6 Data=0xf8
# UVM_INFO ../src/env/axi4_scoreboard.sv(219) @ 3935000: uvm_test_top.env.scb [axi4_scoreboard] [REF_MEM_WRITE] Addr=0xb8ae8dfa Data=0x92
# UVM_INFO ../src/env/axi4_scoreboard.sv(219) @ 3935000: uvm_test_top.env.scb [axi4_scoreboard] [REF_MEM_WRITE] Addr=0xb8ae8dfc Data=0x35
# UVM_INFO ../src/env/axi4_scoreboard.sv(219) @ 3935000: uvm_test_top.env.scb [axi4_scoreboard] [REF_MEM_WRITE] Addr=0xb8ae8dff Data=0x55
# UVM_INFO ../src/env/axi4_scoreboard.sv(219) @ 3935000: uvm_test_top.env.scb [axi4_scoreboard] [REF_MEM_WRITE] Addr=0xb8ae8e04 Data=0xae
# UVM_INFO ../src/env/axi4_scoreboard.sv(219) @ 3935000: uvm_test_top.env.scb [axi4_scoreboard] [REF_MEM_WRITE] Addr=0xb8ae8e06 Data=0x23
# UVM_INFO ../src/env/axi4_scoreboard.sv(219) @ 3935000: uvm_test_top.env.scb [axi4_scoreboard] [REF_MEM_WRITE] Addr=0xb8ae8e07 Data=0x35
# UVM_INFO ../src/env/axi4_scoreboard.sv(219) @ 3935000: uvm_test_top.env.scb [axi4_scoreboard] [REF_MEM_WRITE] Addr=0xb8ae8e08 Data=0xd9
# UVM_INFO ../src/env/axi4_scoreboard.sv(219) @ 3935000: uvm_test_top.env.scb [axi4_scoreboard] [REF_MEM_WRITE] Addr=0xb8ae8e0e Data=0x1f
# UVM_INFO ../src/env/axi4_scoreboard.sv(219) @ 3935000: uvm_test_top.env.scb [axi4_scoreboard] [REF_MEM_WRITE] Addr=0xb8ae8e0f Data=0x45
# UVM_INFO ../src/env/axi4_scoreboard.sv(219) @ 3935000: uvm_test_top.env.scb [axi4_scoreboard] [REF_MEM_WRITE] Addr=0xb8ae8e11 Data=0x23
# UVM_INFO ../src/env/axi4_scoreboard.sv(219) @ 3935000: uvm_test_top.env.scb [axi4_scoreboard] [REF_MEM_WRITE] Addr=0xb8ae8e14 Data=0x4b
# UVM_INFO ../src/env/axi4_scoreboard.sv(219) @ 3935000: uvm_test_top.env.scb [axi4_scoreboard] [REF_MEM_WRITE] Addr=0xb8ae8e15 Data=0x87
# UVM_INFO ../src/env/axi4_scoreboard.sv(219) @ 3935000: uvm_test_top.env.scb [axi4_scoreboard] [REF_MEM_WRITE] Addr=0xb8ae8e17 Data=0x13
# UVM_INFO ../src/env/axi4_scoreboard.sv(219) @ 3935000: uvm_test_top.env.scb [axi4_scoreboard] [REF_MEM_WRITE] Addr=0xb8ae8e1a Data=0xe1
# UVM_INFO ../src/env/axi4_scoreboard.sv(219) @ 3935000: uvm_test_top.env.scb [axi4_scoreboard] [REF_MEM_WRITE] Addr=0xb8ae8e1b Data=0x94
# UVM_INFO ../src/env/axi4_scoreboard.sv(219) @ 3935000: uvm_test_top.env.scb [axi4_scoreboard] [REF_MEM_WRITE] Addr=0xb8ae8e1d Data=0xdd
# UVM_INFO ../src/env/axi4_scoreboard.sv(219) @ 3935000: uvm_test_top.env.scb [axi4_scoreboard] [REF_MEM_WRITE] Addr=0xb8ae8e1e Data=0x0c
# UVM_INFO ../src/env/axi4_scoreboard.sv(219) @ 3935000: uvm_test_top.env.scb [axi4_scoreboard] [REF_MEM_WRITE] Addr=0xb8ae8e1f Data=0x91
# UVM_INFO ../src/env/axi4_scoreboard.sv(219) @ 3935000: uvm_test_top.env.scb [axi4_scoreboard] [REF_MEM_WRITE] Addr=0xb8ae8e20 Data=0xac
# UVM_INFO ../src/env/axi4_scoreboard.sv(219) @ 3935000: uvm_test_top.env.scb [axi4_scoreboard] [REF_MEM_WRITE] Addr=0xb8ae8e22 Data=0x28
# UVM_INFO ../src/env/axi4_scoreboard.sv(219) @ 3935000: uvm_test_top.env.scb [axi4_scoreboard] [REF_MEM_WRITE] Addr=0xb8ae8e23 Data=0x3c
# UVM_INFO ../src/env/axi4_scoreboard.sv(219) @ 3935000: uvm_test_top.env.scb [axi4_scoreboard] [REF_MEM_WRITE] Addr=0xb8ae8e24 Data=0x85
# UVM_INFO ../src/env/axi4_scoreboard.sv(219) @ 3935000: uvm_test_top.env.scb [axi4_scoreboard] [REF_MEM_WRITE] Addr=0xb8ae8e26 Data=0x4c
# UVM_INFO ../src/env/axi4_scoreboard.sv(219) @ 3935000: uvm_test_top.env.scb [axi4_scoreboard] [REF_MEM_WRITE] Addr=0xb8ae8e29 Data=0x7c
# UVM_INFO ../src/env/axi4_scoreboard.sv(219) @ 3935000: uvm_test_top.env.scb [axi4_scoreboard] [REF_MEM_WRITE] Addr=0xb8ae8e2b Data=0xc5
# UVM_INFO ../src/env/axi4_scoreboard.sv(219) @ 3935000: uvm_test_top.env.scb [axi4_scoreboard] [REF_MEM_WRITE] Addr=0xb8ae8e2d Data=0x58
# UVM_INFO ../src/env/axi4_scoreboard.sv(219) @ 3935000: uvm_test_top.env.scb [axi4_scoreboard] [REF_MEM_WRITE] Addr=0xb8ae8e2e Data=0x64
# UVM_INFO ../src/env/axi4_scoreboard.sv(219) @ 3935000: uvm_test_top.env.scb [axi4_scoreboard] [REF_MEM_WRITE] Addr=0xb8ae8e2f Data=0x99
# UVM_INFO ../src/env/axi4_scoreboard.sv(219) @ 3935000: uvm_test_top.env.scb [axi4_scoreboard] [REF_MEM_WRITE] Addr=0xb8ae8e30 Data=0xe6
# UVM_INFO ../src/env/axi4_scoreboard.sv(219) @ 3935000: uvm_test_top.env.scb [axi4_scoreboard] [REF_MEM_WRITE] Addr=0xb8ae8e31 Data=0x97
# UVM_INFO ../src/env/axi4_scoreboard.sv(219) @ 3935000: uvm_test_top.env.scb [axi4_scoreboard] [REF_MEM_WRITE] Addr=0xb8ae8e37 Data=0x20
# UVM_INFO ../src/env/axi4_scoreboard.sv(219) @ 3935000: uvm_test_top.env.scb [axi4_scoreboard] [REF_MEM_WRITE] Addr=0xb8ae8e39 Data=0x8c
# UVM_INFO ../src/env/axi4_scoreboard.sv(219) @ 3935000: uvm_test_top.env.scb [axi4_scoreboard] [REF_MEM_WRITE] Addr=0xb8ae8e3a Data=0xb5
# UVM_INFO ../src/env/axi4_scoreboard.sv(219) @ 3935000: uvm_test_top.env.scb [axi4_scoreboard] [REF_MEM_WRITE] Addr=0xb8ae8e3b Data=0x11
# UVM_INFO ../src/env/axi4_scoreboard.sv(219) @ 3935000: uvm_test_top.env.scb [axi4_scoreboard] [REF_MEM_WRITE] Addr=0xb8ae8e3d Data=0x8c
# UVM_INFO ../src/env/axi4_scoreboard.sv(219) @ 3935000: uvm_test_top.env.scb [axi4_scoreboard] [REF_MEM_WRITE] Addr=0xb8ae8e41 Data=0x6e
# UVM_INFO ../src/env/axi4_scoreboard.sv(219) @ 3935000: uvm_test_top.env.scb [axi4_scoreboard] [REF_MEM_WRITE] Addr=0xb8ae8e43 Data=0x22
# UVM_INFO ../src/env/axi4_scoreboard.sv(219) @ 3935000: uvm_test_top.env.scb [axi4_scoreboard] [REF_MEM_WRITE] Addr=0xb8ae8e46 Data=0xb2
# UVM_INFO ../src/env/axi4_scoreboard.sv(219) @ 3935000: uvm_test_top.env.scb [axi4_scoreboard] [REF_MEM_WRITE] Addr=0xb8ae8e47 Data=0xe2
# UVM_INFO ../src/env/axi4_scoreboard.sv(219) @ 3935000: uvm_test_top.env.scb [axi4_scoreboard] [REF_MEM_WRITE] Addr=0xb8ae8e48 Data=0x29
# UVM_INFO ../src/env/axi4_scoreboard.sv(219) @ 3935000: uvm_test_top.env.scb [axi4_scoreboard] [REF_MEM_WRITE] Addr=0xb8ae8e49 Data=0xa0
# UVM_INFO ../src/env/axi4_scoreboard.sv(219) @ 3935000: uvm_test_top.env.scb [axi4_scoreboard] [REF_MEM_WRITE] Addr=0xb8ae8e4a Data=0x99
# UVM_INFO ../src/env/axi4_scoreboard.sv(219) @ 3935000: uvm_test_top.env.scb [axi4_scoreboard] [REF_MEM_WRITE] Addr=0xb8ae8e54 Data=0x11
# UVM_INFO ../src/env/axi4_scoreboard.sv(219) @ 3935000: uvm_test_top.env.scb [axi4_scoreboard] [REF_MEM_WRITE] Addr=0xb8ae8e55 Data=0xec
# UVM_INFO ../src/env/axi4_scoreboard.sv(219) @ 3935000: uvm_test_top.env.scb [axi4_scoreboard] [REF_MEM_WRITE] Addr=0xb8ae8e56 Data=0xc7
# UVM_INFO ../src/env/axi4_scoreboard.sv(219) @ 3935000: uvm_test_top.env.scb [axi4_scoreboard] [REF_MEM_WRITE] Addr=0xb8ae8e57 Data=0x7e
# UVM_INFO ../src/env/axi4_scoreboard.sv(219) @ 3935000: uvm_test_top.env.scb [axi4_scoreboard] [REF_MEM_WRITE] Addr=0xb8ae8e5a Data=0xdf
# UVM_INFO ../src/env/axi4_scoreboard.sv(219) @ 3935000: uvm_test_top.env.scb [axi4_scoreboard] [REF_MEM_WRITE] Addr=0xb8ae8e5d Data=0xe6
# UVM_INFO ../src/env/axi4_scoreboard.sv(219) @ 3935000: uvm_test_top.env.scb [axi4_scoreboard] [REF_MEM_WRITE] Addr=0xb8ae8e5e Data=0xa7
# UVM_INFO ../src/env/axi4_scoreboard.sv(219) @ 3935000: uvm_test_top.env.scb [axi4_scoreboard] [REF_MEM_WRITE] Addr=0xb8ae8e5f Data=0xab
# UVM_INFO ../src/env/axi4_scoreboard.sv(219) @ 3935000: uvm_test_top.env.scb [axi4_scoreboard] [REF_MEM_WRITE] Addr=0xb8ae8e62 Data=0xaa
# UVM_INFO ../src/env/axi4_scoreboard.sv(219) @ 3935000: uvm_test_top.env.scb [axi4_scoreboard] [REF_MEM_WRITE] Addr=0xb8ae8e63 Data=0xbb
# UVM_INFO ../src/env/axi4_scoreboard.sv(219) @ 3935000: uvm_test_top.env.scb [axi4_scoreboard] [REF_MEM_WRITE] Addr=0xb8ae8e64 Data=0xd7
# UVM_INFO ../src/env/axi4_scoreboard.sv(219) @ 3935000: uvm_test_top.env.scb [axi4_scoreboard] [REF_MEM_WRITE] Addr=0xb8ae8e65 Data=0xaa
# UVM_INFO ../src/env/axi4_scoreboard.sv(219) @ 3935000: uvm_test_top.env.scb [axi4_scoreboard] [REF_MEM_WRITE] Addr=0xb8ae8e6a Data=0xba
# UVM_INFO ../src/env/axi4_scoreboard.sv(219) @ 3935000: uvm_test_top.env.scb [axi4_scoreboard] [REF_MEM_WRITE] Addr=0xb8ae8e6b Data=0xa5
# UVM_INFO ../src/env/axi4_scoreboard.sv(219) @ 3935000: uvm_test_top.env.scb [axi4_scoreboard] [REF_MEM_WRITE] Addr=0xb8ae8e6e Data=0xb9
# UVM_INFO ../src/env/axi4_scoreboard.sv(219) @ 3935000: uvm_test_top.env.scb [axi4_scoreboard] [REF_MEM_WRITE] Addr=0xb8ae8e75 Data=0x13
# UVM_INFO ../src/env/axi4_scoreboard.sv(219) @ 3935000: uvm_test_top.env.scb [axi4_scoreboard] [REF_MEM_WRITE] Addr=0xb8ae8e76 Data=0xb7
# UVM_INFO ../src/env/axi4_scoreboard.sv(219) @ 3935000: uvm_test_top.env.scb [axi4_scoreboard] [REF_MEM_WRITE] Addr=0xb8ae8e77 Data=0xf6
# UVM_INFO ../src/env/axi4_scoreboard.sv(219) @ 3935000: uvm_test_top.env.scb [axi4_scoreboard] [REF_MEM_WRITE] Addr=0xb8ae8e7a Data=0xb5
# UVM_INFO ../src/env/axi4_scoreboard.sv(219) @ 3935000: uvm_test_top.env.scb [axi4_scoreboard] [REF_MEM_WRITE] Addr=0xb8ae8e7b Data=0x5b
# UVM_INFO ../src/env/axi4_scoreboard.sv(219) @ 3935000: uvm_test_top.env.scb [axi4_scoreboard] [REF_MEM_WRITE] Addr=0xb8ae8e7d Data=0xee
# UVM_INFO ../src/env/axi4_scoreboard.sv(219) @ 3935000: uvm_test_top.env.scb [axi4_scoreboard] [REF_MEM_WRITE] Addr=0xb8ae8e7e Data=0x1a
# UVM_INFO ../src/env/axi4_scoreboard.sv(219) @ 3935000: uvm_test_top.env.scb [axi4_scoreboard] [REF_MEM_WRITE] Addr=0xb8ae8e7f Data=0x4e
# UVM_INFO ../src/env/axi4_scoreboard.sv(219) @ 3935000: uvm_test_top.env.scb [axi4_scoreboard] [REF_MEM_WRITE] Addr=0xb8ae8e80 Data=0xdb
# UVM_INFO ../src/env/axi4_scoreboard.sv(219) @ 3935000: uvm_test_top.env.scb [axi4_scoreboard] [REF_MEM_WRITE] Addr=0xb8ae8e82 Data=0x2c
# UVM_INFO ../src/env/axi4_scoreboard.sv(219) @ 3935000: uvm_test_top.env.scb [axi4_scoreboard] [REF_MEM_WRITE] Addr=0xb8ae8e84 Data=0xca
# UVM_INFO ../src/env/axi4_scoreboard.sv(219) @ 3935000: uvm_test_top.env.scb [axi4_scoreboard] [REF_MEM_WRITE] Addr=0xb8ae8e86 Data=0xe5
# UVM_INFO ../src/env/axi4_scoreboard.sv(219) @ 3935000: uvm_test_top.env.scb [axi4_scoreboard] [REF_MEM_WRITE] Addr=0xb8ae8e87 Data=0x70
# UVM_INFO ../src/env/axi4_scoreboard.sv(219) @ 3935000: uvm_test_top.env.scb [axi4_scoreboard] [REF_MEM_WRITE] Addr=0xb8ae8e88 Data=0x8d
# UVM_INFO ../src/env/axi4_scoreboard.sv(219) @ 3935000: uvm_test_top.env.scb [axi4_scoreboard] [REF_MEM_WRITE] Addr=0xb8ae8e8e Data=0x4a
# UVM_INFO ../src/env/axi4_scoreboard.sv(219) @ 3935000: uvm_test_top.env.scb [axi4_scoreboard] [REF_MEM_WRITE] Addr=0xb8ae8e8f Data=0xcb
# UVM_INFO ../src/env/axi4_scoreboard.sv(219) @ 3935000: uvm_test_top.env.scb [axi4_scoreboard] [REF_MEM_WRITE] Addr=0xb8ae8e91 Data=0xfe
# UVM_INFO ../src/env/axi4_scoreboard.sv(219) @ 3935000: uvm_test_top.env.scb [axi4_scoreboard] [REF_MEM_WRITE] Addr=0xb8ae8e94 Data=0x92
# UVM_INFO ../src/env/axi4_scoreboard.sv(219) @ 3935000: uvm_test_top.env.scb [axi4_scoreboard] [REF_MEM_WRITE] Addr=0xb8ae8e98 Data=0x8c
# UVM_INFO ../src/env/axi4_scoreboard.sv(219) @ 3935000: uvm_test_top.env.scb [axi4_scoreboard] [REF_MEM_WRITE] Addr=0xb8ae8e9a Data=0x2d
# UVM_INFO ../src/env/axi4_scoreboard.sv(219) @ 3935000: uvm_test_top.env.scb [axi4_scoreboard] [REF_MEM_WRITE] Addr=0xb8ae8e9c Data=0xc2
# UVM_INFO ../src/env/axi4_scoreboard.sv(219) @ 3935000: uvm_test_top.env.scb [axi4_scoreboard] [REF_MEM_WRITE] Addr=0xb8ae8e9e Data=0x5a
# UVM_INFO ../src/env/axi4_scoreboard.sv(219) @ 3935000: uvm_test_top.env.scb [axi4_scoreboard] [REF_MEM_WRITE] Addr=0xb8ae8e9f Data=0xf8
# UVM_INFO ../src/env/axi4_scoreboard.sv(219) @ 3935000: uvm_test_top.env.scb [axi4_scoreboard] [REF_MEM_WRITE] Addr=0xb8ae8ea6 Data=0xd7
# UVM_INFO ../src/env/axi4_scoreboard.sv(219) @ 3935000: uvm_test_top.env.scb [axi4_scoreboard] [REF_MEM_WRITE] Addr=0xb8ae8ea7 Data=0x6a
# UVM_INFO ../src/env/axi4_scoreboard.sv(219) @ 3935000: uvm_test_top.env.scb [axi4_scoreboard] [REF_MEM_WRITE] Addr=0xb8ae8ea8 Data=0x97
# UVM_INFO ../src/env/axi4_scoreboard.sv(219) @ 3935000: uvm_test_top.env.scb [axi4_scoreboard] [REF_MEM_WRITE] Addr=0xb8ae8ea9 Data=0x24
# UVM_INFO ../src/env/axi4_scoreboard.sv(219) @ 3935000: uvm_test_top.env.scb [axi4_scoreboard] [REF_MEM_WRITE] Addr=0xb8ae8eaa Data=0xdc
# UVM_INFO ../src/env/axi4_scoreboard.sv(219) @ 3935000: uvm_test_top.env.scb [axi4_scoreboard] [REF_MEM_WRITE] Addr=0xb8ae8eab Data=0x41
# UVM_INFO ../src/env/axi4_scoreboard.sv(219) @ 3935000: uvm_test_top.env.scb [axi4_scoreboard] [REF_MEM_WRITE] Addr=0xb8ae8eae Data=0x3a
# UVM_INFO ../src/env/axi4_scoreboard.sv(219) @ 3935000: uvm_test_top.env.scb [axi4_scoreboard] [REF_MEM_WRITE] Addr=0xb8ae8eaf Data=0x25
# UVM_INFO ../src/env/axi4_scoreboard.sv(219) @ 3935000: uvm_test_top.env.scb [axi4_scoreboard] [REF_MEM_WRITE] Addr=0xb8ae8eb0 Data=0x85
# UVM_INFO ../src/env/axi4_scoreboard.sv(219) @ 3935000: uvm_test_top.env.scb [axi4_scoreboard] [REF_MEM_WRITE] Addr=0xb8ae8eb1 Data=0x24
# UVM_INFO ../src/env/axi4_scoreboard.sv(219) @ 3935000: uvm_test_top.env.scb [axi4_scoreboard] [REF_MEM_WRITE] Addr=0xb8ae8eb4 Data=0x2a
# UVM_INFO ../src/env/axi4_scoreboard.sv(219) @ 3935000: uvm_test_top.env.scb [axi4_scoreboard] [REF_MEM_WRITE] Addr=0xb8ae8eb5 Data=0xa7
# UVM_INFO ../src/env/axi4_scoreboard.sv(219) @ 3935000: uvm_test_top.env.scb [axi4_scoreboard] [REF_MEM_WRITE] Addr=0xb8ae8eb6 Data=0x7d
# UVM_INFO ../src/env/axi4_scoreboard.sv(219) @ 3935000: uvm_test_top.env.scb [axi4_scoreboard] [REF_MEM_WRITE] Addr=0xb8ae8eb7 Data=0x27
# UVM_INFO ../src/env/axi4_scoreboard.sv(219) @ 3935000: uvm_test_top.env.scb [axi4_scoreboard] [REF_MEM_WRITE] Addr=0xb8ae8eb8 Data=0xd8
# UVM_INFO ../src/env/axi4_scoreboard.sv(219) @ 3935000: uvm_test_top.env.scb [axi4_scoreboard] [REF_MEM_WRITE] Addr=0xb8ae8eb9 Data=0x89
# UVM_INFO ../src/env/axi4_scoreboard.sv(219) @ 3935000: uvm_test_top.env.scb [axi4_scoreboard] [REF_MEM_WRITE] Addr=0xb8ae8ebb Data=0x3b
# UVM_INFO ../src/env/axi4_scoreboard.sv(219) @ 3935000: uvm_test_top.env.scb [axi4_scoreboard] [REF_MEM_WRITE] Addr=0xb8ae8ebd Data=0x6b
# UVM_INFO ../src/env/axi4_scoreboard.sv(219) @ 3935000: uvm_test_top.env.scb [axi4_scoreboard] [REF_MEM_WRITE] Addr=0xb8ae8ebe Data=0xb5
# UVM_INFO ../src/env/axi4_scoreboard.sv(219) @ 3935000: uvm_test_top.env.scb [axi4_scoreboard] [REF_MEM_WRITE] Addr=0xb8ae8ebf Data=0xb4
# UVM_INFO ../src/env/axi4_scoreboard.sv(219) @ 3935000: uvm_test_top.env.scb [axi4_scoreboard] [REF_MEM_WRITE] Addr=0xb8ae8ec1 Data=0x51
# UVM_INFO ../src/env/axi4_scoreboard.sv(219) @ 3935000: uvm_test_top.env.scb [axi4_scoreboard] [REF_MEM_WRITE] Addr=0xb8ae8ec2 Data=0x86
# UVM_INFO ../src/env/axi4_scoreboard.sv(219) @ 3935000: uvm_test_top.env.scb [axi4_scoreboard] [REF_MEM_WRITE] Addr=0xb8ae8ec3 Data=0xf4
# UVM_INFO ../src/env/axi4_scoreboard.sv(219) @ 3935000: uvm_test_top.env.scb [axi4_scoreboard] [REF_MEM_WRITE] Addr=0xb8ae8ec7 Data=0xa2
# UVM_INFO ../src/env/axi4_scoreboard.sv(219) @ 3935000: uvm_test_top.env.scb [axi4_scoreboard] [REF_MEM_WRITE] Addr=0xb8ae8ec8 Data=0x16
# UVM_INFO ../src/env/axi4_scoreboard.sv(219) @ 3935000: uvm_test_top.env.scb [axi4_scoreboard] [REF_MEM_WRITE] Addr=0xb8ae8eca Data=0xc7
# UVM_INFO ../src/env/axi4_scoreboard.sv(219) @ 3935000: uvm_test_top.env.scb [axi4_scoreboard] [REF_MEM_WRITE] Addr=0xb8ae8ecc Data=0x31
# UVM_INFO ../src/env/axi4_scoreboard.sv(219) @ 3935000: uvm_test_top.env.scb [axi4_scoreboard] [REF_MEM_WRITE] Addr=0xb8ae8ecf Data=0x8a
# UVM_INFO ../src/env/axi4_scoreboard.sv(219) @ 3935000: uvm_test_top.env.scb [axi4_scoreboard] [REF_MEM_WRITE] Addr=0xb8ae8ed2 Data=0x52
# UVM_INFO ../src/env/axi4_scoreboard.sv(219) @ 3935000: uvm_test_top.env.scb [axi4_scoreboard] [REF_MEM_WRITE] Addr=0xb8ae8ed5 Data=0xc3
# UVM_INFO ../src/env/axi4_scoreboard.sv(219) @ 3935000: uvm_test_top.env.scb [axi4_scoreboard] [REF_MEM_WRITE] Addr=0xb8ae8ed7 Data=0x80
# UVM_INFO ../src/env/axi4_scoreboard.sv(219) @ 3935000: uvm_test_top.env.scb [axi4_scoreboard] [REF_MEM_WRITE] Addr=0xb8ae8ed9 Data=0x95
# UVM_INFO ../src/env/axi4_scoreboard.sv(219) @ 3935000: uvm_test_top.env.scb [axi4_scoreboard] [REF_MEM_WRITE] Addr=0xb8ae8eda Data=0xa0
# UVM_INFO ../src/env/axi4_scoreboard.sv(219) @ 3935000: uvm_test_top.env.scb [axi4_scoreboard] [REF_MEM_WRITE] Addr=0xb8ae8edb Data=0x4f
# UVM_INFO ../src/env/axi4_scoreboard.sv(219) @ 3935000: uvm_test_top.env.scb [axi4_scoreboard] [REF_MEM_WRITE] Addr=0xb8ae8edd Data=0x9e
# UVM_INFO ../src/env/axi4_scoreboard.sv(219) @ 3935000: uvm_test_top.env.scb [axi4_scoreboard] [REF_MEM_WRITE] Addr=0xb8ae8ede Data=0x52
# UVM_INFO ../src/env/axi4_scoreboard.sv(219) @ 3935000: uvm_test_top.env.scb [axi4_scoreboard] [REF_MEM_WRITE] Addr=0xb8ae8edf Data=0x30
# UVM_INFO ../src/env/axi4_scoreboard.sv(219) @ 3935000: uvm_test_top.env.scb [axi4_scoreboard] [REF_MEM_WRITE] Addr=0xb8ae8ee0 Data=0xd1
# UVM_INFO ../src/env/axi4_scoreboard.sv(219) @ 3935000: uvm_test_top.env.scb [axi4_scoreboard] [REF_MEM_WRITE] Addr=0xb8ae8ee2 Data=0xc4
# UVM_INFO ../src/env/axi4_scoreboard.sv(219) @ 3935000: uvm_test_top.env.scb [axi4_scoreboard] [REF_MEM_WRITE] Addr=0xb8ae8ee5 Data=0xa4
# UVM_INFO ../src/env/axi4_scoreboard.sv(219) @ 3935000: uvm_test_top.env.scb [axi4_scoreboard] [REF_MEM_WRITE] Addr=0xb8ae8ee6 Data=0x91
# UVM_INFO ../src/env/axi4_scoreboard.sv(219) @ 3935000: uvm_test_top.env.scb [axi4_scoreboard] [REF_MEM_WRITE] Addr=0xb8ae8ee7 Data=0x12
# UVM_INFO ../src/env/axi4_scoreboard.sv(219) @ 3935000: uvm_test_top.env.scb [axi4_scoreboard] [REF_MEM_WRITE] Addr=0xb8ae8ee8 Data=0xce
# UVM_INFO ../src/env/axi4_scoreboard.sv(219) @ 3935000: uvm_test_top.env.scb [axi4_scoreboard] [REF_MEM_WRITE] Addr=0xb8ae8ee9 Data=0x40
# UVM_INFO ../src/env/axi4_scoreboard.sv(219) @ 3935000: uvm_test_top.env.scb [axi4_scoreboard] [REF_MEM_WRITE] Addr=0xb8ae8eea Data=0x2c
# UVM_INFO ../src/env/axi4_scoreboard.sv(219) @ 3935000: uvm_test_top.env.scb [axi4_scoreboard] [REF_MEM_WRITE] Addr=0xb8ae8eec Data=0xe3
# UVM_INFO ../src/env/axi4_scoreboard.sv(219) @ 3935000: uvm_test_top.env.scb [axi4_scoreboard] [REF_MEM_WRITE] Addr=0xb8ae8eee Data=0xd3
# UVM_INFO ../src/env/axi4_scoreboard.sv(219) @ 3935000: uvm_test_top.env.scb [axi4_scoreboard] [REF_MEM_WRITE] Addr=0xb8ae8eef Data=0xb6
# UVM_INFO ../src/env/axi4_scoreboard.sv(219) @ 3935000: uvm_test_top.env.scb [axi4_scoreboard] [REF_MEM_WRITE] Addr=0xb8ae8ef0 Data=0x66
# UVM_INFO ../src/env/axi4_scoreboard.sv(219) @ 3935000: uvm_test_top.env.scb [axi4_scoreboard] [REF_MEM_WRITE] Addr=0xb8ae8ef1 Data=0x3f
# UVM_INFO ../src/env/axi4_scoreboard.sv(219) @ 3935000: uvm_test_top.env.scb [axi4_scoreboard] [REF_MEM_WRITE] Addr=0xb8ae8ef2 Data=0x3a
# UVM_INFO ../src/env/axi4_scoreboard.sv(219) @ 3935000: uvm_test_top.env.scb [axi4_scoreboard] [REF_MEM_WRITE] Addr=0xb8ae8ef3 Data=0x47
# UVM_INFO ../src/env/axi4_scoreboard.sv(219) @ 3935000: uvm_test_top.env.scb [axi4_scoreboard] [REF_MEM_WRITE] Addr=0xb8ae8ef5 Data=0xe1
# UVM_INFO ../src/env/axi4_scoreboard.sv(219) @ 3935000: uvm_test_top.env.scb [axi4_scoreboard] [REF_MEM_WRITE] Addr=0xb8ae8ef6 Data=0x2e
# UVM_INFO ../src/env/axi4_scoreboard.sv(219) @ 3935000: uvm_test_top.env.scb [axi4_scoreboard] [REF_MEM_WRITE] Addr=0xb8ae8ef8 Data=0xdd
# UVM_INFO ../src/env/axi4_scoreboard.sv(219) @ 3935000: uvm_test_top.env.scb [axi4_scoreboard] [REF_MEM_WRITE] Addr=0xb8ae8efc Data=0x60
# UVM_INFO ../src/env/axi4_scoreboard.sv(219) @ 3935000: uvm_test_top.env.scb [axi4_scoreboard] [REF_MEM_WRITE] Addr=0xb8ae8efd Data=0xe9
# UVM_INFO ../src/env/axi4_scoreboard.sv(219) @ 3935000: uvm_test_top.env.scb [axi4_scoreboard] [REF_MEM_WRITE] Addr=0xb8ae8efe Data=0xa2
# UVM_INFO ../src/env/axi4_scoreboard.sv(219) @ 3935000: uvm_test_top.env.scb [axi4_scoreboard] [REF_MEM_WRITE] Addr=0xb8ae8eff Data=0x03
# UVM_INFO ../src/env/axi4_scoreboard.sv(219) @ 3935000: uvm_test_top.env.scb [axi4_scoreboard] [REF_MEM_WRITE] Addr=0xb8ae8f02 Data=0x84
# UVM_INFO ../src/env/axi4_scoreboard.sv(219) @ 3935000: uvm_test_top.env.scb [axi4_scoreboard] [REF_MEM_WRITE] Addr=0xb8ae8f03 Data=0x1f
# UVM_INFO ../src/env/axi4_scoreboard.sv(219) @ 3935000: uvm_test_top.env.scb [axi4_scoreboard] [REF_MEM_WRITE] Addr=0xb8ae8f04 Data=0xdf
# UVM_INFO ../src/env/axi4_scoreboard.sv(219) @ 3935000: uvm_test_top.env.scb [axi4_scoreboard] [REF_MEM_WRITE] Addr=0xb8ae8f06 Data=0x2b
# UVM_INFO ../src/env/axi4_scoreboard.sv(219) @ 3935000: uvm_test_top.env.scb [axi4_scoreboard] [REF_MEM_WRITE] Addr=0xb8ae8f0b Data=0xf4
# UVM_INFO ../src/env/axi4_scoreboard.sv(219) @ 3935000: uvm_test_top.env.scb [axi4_scoreboard] [REF_MEM_WRITE] Addr=0xb8ae8f0d Data=0x47
# UVM_INFO ../src/env/axi4_scoreboard.sv(219) @ 3935000: uvm_test_top.env.scb [axi4_scoreboard] [REF_MEM_WRITE] Addr=0xb8ae8f0e Data=0x9b
# UVM_INFO ../src/env/axi4_scoreboard.sv(219) @ 3935000: uvm_test_top.env.scb [axi4_scoreboard] [REF_MEM_WRITE] Addr=0xb8ae8f13 Data=0x89
# UVM_INFO ../src/env/axi4_scoreboard.sv(219) @ 3935000: uvm_test_top.env.scb [axi4_scoreboard] [REF_MEM_WRITE] Addr=0xb8ae8f14 Data=0x20
# UVM_INFO ../src/env/axi4_scoreboard.sv(219) @ 3935000: uvm_test_top.env.scb [axi4_scoreboard] [REF_MEM_WRITE] Addr=0xb8ae8f15 Data=0x12
# UVM_INFO ../src/env/axi4_scoreboard.sv(219) @ 3935000: uvm_test_top.env.scb [axi4_scoreboard] [REF_MEM_WRITE] Addr=0xb8ae8f16 Data=0x9c
# UVM_INFO ../src/env/axi4_scoreboard.sv(219) @ 3935000: uvm_test_top.env.scb [axi4_scoreboard] [REF_MEM_WRITE] Addr=0xb8ae8f17 Data=0x0d
# UVM_INFO ../src/env/axi4_scoreboard.sv(219) @ 3935000: uvm_test_top.env.scb [axi4_scoreboard] [REF_MEM_WRITE] Addr=0xb8ae8f19 Data=0x4a
# UVM_INFO ../src/env/axi4_scoreboard.sv(219) @ 3935000: uvm_test_top.env.scb [axi4_scoreboard] [REF_MEM_WRITE] Addr=0xb8ae8f1b Data=0x15
# UVM_INFO ../src/env/axi4_scoreboard.sv(219) @ 3935000: uvm_test_top.env.scb [axi4_scoreboard] [REF_MEM_WRITE] Addr=0xb8ae8f1d Data=0x28
# UVM_INFO ../src/env/axi4_scoreboard.sv(219) @ 3935000: uvm_test_top.env.scb [axi4_scoreboard] [REF_MEM_WRITE] Addr=0xb8ae8f1f Data=0x08
# UVM_INFO ../src/env/axi4_scoreboard.sv(219) @ 3935000: uvm_test_top.env.scb [axi4_scoreboard] [REF_MEM_WRITE] Addr=0xb8ae8f22 Data=0x20
# UVM_INFO ../src/env/axi4_scoreboard.sv(219) @ 3935000: uvm_test_top.env.scb [axi4_scoreboard] [REF_MEM_WRITE] Addr=0xb8ae8f25 Data=0x34
# UVM_INFO ../src/env/axi4_scoreboard.sv(219) @ 3935000: uvm_test_top.env.scb [axi4_scoreboard] [REF_MEM_WRITE] Addr=0xb8ae8f26 Data=0xaf
# UVM_INFO ../src/env/axi4_scoreboard.sv(219) @ 3935000: uvm_test_top.env.scb [axi4_scoreboard] [REF_MEM_WRITE] Addr=0xb8ae8f27 Data=0x55
# UVM_INFO ../src/env/axi4_scoreboard.sv(219) @ 3935000: uvm_test_top.env.scb [axi4_scoreboard] [REF_MEM_WRITE] Addr=0xb8ae8f28 Data=0x5a
# UVM_INFO ../src/env/axi4_scoreboard.sv(219) @ 3935000: uvm_test_top.env.scb [axi4_scoreboard] [REF_MEM_WRITE] Addr=0xb8ae8f29 Data=0x84
# UVM_INFO ../src/env/axi4_scoreboard.sv(219) @ 3935000: uvm_test_top.env.scb [axi4_scoreboard] [REF_MEM_WRITE] Addr=0xb8ae8f2a Data=0x40
# UVM_INFO ../src/env/axi4_scoreboard.sv(219) @ 3935000: uvm_test_top.env.scb [axi4_scoreboard] [REF_MEM_WRITE] Addr=0xb8ae8f2b Data=0x9e
# UVM_INFO ../src/env/axi4_scoreboard.sv(219) @ 3935000: uvm_test_top.env.scb [axi4_scoreboard] [REF_MEM_WRITE] Addr=0xb8ae8f2e Data=0xe1
# UVM_INFO ../src/env/axi4_scoreboard.sv(219) @ 3935000: uvm_test_top.env.scb [axi4_scoreboard] [REF_MEM_WRITE] Addr=0xb8ae8f2f Data=0x14
# UVM_INFO ../src/env/axi4_scoreboard.sv(219) @ 3935000: uvm_test_top.env.scb [axi4_scoreboard] [REF_MEM_WRITE] Addr=0xb8ae8f31 Data=0x28
# UVM_INFO ../src/env/axi4_scoreboard.sv(219) @ 3935000: uvm_test_top.env.scb [axi4_scoreboard] [REF_MEM_WRITE] Addr=0xb8ae8f35 Data=0xed
# UVM_INFO ../src/env/axi4_scoreboard.sv(219) @ 3935000: uvm_test_top.env.scb [axi4_scoreboard] [REF_MEM_WRITE] Addr=0xb8ae8f37 Data=0xf9
# UVM_INFO ../src/env/axi4_scoreboard.sv(219) @ 3935000: uvm_test_top.env.scb [axi4_scoreboard] [REF_MEM_WRITE] Addr=0xb8ae8f39 Data=0x44
# UVM_INFO ../src/env/axi4_scoreboard.sv(219) @ 3935000: uvm_test_top.env.scb [axi4_scoreboard] [REF_MEM_WRITE] Addr=0xb8ae8f3d Data=0x9a
# UVM_INFO ../src/env/axi4_scoreboard.sv(219) @ 3935000: uvm_test_top.env.scb [axi4_scoreboard] [REF_MEM_WRITE] Addr=0xb8ae8f45 Data=0x8a
# UVM_INFO ../src/env/axi4_scoreboard.sv(219) @ 3935000: uvm_test_top.env.scb [axi4_scoreboard] [REF_MEM_WRITE] Addr=0xb8ae8f47 Data=0x23
# UVM_INFO ../src/env/axi4_scoreboard.sv(219) @ 3935000: uvm_test_top.env.scb [axi4_scoreboard] [REF_MEM_WRITE] Addr=0xb8ae8f4a Data=0x5b
# UVM_INFO ../src/env/axi4_scoreboard.sv(219) @ 3935000: uvm_test_top.env.scb [axi4_scoreboard] [REF_MEM_WRITE] Addr=0xb8ae8f4b Data=0xc8
# UVM_INFO ../src/env/axi4_scoreboard.sv(219) @ 3935000: uvm_test_top.env.scb [axi4_scoreboard] [REF_MEM_WRITE] Addr=0xb8ae8f4d Data=0xce
# UVM_INFO ../src/env/axi4_scoreboard.sv(219) @ 3935000: uvm_test_top.env.scb [axi4_scoreboard] [REF_MEM_WRITE] Addr=0xb8ae8f4e Data=0x52
# UVM_INFO ../src/env/axi4_scoreboard.sv(219) @ 3935000: uvm_test_top.env.scb [axi4_scoreboard] [REF_MEM_WRITE] Addr=0xb8ae8f51 Data=0x08
# UVM_INFO ../src/env/axi4_scoreboard.sv(219) @ 3935000: uvm_test_top.env.scb [axi4_scoreboard] [REF_MEM_WRITE] Addr=0xb8ae8f53 Data=0xd1
# UVM_INFO ../src/env/axi4_scoreboard.sv(219) @ 3935000: uvm_test_top.env.scb [axi4_scoreboard] [REF_MEM_WRITE] Addr=0xb8ae8f54 Data=0x90
# UVM_INFO ../src/env/axi4_scoreboard.sv(219) @ 3935000: uvm_test_top.env.scb [axi4_scoreboard] [REF_MEM_WRITE] Addr=0xb8ae8f55 Data=0x9e
# UVM_INFO ../src/env/axi4_scoreboard.sv(219) @ 3935000: uvm_test_top.env.scb [axi4_scoreboard] [REF_MEM_WRITE] Addr=0xb8ae8f57 Data=0x25
# UVM_INFO ../src/env/axi4_scoreboard.sv(219) @ 3935000: uvm_test_top.env.scb [axi4_scoreboard] [REF_MEM_WRITE] Addr=0xb8ae8f58 Data=0xf7
# UVM_INFO ../src/env/axi4_scoreboard.sv(219) @ 3935000: uvm_test_top.env.scb [axi4_scoreboard] [REF_MEM_WRITE] Addr=0xb8ae8f5b Data=0xf6
# UVM_INFO ../src/env/axi4_scoreboard.sv(219) @ 3935000: uvm_test_top.env.scb [axi4_scoreboard] [REF_MEM_WRITE] Addr=0xb8ae8f5e Data=0x8b
# UVM_INFO ../src/env/axi4_scoreboard.sv(219) @ 3935000: uvm_test_top.env.scb [axi4_scoreboard] [REF_MEM_WRITE] Addr=0xb8ae8f5f Data=0xa3
# UVM_INFO ../src/env/axi4_scoreboard.sv(219) @ 3935000: uvm_test_top.env.scb [axi4_scoreboard] [REF_MEM_WRITE] Addr=0xb8ae8f60 Data=0x35
# UVM_INFO ../src/env/axi4_scoreboard.sv(219) @ 3935000: uvm_test_top.env.scb [axi4_scoreboard] [REF_MEM_WRITE] Addr=0xb8ae8f61 Data=0xef
# UVM_INFO ../src/env/axi4_scoreboard.sv(219) @ 3935000: uvm_test_top.env.scb [axi4_scoreboard] [REF_MEM_WRITE] Addr=0xb8ae8f64 Data=0x8f
# UVM_INFO ../src/env/axi4_scoreboard.sv(219) @ 3935000: uvm_test_top.env.scb [axi4_scoreboard] [REF_MEM_WRITE] Addr=0xb8ae8f65 Data=0x88
# UVM_INFO ../src/env/axi4_scoreboard.sv(219) @ 3935000: uvm_test_top.env.scb [axi4_scoreboard] [REF_MEM_WRITE] Addr=0xb8ae8f68 Data=0x0d
# UVM_INFO ../src/env/axi4_scoreboard.sv(219) @ 3935000: uvm_test_top.env.scb [axi4_scoreboard] [REF_MEM_WRITE] Addr=0xb8ae8f69 Data=0x4c
# UVM_INFO ../src/env/axi4_scoreboard.sv(219) @ 3935000: uvm_test_top.env.scb [axi4_scoreboard] [REF_MEM_WRITE] Addr=0xb8ae8f70 Data=0x4d
# UVM_INFO ../src/env/axi4_scoreboard.sv(219) @ 3935000: uvm_test_top.env.scb [axi4_scoreboard] [REF_MEM_WRITE] Addr=0xb8ae8f71 Data=0x35
# UVM_INFO ../src/env/axi4_scoreboard.sv(219) @ 3935000: uvm_test_top.env.scb [axi4_scoreboard] [REF_MEM_WRITE] Addr=0xb8ae8f74 Data=0x31
# UVM_INFO ../src/env/axi4_scoreboard.sv(219) @ 3935000: uvm_test_top.env.scb [axi4_scoreboard] [REF_MEM_WRITE] Addr=0xb8ae8f75 Data=0xf7
# UVM_INFO ../src/env/axi4_scoreboard.sv(219) @ 3935000: uvm_test_top.env.scb [axi4_scoreboard] [REF_MEM_WRITE] Addr=0xb8ae8f76 Data=0xfa
# UVM_INFO ../src/env/axi4_scoreboard.sv(219) @ 3935000: uvm_test_top.env.scb [axi4_scoreboard] [REF_MEM_WRITE] Addr=0xb8ae8f78 Data=0xc3
# UVM_INFO ../src/env/axi4_scoreboard.sv(219) @ 3935000: uvm_test_top.env.scb [axi4_scoreboard] [REF_MEM_WRITE] Addr=0xb8ae8f79 Data=0x4e
# UVM_INFO ../src/env/axi4_scoreboard.sv(219) @ 3935000: uvm_test_top.env.scb [axi4_scoreboard] [REF_MEM_WRITE] Addr=0xb8ae8f7a Data=0xea
# UVM_INFO ../src/env/axi4_scoreboard.sv(219) @ 3935000: uvm_test_top.env.scb [axi4_scoreboard] [REF_MEM_WRITE] Addr=0xb8ae8f7b Data=0xd5
# UVM_INFO ../src/env/axi4_scoreboard.sv(219) @ 3935000: uvm_test_top.env.scb [axi4_scoreboard] [REF_MEM_WRITE] Addr=0xb8ae8f7e Data=0x98
# UVM_INFO ../src/env/axi4_scoreboard.sv(219) @ 3935000: uvm_test_top.env.scb [axi4_scoreboard] [REF_MEM_WRITE] Addr=0xb8ae8f81 Data=0xcd
# UVM_INFO ../src/env/axi4_scoreboard.sv(219) @ 3935000: uvm_test_top.env.scb [axi4_scoreboard] [REF_MEM_WRITE] Addr=0xb8ae8f83 Data=0x3c
# UVM_INFO ../src/env/axi4_scoreboard.sv(219) @ 3935000: uvm_test_top.env.scb [axi4_scoreboard] [REF_MEM_WRITE] Addr=0xb8ae8f85 Data=0xb9
# UVM_INFO ../src/env/axi4_scoreboard.sv(219) @ 3935000: uvm_test_top.env.scb [axi4_scoreboard] [REF_MEM_WRITE] Addr=0xb8ae8f86 Data=0xed
# UVM_INFO ../src/env/axi4_scoreboard.sv(219) @ 3935000: uvm_test_top.env.scb [axi4_scoreboard] [REF_MEM_WRITE] Addr=0xb8ae8f87 Data=0xc5
# UVM_INFO ../src/env/axi4_scoreboard.sv(219) @ 3935000: uvm_test_top.env.scb [axi4_scoreboard] [REF_MEM_WRITE] Addr=0xb8ae8f88 Data=0xc6
# UVM_INFO ../src/env/axi4_scoreboard.sv(219) @ 3935000: uvm_test_top.env.scb [axi4_scoreboard] [REF_MEM_WRITE] Addr=0xb8ae8f8a Data=0xc6
# UVM_INFO ../src/env/axi4_scoreboard.sv(219) @ 3935000: uvm_test_top.env.scb [axi4_scoreboard] [REF_MEM_WRITE] Addr=0xb8ae8f8c Data=0x34
# UVM_INFO ../src/env/axi4_scoreboard.sv(219) @ 3935000: uvm_test_top.env.scb [axi4_scoreboard] [REF_MEM_WRITE] Addr=0xb8ae8f8e Data=0xf3
# UVM_INFO ../src/env/axi4_scoreboard.sv(219) @ 3935000: uvm_test_top.env.scb [axi4_scoreboard] [REF_MEM_WRITE] Addr=0xb8ae8f8f Data=0xb1
# UVM_INFO ../src/env/axi4_scoreboard.sv(219) @ 3935000: uvm_test_top.env.scb [axi4_scoreboard] [REF_MEM_WRITE] Addr=0xb8ae8f92 Data=0xf1
# UVM_INFO ../src/env/axi4_scoreboard.sv(219) @ 3935000: uvm_test_top.env.scb [axi4_scoreboard] [REF_MEM_WRITE] Addr=0xb8ae8f97 Data=0x03
# UVM_INFO ../src/env/axi4_scoreboard.sv(219) @ 3935000: uvm_test_top.env.scb [axi4_scoreboard] [REF_MEM_WRITE] Addr=0xb8ae8f99 Data=0x5d
# UVM_INFO ../src/env/axi4_scoreboard.sv(219) @ 3935000: uvm_test_top.env.scb [axi4_scoreboard] [REF_MEM_WRITE] Addr=0xb8ae8f9a Data=0x99
# UVM_INFO ../src/env/axi4_scoreboard.sv(219) @ 3935000: uvm_test_top.env.scb [axi4_scoreboard] [REF_MEM_WRITE] Addr=0xb8ae8f9b Data=0x81
# UVM_INFO ../src/env/axi4_scoreboard.sv(219) @ 3935000: uvm_test_top.env.scb [axi4_scoreboard] [REF_MEM_WRITE] Addr=0xb8ae8f9d Data=0x16
# UVM_INFO ../src/env/axi4_scoreboard.sv(219) @ 3935000: uvm_test_top.env.scb [axi4_scoreboard] [REF_MEM_WRITE] Addr=0xb8ae8f9f Data=0x6a
# UVM_INFO ../src/env/axi4_scoreboard.sv(219) @ 3935000: uvm_test_top.env.scb [axi4_scoreboard] [REF_MEM_WRITE] Addr=0xb8ae8fa1 Data=0xcf
# UVM_INFO ../src/env/axi4_scoreboard.sv(219) @ 3935000: uvm_test_top.env.scb [axi4_scoreboard] [REF_MEM_WRITE] Addr=0xb8ae8fa3 Data=0x1e
# UVM_INFO ../src/env/axi4_scoreboard.sv(219) @ 3935000: uvm_test_top.env.scb [axi4_scoreboard] [REF_MEM_WRITE] Addr=0xb8ae8fa4 Data=0xbc
# UVM_INFO ../src/env/axi4_scoreboard.sv(219) @ 3935000: uvm_test_top.env.scb [axi4_scoreboard] [REF_MEM_WRITE] Addr=0xb8ae8fa5 Data=0xe8
# UVM_INFO ../src/env/axi4_scoreboard.sv(219) @ 3935000: uvm_test_top.env.scb [axi4_scoreboard] [REF_MEM_WRITE] Addr=0xb8ae8fa7 Data=0x15
# UVM_INFO ../src/env/axi4_scoreboard.sv(219) @ 3935000: uvm_test_top.env.scb [axi4_scoreboard] [REF_MEM_WRITE] Addr=0xb8ae8fa8 Data=0xbb
# UVM_INFO ../src/env/axi4_scoreboard.sv(219) @ 3935000: uvm_test_top.env.scb [axi4_scoreboard] [REF_MEM_WRITE] Addr=0xb8ae8fab Data=0x69
# UVM_INFO ../src/mst/axi4_master_monitor.sv(184) @ 4265000: uvm_test_top.env.master_agent.mon [axi4_master_monitor] W data assembled: ID=0xd ADDR=0xa838c695 18 beats
# UVM_INFO ../src/slv/axi4_slave_monitor.sv(167) @ 4265000: uvm_test_top.env.slave_agent.mon [axi4_slave_monitor] W data assembled: ID=0xd ADDR=0xa838c695 18 beats
# UVM_INFO ../src/mst/axi4_master_driver.sv(289) @ 4295000: uvm_test_top.env.master_agent.drv [axi4_master_driver] Master driver received B response: ID=0xd RESP=AXI4_RESP_OKAY
# UVM_INFO ../src/slv/axi4_slave_driver.sv(348) @ 4295000: uvm_test_top.env.slave_agent.drv [axi4_slave_driver] Write complete: ID=0xd RESP=AXI4_RESP_OKAY
# UVM_INFO ../src/slv/axi4_slave_monitor.sv(189) @ 4295000: uvm_test_top.env.slave_agent.mon [axi4_slave_monitor] Write response sent: ID=0xd ADDR=0xa838c695 RESP=AXI4_RESP_OKAY
# UVM_INFO ../src/env/axi4_scoreboard.sv(108) @ 4295000: uvm_test_top.env.scb [axi4_scoreboard] Slave AXI4_WRITE received: ID=0xd ADDR=0xa838c695 LEN=17
# UVM_INFO ../src/mst/axi4_master_monitor.sv(210) @ 4295000: uvm_test_top.env.master_agent.mon [axi4_master_monitor] Write complete: ID=0xd ADDR=0xa838c695 RESP=AXI4_RESP_OKAY
# UVM_INFO ../src/env/axi4_scoreboard.sv(87) @ 4295000: uvm_test_top.env.scb [axi4_scoreboard] Master AXI4_WRITE received: ID=0xd ADDR=0xa838c695 LEN=17
# UVM_INFO ../src/env/axi4_scoreboard.sv(291) @ 4295000: uvm_test_top.env.scb [axi4_scoreboard] [WRITE] MATCH #4: ID=0xd ADDR=0xa838c695 LEN=17
# UVM_INFO ../src/env/axi4_scoreboard.sv(219) @ 4295000: uvm_test_top.env.scb [axi4_scoreboard] [REF_MEM_WRITE] Addr=0xa838c696 Data=0x82
# UVM_INFO ../src/env/axi4_scoreboard.sv(219) @ 4295000: uvm_test_top.env.scb [axi4_scoreboard] [REF_MEM_WRITE] Addr=0xa838c697 Data=0x84
# UVM_INFO ../src/env/axi4_scoreboard.sv(219) @ 4295000: uvm_test_top.env.scb [axi4_scoreboard] [REF_MEM_WRITE] Addr=0xa838c695 Data=0x58
# UVM_INFO ../src/env/axi4_scoreboard.sv(219) @ 4295000: uvm_test_top.env.scb [axi4_scoreboard] [REF_MEM_WRITE] Addr=0xa838c699 Data=0x73
# UVM_INFO ../src/env/axi4_scoreboard.sv(219) @ 4295000: uvm_test_top.env.scb [axi4_scoreboard] [REF_MEM_WRITE] Addr=0xa838c698 Data=0x56
# UVM_INFO ../src/env/axi4_scoreboard.sv(219) @ 4295000: uvm_test_top.env.scb [axi4_scoreboard] [REF_MEM_WRITE] Addr=0xa838c69a Data=0x5b
# UVM_INFO ../src/env/axi4_scoreboard.sv(219) @ 4295000: uvm_test_top.env.scb [axi4_scoreboard] [REF_MEM_WRITE] Addr=0xa838c69b Data=0x50
# UVM_INFO ../src/env/axi4_scoreboard.sv(219) @ 4295000: uvm_test_top.env.scb [axi4_scoreboard] [REF_MEM_WRITE] Addr=0xa838c69d Data=0x85
# UVM_INFO ../src/env/axi4_scoreboard.sv(219) @ 4295000: uvm_test_top.env.scb [axi4_scoreboard] [REF_MEM_WRITE] Addr=0xa838c69f Data=0xa0
# UVM_INFO ../src/env/axi4_scoreboard.sv(219) @ 4295000: uvm_test_top.env.scb [axi4_scoreboard] [REF_MEM_WRITE] Addr=0xa838c69c Data=0xfa
# UVM_INFO ../src/env/axi4_scoreboard.sv(219) @ 4295000: uvm_test_top.env.scb [axi4_scoreboard] [REF_MEM_WRITE] Addr=0xa838c6a2 Data=0x6e
# UVM_INFO ../src/env/axi4_scoreboard.sv(219) @ 4295000: uvm_test_top.env.scb [axi4_scoreboard] [REF_MEM_WRITE] Addr=0xa838c6a3 Data=0x7f
# UVM_INFO ../src/env/axi4_scoreboard.sv(219) @ 4295000: uvm_test_top.env.scb [axi4_scoreboard] [REF_MEM_WRITE] Addr=0xa838c6a1 Data=0x6a
# UVM_INFO ../src/env/axi4_scoreboard.sv(219) @ 4295000: uvm_test_top.env.scb [axi4_scoreboard] [REF_MEM_WRITE] Addr=0xa838c6a2 Data=0xa5
# UVM_INFO ../src/env/axi4_scoreboard.sv(219) @ 4295000: uvm_test_top.env.scb [axi4_scoreboard] [REF_MEM_WRITE] Addr=0xa838c6a3 Data=0x7a
# UVM_INFO ../src/env/axi4_scoreboard.sv(219) @ 4295000: uvm_test_top.env.scb [axi4_scoreboard] [REF_MEM_WRITE] Addr=0xa838c6a4 Data=0x90
# UVM_INFO ../src/env/axi4_scoreboard.sv(219) @ 4295000: uvm_test_top.env.scb [axi4_scoreboard] [REF_MEM_WRITE] Addr=0xa838c6a7 Data=0x94
# UVM_INFO ../src/env/axi4_scoreboard.sv(219) @ 4295000: uvm_test_top.env.scb [axi4_scoreboard] [REF_MEM_WRITE] Addr=0xa838c6a5 Data=0x92
# UVM_INFO ../src/env/axi4_scoreboard.sv(219) @ 4295000: uvm_test_top.env.scb [axi4_scoreboard] [REF_MEM_WRITE] Addr=0xa838c6a6 Data=0x6a
# UVM_INFO ../src/env/axi4_scoreboard.sv(219) @ 4295000: uvm_test_top.env.scb [axi4_scoreboard] [REF_MEM_WRITE] Addr=0xa838c6a7 Data=0xe8
# UVM_INFO ../src/env/axi4_scoreboard.sv(219) @ 4295000: uvm_test_top.env.scb [axi4_scoreboard] [REF_MEM_WRITE] Addr=0xa838c6a9 Data=0xd4
# UVM_INFO ../src/env/axi4_scoreboard.sv(219) @ 4295000: uvm_test_top.env.scb [axi4_scoreboard] [REF_MEM_WRITE] Addr=0xa838c6aa Data=0x9b
# UVM_INFO ../src/env/axi4_scoreboard.sv(219) @ 4295000: uvm_test_top.env.scb [axi4_scoreboard] [REF_MEM_WRITE] Addr=0xa838c6ab Data=0x3b
# UVM_INFO ../src/env/axi4_scoreboard.sv(219) @ 4295000: uvm_test_top.env.scb [axi4_scoreboard] [REF_MEM_WRITE] Addr=0xa838c6a9 Data=0x9f
# UVM_INFO ../src/env/axi4_scoreboard.sv(219) @ 4295000: uvm_test_top.env.scb [axi4_scoreboard] [REF_MEM_WRITE] Addr=0xa838c6aa Data=0xf7
# UVM_INFO ../src/env/axi4_scoreboard.sv(219) @ 4295000: uvm_test_top.env.scb [axi4_scoreboard] [REF_MEM_WRITE] Addr=0xa838c6ab Data=0x2a
# UVM_INFO ../src/env/axi4_scoreboard.sv(219) @ 4295000: uvm_test_top.env.scb [axi4_scoreboard] [REF_MEM_WRITE] Addr=0xa838c6ad Data=0x5b
# UVM_INFO ../src/env/axi4_scoreboard.sv(219) @ 4295000: uvm_test_top.env.scb [axi4_scoreboard] [REF_MEM_WRITE] Addr=0xa838c6ae Data=0x8b
# UVM_INFO ../src/env/axi4_scoreboard.sv(219) @ 4295000: uvm_test_top.env.scb [axi4_scoreboard] [REF_MEM_WRITE] Addr=0xa838c6af Data=0xc1
# UVM_INFO ../src/env/axi4_scoreboard.sv(219) @ 4295000: uvm_test_top.env.scb [axi4_scoreboard] [REF_MEM_WRITE] Addr=0xa838c6ac Data=0xe5
# UVM_INFO ../src/env/axi4_scoreboard.sv(219) @ 4295000: uvm_test_top.env.scb [axi4_scoreboard] [REF_MEM_WRITE] Addr=0xa838c6ae Data=0xcc
# UVM_INFO ../src/env/axi4_scoreboard.sv(219) @ 4295000: uvm_test_top.env.scb [axi4_scoreboard] [REF_MEM_WRITE] Addr=0xa838c6b0 Data=0x32
# UVM_INFO ../src/env/axi4_scoreboard.sv(219) @ 4295000: uvm_test_top.env.scb [axi4_scoreboard] [REF_MEM_WRITE] Addr=0xa838c6b0 Data=0x00
# UVM_INFO ../src/env/axi4_scoreboard.sv(219) @ 4295000: uvm_test_top.env.scb [axi4_scoreboard] [REF_MEM_WRITE] Addr=0xa838c6b1 Data=0xf2
# UVM_INFO ../src/env/axi4_scoreboard.sv(219) @ 4295000: uvm_test_top.env.scb [axi4_scoreboard] [REF_MEM_WRITE] Addr=0xa838c6b2 Data=0x38
# UVM_INFO ../src/env/axi4_scoreboard.sv(219) @ 4295000: uvm_test_top.env.scb [axi4_scoreboard] [REF_MEM_WRITE] Addr=0xa838c6b5 Data=0x22
# UVM_INFO ../src/env/axi4_scoreboard.sv(219) @ 4295000: uvm_test_top.env.scb [axi4_scoreboard] [REF_MEM_WRITE] Addr=0xa838c6b5 Data=0x6b
# UVM_INFO ../src/mst/axi4_master_driver.sv(348) @ 4595000: uvm_test_top.env.master_agent.drv [axi4_master_driver] Master driver received all R beats for ID=0x0
# UVM_INFO ../src/slv/axi4_slave_driver.sv(501) @ 4595000: uvm_test_top.env.slave_agent.drv [axi4_slave_driver] Read complete: ID=0x0 ADDR=0x94b00567 RESP=AXI4_RESP_OKAY  99 beats sent
# UVM_INFO ../src/slv/axi4_slave_monitor.sv(287) @ 4595000: uvm_test_top.env.slave_agent.mon [axi4_slave_monitor] Read data sent: ID=0x0 ADDR=0x94b00567 99 beats
# UVM_INFO ../src/env/axi4_scoreboard.sv(108) @ 4595000: uvm_test_top.env.scb [axi4_scoreboard] Slave AXI4_READ received: ID=0x0 ADDR=0x94b00567 LEN=98
# UVM_INFO ../src/mst/axi4_master_monitor.sv(314) @ 4595000: uvm_test_top.env.master_agent.mon [axi4_master_monitor] Read complete: ID=0x0 ADDR=0x94b00567 99 beats
# UVM_INFO ../src/env/axi4_scoreboard.sv(87) @ 4595000: uvm_test_top.env.scb [axi4_scoreboard] Master AXI4_READ received: ID=0x0 ADDR=0x94b00567 LEN=98
# UVM_INFO ../src/env/axi4_scoreboard.sv(291) @ 4595000: uvm_test_top.env.scb [axi4_scoreboard] [READ] MATCH #5: ID=0x0 ADDR=0x94b00567 LEN=98
# UVM_INFO ../src/mst/axi4_master_driver.sv(348) @ 5275000: uvm_test_top.env.master_agent.drv [axi4_master_driver] Master driver received all R beats for ID=0xf
# UVM_INFO ../src/slv/axi4_slave_driver.sv(501) @ 5275000: uvm_test_top.env.slave_agent.drv [axi4_slave_driver] Read complete: ID=0xf ADDR=0xc40319d6 RESP=AXI4_RESP_OKAY  34 beats sent
# UVM_INFO ../src/slv/axi4_slave_monitor.sv(287) @ 5275000: uvm_test_top.env.slave_agent.mon [axi4_slave_monitor] Read data sent: ID=0xf ADDR=0xc40319d6 34 beats
# UVM_INFO ../src/env/axi4_scoreboard.sv(108) @ 5275000: uvm_test_top.env.scb [axi4_scoreboard] Slave AXI4_READ received: ID=0xf ADDR=0xc40319d6 LEN=33
# UVM_INFO ../src/mst/axi4_master_monitor.sv(314) @ 5275000: uvm_test_top.env.master_agent.mon [axi4_master_monitor] Read complete: ID=0xf ADDR=0xc40319d6 34 beats
# UVM_INFO ../src/env/axi4_scoreboard.sv(87) @ 5275000: uvm_test_top.env.scb [axi4_scoreboard] Master AXI4_READ received: ID=0xf ADDR=0xc40319d6 LEN=33
# UVM_INFO ../src/env/axi4_scoreboard.sv(291) @ 5275000: uvm_test_top.env.scb [axi4_scoreboard] [READ] MATCH #6: ID=0xf ADDR=0xc40319d6 LEN=33
# UVM_INFO ../src/mst/axi4_master_monitor.sv(184) @ 6985000: uvm_test_top.env.master_agent.mon [axi4_master_monitor] W data assembled: ID=0xa ADDR=0x08686f5e 136 beats
# UVM_INFO ../src/slv/axi4_slave_monitor.sv(167) @ 6985000: uvm_test_top.env.slave_agent.mon [axi4_slave_monitor] W data assembled: ID=0xa ADDR=0x08686f5e 136 beats
# UVM_INFO ../src/mst/axi4_master_driver.sv(289) @ 7015000: uvm_test_top.env.master_agent.drv [axi4_master_driver] Master driver received B response: ID=0xa RESP=AXI4_RESP_OKAY
# UVM_INFO ../src/slv/axi4_slave_driver.sv(348) @ 7015000: uvm_test_top.env.slave_agent.drv [axi4_slave_driver] Write complete: ID=0xa RESP=AXI4_RESP_OKAY
# UVM_INFO ../src/slv/axi4_slave_monitor.sv(189) @ 7015000: uvm_test_top.env.slave_agent.mon [axi4_slave_monitor] Write response sent: ID=0xa ADDR=0x08686f5e RESP=AXI4_RESP_OKAY
# UVM_INFO ../src/env/axi4_scoreboard.sv(108) @ 7015000: uvm_test_top.env.scb [axi4_scoreboard] Slave AXI4_WRITE received: ID=0xa ADDR=0x08686f5e LEN=135
# UVM_INFO ../src/mst/axi4_master_monitor.sv(210) @ 7015000: uvm_test_top.env.master_agent.mon [axi4_master_monitor] Write complete: ID=0xa ADDR=0x08686f5e RESP=AXI4_RESP_OKAY
# UVM_INFO ../src/env/axi4_scoreboard.sv(87) @ 7015000: uvm_test_top.env.scb [axi4_scoreboard] Master AXI4_WRITE received: ID=0xa ADDR=0x08686f5e LEN=135
