# vsim -c -coverage -sv_seed 11639464 "+UVM_TESTNAME=axi4_cache_prot_test" "+UVM_VERBOSITY=UVM_HIGH" "+DUMP_VCD" -l ./report/logs/axi4_cache_prot_test_run_4_seed_11639464.log -do "coverage save -onexit ./report/coverage/axi4_cache_prot_test_run_4_seed_11639464.ucdb; run -all; quit -f" opt_tb_top 
# Start time: 14:43:37 on Jul 08,2026
# //  Questa Sim-64
# //  Version 10.6b linux_x86_64 May 25 2017
# //
# //  Copyright 1991-2017 Mentor Graphics Corporation
# //  All Rights Reserved.
# //
# //  QuestaSim and its associated documentation contain trade
# //  secrets and commercial or financial information that are the property of
# //  Mentor Graphics Corporation and are privileged, confidential,
# //  and exempt from disclosure under the Freedom of Information Act,
# //  5 U.S.C. Section 552. Furthermore, this information
# //  is prohibited from disclosure under the Trade Secrets Act,
# //  18 U.S.C. Section 1905.
# //
# Loading sv_std.std
# Loading work.axi4_if(fast)
# Loading mtiUvm.uvm_pkg
# Loading work.axi4_pkg(fast)
# Loading work.axi4_test_pkg(fast)
# Loading work.tb_top(fast)
# Loading work.axi4_if(fast)
# Loading work.axi4_sva(fast)
# Loading mtiUvm.questa_uvm_pkg(fast)
# Loading /cadtools/mentor/Questa_10.6b/questasim/uvm-1.1d/linux_x86_64/uvm_dpi.so
# coverage save -onexit ./report/coverage/axi4_cache_prot_test_run_4_seed_11639464.ucdb
#  run -all
# ----------------------------------------------------------------
# UVM-1.1d
# (C) 2007-2013 Mentor Graphics Corporation
# (C) 2007-2013 Cadence Design Systems, Inc.
# (C) 2006-2013 Synopsys, Inc.
# (C) 2011-2013 Cypress Semiconductor Corp.
# ----------------------------------------------------------------
# 
#   ***********       IMPORTANT RELEASE NOTES         ************
# 
#   You are using a version of the UVM library that has been compiled
#   with `UVM_NO_DEPRECATED undefined.
#   See http://www.eda.org/svdb/view.php?id=3313 for more details.
# 
#   You are using a version of the UVM library that has been compiled
#   with `UVM_OBJECT_MUST_HAVE_CONSTRUCTOR undefined.
#   See http://www.eda.org/svdb/view.php?id=3770 for more details.
# 
#       (Specify +UVM_NO_RELNOTES to turn off this notice)
# 
# UVM_INFO verilog_src/questa_uvm_pkg-1.2/src/questa_uvm_pkg.sv(215) @ 0: reporter [Questa UVM] QUESTA_UVM-1.2.3
# UVM_INFO verilog_src/questa_uvm_pkg-1.2/src/questa_uvm_pkg.sv(217) @ 0: reporter [Questa UVM]  questa_uvm::init(+struct)
# UVM_INFO ../src/tb_top.sv(147) @ 0: reporter [TB_TOP] Virtual interface set in config_db
# UVM_INFO @ 0: reporter [RNTST] Running test axi4_cache_prot_test...
# UVM_INFO ../src/tb_top.sv(161) @ 0: reporter [TB_TOP] Waveform VCD dumping enabled (axi4_vip.vcd)
# UVM_INFO ../src/env/axi4_vip_env.sv(83) @ 0: uvm_test_top.env [axi4_vip_env] slave_vif not set - reusing master_vif (passthrough mode)
# UVM_INFO ../src/env/axi4_vip_env.sv(93) @ 0: uvm_test_top.env [axi4_vip_env] Scoreboard created
# UVM_INFO ../src/env/axi4_vip_env.sv(100) @ 0: uvm_test_top.env [axi4_vip_env] Coverage collectors created
# UVM_INFO ../src/mst/axi4_master_agent.sv(69) @ 0: uvm_test_top.env.master_agent [axi4_master_agent] ACTIVE mode - driver + sequencer created
# UVM_INFO ../src/slv/axi4_slave_agent.sv(82) @ 0: uvm_test_top.env.slave_agent [axi4_slave_agent] ACTIVE mode - ready_delay=[0:0] resp_delay=[0:0]
# UVM_INFO ../src/env/axi4_vip_env.sv(116) @ 0: uvm_test_top.env [axi4_vip_env] Scoreboard connected: master_mon.ap -> scb, slave_mon.ap -> scb
# UVM_INFO ../src/env/axi4_vip_env.sv(124) @ 0: uvm_test_top.env [axi4_vip_env] Coverage connected: master_mon.ap -> master_cov, slave_mon.ap -> slave_cov
# UVM_INFO @ 0: reporter [UVMTOP] UVM testbench topology:
# ---------------------------------------------------------------
# Name                       Type                     Size  Value
# ---------------------------------------------------------------
# uvm_test_top               axi4_cache_prot_test     -     @475 
#   env                      axi4_vip_env             -     @490 
#     master_agent           axi4_master_agent        -     @505 
#       drv                  axi4_master_driver       -     @569 
#         rsp_port           uvm_analysis_port        -     @584 
#         seq_item_port      uvm_seq_item_pull_port   -     @576 
#       mon                  axi4_master_monitor      -     @561 
#         ap                 uvm_analysis_port        -     @702 
#       sqr                  axi4_master_sequencer    -     @592 
#         rsp_export         uvm_analysis_export      -     @599 
#         seq_item_export    uvm_seq_item_pull_imp    -     @693 
#         arbitration_queue  array                    0     -    
#         lock_queue         array                    0     -    
#         num_last_reqs      integral                 32    'd1  
#         num_last_rsps      integral                 32    'd1  
#     master_cov             axi4_coverage            -     @526 
#       analysis_imp         uvm_analysis_imp         -     @533 
#     scb                    axi4_scoreboard          -     @519 
#       master_export        uvm_analysis_imp_master  -     @716 
#       slave_export         uvm_analysis_imp_slave   -     @724 
#     slave_agent            axi4_slave_agent         -     @512 
#       drv                  axi4_slave_driver        -     @755 
#         rsp_port           uvm_analysis_port        -     @770 
#         seq_item_port      uvm_seq_item_pull_port   -     @762 
#       mon                  axi4_slave_monitor       -     @737 
#         ap                 uvm_analysis_port        -     @894 
#       sqr                  axi4_slave_sequencer     -     @778 
#         rsp_export         uvm_analysis_export      -     @785 
#         seq_item_export    uvm_seq_item_pull_imp    -     @879 
#         arbitration_queue  array                    0     -    
#         lock_queue         array                    0     -    
#         num_last_reqs      integral                 32    'd1  
#         num_last_rsps      integral                 32    'd1  
#     slave_cov              axi4_coverage            -     @541 
#       analysis_imp         uvm_analysis_imp         -     @548 
# ---------------------------------------------------------------
# 
# UVM_INFO verilog_src/questa_uvm_pkg-1.2/src/questa_uvm_pkg.sv(277) @ 0: reporter [Questa UVM] End Of Elaboration
# UVM_INFO ../src/test/axi4_cache_prot_test.sv(24) @ 0: uvm_test_top [axi4_cache_prot_test] Starting cache and protection attributes sweep test
# UVM_INFO ../src/seq/axi4_cache_prot_seq.sv(25) @ 0: uvm_test_top.env.master_agent.sqr@@cp_seq [axi4_cache_prot_seq] Starting cache and prot attribute sweep sequence
# UVM_INFO ../src/tb_top.sv(49) @ 95000: reporter [TOP_TB] Reset de-asserted
# UVM_INFO ../src/slv/axi4_slave_driver.sv(131) @ 95000: uvm_test_top.env.slave_agent.drv [axi4_slave_driver] Reset deasserted - slave driver active
# UVM_INFO ../src/mst/axi4_master_driver.sv(64) @ 95000: uvm_test_top.env.master_agent.drv [axi4_master_driver] Reset deasserted - master driver active
# UVM_INFO ../src/mst/axi4_master_monitor.sv(77) @ 95000: uvm_test_top.env.master_agent.mon [axi4_master_monitor] Reset deasserted - monitor active
# UVM_INFO ../src/slv/axi4_slave_monitor.sv(71) @ 95000: uvm_test_top.env.slave_agent.mon [axi4_slave_monitor] Reset deasserted - monitor active
# UVM_INFO ../src/mst/axi4_master_driver.sv(73) @ 95000: uvm_test_top.env.master_agent.drv [axi4_master_driver] Driving AXI4_WRITE  ID=0x6  ADDR=0x4a0345bf  LEN=117
# UVM_INFO ../src/mst/axi4_master_driver.sv(73) @ 95000: uvm_test_top.env.master_agent.drv [axi4_master_driver] Driving AXI4_READ  ID=0x1  ADDR=0x3d7f9009  LEN=242
# UVM_INFO ../src/seq/axi4_cache_prot_seq.sv(60) @ 95000: uvm_test_top.env.master_agent.sqr@@cp_seq [axi4_cache_prot_seq] [1/16] Swept CACHE=0b0000 PROT=0b000 (Write & Read)
# UVM_INFO ../src/mst/axi4_master_driver.sv(73) @ 95000: uvm_test_top.env.master_agent.drv [axi4_master_driver] Driving AXI4_WRITE  ID=0x2  ADDR=0x8dcb8a4f  LEN=7
# UVM_INFO ../src/mst/axi4_master_driver.sv(73) @ 95000: uvm_test_top.env.master_agent.drv [axi4_master_driver] Driving AXI4_READ  ID=0xd  ADDR=0x2312b57f  LEN=247
# UVM_INFO ../src/seq/axi4_cache_prot_seq.sv(60) @ 95000: uvm_test_top.env.master_agent.sqr@@cp_seq [axi4_cache_prot_seq] [2/16] Swept CACHE=0b0001 PROT=0b001 (Write & Read)
# UVM_INFO ../src/mst/axi4_master_driver.sv(73) @ 95000: uvm_test_top.env.master_agent.drv [axi4_master_driver] Driving AXI4_WRITE  ID=0x1  ADDR=0x0ea71e23  LEN=147
# UVM_INFO ../src/mst/axi4_master_driver.sv(73) @ 95000: uvm_test_top.env.master_agent.drv [axi4_master_driver] Driving AXI4_READ  ID=0x9  ADDR=0x086a3021  LEN=136
# UVM_INFO ../src/seq/axi4_cache_prot_seq.sv(60) @ 95000: uvm_test_top.env.master_agent.sqr@@cp_seq [axi4_cache_prot_seq] [3/16] Swept CACHE=0b0010 PROT=0b010 (Write & Read)
# UVM_INFO ../src/mst/axi4_master_driver.sv(73) @ 95000: uvm_test_top.env.master_agent.drv [axi4_master_driver] Driving AXI4_WRITE  ID=0x4  ADDR=0x183b00e7  LEN=97
# UVM_INFO ../src/mst/axi4_master_driver.sv(73) @ 95000: uvm_test_top.env.master_agent.drv [axi4_master_driver] Driving AXI4_READ  ID=0x7  ADDR=0x4da4d370  LEN=72
# UVM_INFO ../src/seq/axi4_cache_prot_seq.sv(60) @ 95000: uvm_test_top.env.master_agent.sqr@@cp_seq [axi4_cache_prot_seq] [4/16] Swept CACHE=0b0011 PROT=0b011 (Write & Read)
# UVM_INFO ../src/mst/axi4_master_driver.sv(73) @ 95000: uvm_test_top.env.master_agent.drv [axi4_master_driver] Driving AXI4_WRITE  ID=0x7  ADDR=0x6a53b0ee  LEN=142
# UVM_INFO ../src/mst/axi4_master_driver.sv(73) @ 95000: uvm_test_top.env.master_agent.drv [axi4_master_driver] Driving AXI4_READ  ID=0x4  ADDR=0x8d53ab55  LEN=118
# UVM_INFO ../src/seq/axi4_cache_prot_seq.sv(60) @ 95000: uvm_test_top.env.master_agent.sqr@@cp_seq [axi4_cache_prot_seq] [5/16] Swept CACHE=0b0100 PROT=0b100 (Write & Read)
# UVM_INFO ../src/mst/axi4_master_driver.sv(73) @ 95000: uvm_test_top.env.master_agent.drv [axi4_master_driver] Driving AXI4_WRITE  ID=0x7  ADDR=0xba813ae1  LEN=189
# UVM_INFO ../src/mst/axi4_master_driver.sv(73) @ 95000: uvm_test_top.env.master_agent.drv [axi4_master_driver] Driving AXI4_READ  ID=0x7  ADDR=0x6d878beb  LEN=123
# UVM_INFO ../src/seq/axi4_cache_prot_seq.sv(60) @ 95000: uvm_test_top.env.master_agent.sqr@@cp_seq [axi4_cache_prot_seq] [6/16] Swept CACHE=0b0101 PROT=0b101 (Write & Read)
# UVM_INFO ../src/mst/axi4_master_driver.sv(73) @ 95000: uvm_test_top.env.master_agent.drv [axi4_master_driver] Driving AXI4_WRITE  ID=0xc  ADDR=0x89946842  LEN=92
# UVM_INFO ../src/mst/axi4_master_driver.sv(73) @ 95000: uvm_test_top.env.master_agent.drv [axi4_master_driver] Driving AXI4_READ  ID=0x4  ADDR=0xd0eef6f3  LEN=180
# UVM_INFO ../src/seq/axi4_cache_prot_seq.sv(60) @ 95000: uvm_test_top.env.master_agent.sqr@@cp_seq [axi4_cache_prot_seq] [7/16] Swept CACHE=0b0110 PROT=0b110 (Write & Read)
# UVM_INFO ../src/mst/axi4_master_driver.sv(73) @ 95000: uvm_test_top.env.master_agent.drv [axi4_master_driver] Driving AXI4_WRITE  ID=0x8  ADDR=0x9032b311  LEN=10
# UVM_INFO ../src/mst/axi4_master_driver.sv(73) @ 95000: uvm_test_top.env.master_agent.drv [axi4_master_driver] Driving AXI4_READ  ID=0x6  ADDR=0x81e53f56  LEN=30
# UVM_INFO ../src/seq/axi4_cache_prot_seq.sv(60) @ 95000: uvm_test_top.env.master_agent.sqr@@cp_seq [axi4_cache_prot_seq] [8/16] Swept CACHE=0b0111 PROT=0b111 (Write & Read)
# UVM_INFO ../src/mst/axi4_master_driver.sv(73) @ 95000: uvm_test_top.env.master_agent.drv [axi4_master_driver] Driving AXI4_WRITE  ID=0x2  ADDR=0xc57c80a0  LEN=221
# UVM_INFO ../src/mst/axi4_master_driver.sv(73) @ 95000: uvm_test_top.env.master_agent.drv [axi4_master_driver] Driving AXI4_READ  ID=0xd  ADDR=0xa39d46e7  LEN=188
# UVM_INFO ../src/seq/axi4_cache_prot_seq.sv(60) @ 95000: uvm_test_top.env.master_agent.sqr@@cp_seq [axi4_cache_prot_seq] [9/16] Swept CACHE=0b1000 PROT=0b000 (Write & Read)
# UVM_INFO ../src/mst/axi4_master_driver.sv(73) @ 95000: uvm_test_top.env.master_agent.drv [axi4_master_driver] Driving AXI4_WRITE  ID=0x1  ADDR=0x9390ea33  LEN=138
# UVM_INFO ../src/mst/axi4_master_driver.sv(73) @ 95000: uvm_test_top.env.master_agent.drv [axi4_master_driver] Driving AXI4_READ  ID=0x4  ADDR=0x39de0934  LEN=7
# UVM_INFO ../src/seq/axi4_cache_prot_seq.sv(60) @ 95000: uvm_test_top.env.master_agent.sqr@@cp_seq [axi4_cache_prot_seq] [10/16] Swept CACHE=0b1001 PROT=0b001 (Write & Read)
# UVM_INFO ../src/mst/axi4_master_driver.sv(73) @ 95000: uvm_test_top.env.master_agent.drv [axi4_master_driver] Driving AXI4_WRITE  ID=0xb  ADDR=0x06347861  LEN=163
# UVM_INFO ../src/mst/axi4_master_driver.sv(73) @ 95000: uvm_test_top.env.master_agent.drv [axi4_master_driver] Driving AXI4_READ  ID=0xc  ADDR=0x523fe3a7  LEN=255
# UVM_INFO ../src/seq/axi4_cache_prot_seq.sv(60) @ 95000: uvm_test_top.env.master_agent.sqr@@cp_seq [axi4_cache_prot_seq] [11/16] Swept CACHE=0b1010 PROT=0b010 (Write & Read)
# UVM_INFO ../src/mst/axi4_master_driver.sv(73) @ 95000: uvm_test_top.env.master_agent.drv [axi4_master_driver] Driving AXI4_WRITE  ID=0x9  ADDR=0x3ca23a64  LEN=218
# UVM_INFO ../src/mst/axi4_master_driver.sv(73) @ 95000: uvm_test_top.env.master_agent.drv [axi4_master_driver] Driving AXI4_READ  ID=0x2  ADDR=0x6066edcc  LEN=209
# UVM_INFO ../src/seq/axi4_cache_prot_seq.sv(60) @ 95000: uvm_test_top.env.master_agent.sqr@@cp_seq [axi4_cache_prot_seq] [12/16] Swept CACHE=0b1011 PROT=0b011 (Write & Read)
# UVM_INFO ../src/mst/axi4_master_driver.sv(73) @ 95000: uvm_test_top.env.master_agent.drv [axi4_master_driver] Driving AXI4_WRITE  ID=0x8  ADDR=0x9fbf5ce7  LEN=195
# UVM_INFO ../src/mst/axi4_master_driver.sv(73) @ 95000: uvm_test_top.env.master_agent.drv [axi4_master_driver] Driving AXI4_READ  ID=0xf  ADDR=0x915e2b7c  LEN=15
# UVM_INFO ../src/seq/axi4_cache_prot_seq.sv(60) @ 95000: uvm_test_top.env.master_agent.sqr@@cp_seq [axi4_cache_prot_seq] [13/16] Swept CACHE=0b1100 PROT=0b100 (Write & Read)
# UVM_INFO ../src/mst/axi4_master_driver.sv(73) @ 95000: uvm_test_top.env.master_agent.drv [axi4_master_driver] Driving AXI4_WRITE  ID=0xe  ADDR=0x551a2d06  LEN=14
# UVM_INFO ../src/mst/axi4_master_driver.sv(73) @ 95000: uvm_test_top.env.master_agent.drv [axi4_master_driver] Driving AXI4_READ  ID=0x3  ADDR=0x545fc146  LEN=122
# UVM_INFO ../src/seq/axi4_cache_prot_seq.sv(60) @ 95000: uvm_test_top.env.master_agent.sqr@@cp_seq [axi4_cache_prot_seq] [14/16] Swept CACHE=0b1101 PROT=0b101 (Write & Read)
# UVM_INFO ../src/mst/axi4_master_driver.sv(73) @ 95000: uvm_test_top.env.master_agent.drv [axi4_master_driver] Driving AXI4_WRITE  ID=0xd  ADDR=0x659c49c0  LEN=250
# UVM_INFO ../src/mst/axi4_master_driver.sv(73) @ 95000: uvm_test_top.env.master_agent.drv [axi4_master_driver] Driving AXI4_READ  ID=0x4  ADDR=0x81f088e7  LEN=15
# UVM_INFO ../src/seq/axi4_cache_prot_seq.sv(60) @ 95000: uvm_test_top.env.master_agent.sqr@@cp_seq [axi4_cache_prot_seq] [15/16] Swept CACHE=0b1110 PROT=0b110 (Write & Read)
# UVM_INFO ../src/mst/axi4_master_driver.sv(73) @ 95000: uvm_test_top.env.master_agent.drv [axi4_master_driver] Driving AXI4_WRITE  ID=0x7  ADDR=0x8e9943f1  LEN=49
# UVM_INFO ../src/mst/axi4_master_driver.sv(73) @ 95000: uvm_test_top.env.master_agent.drv [axi4_master_driver] Driving AXI4_READ  ID=0x6  ADDR=0x6654ec0b  LEN=30
# UVM_INFO ../src/seq/axi4_cache_prot_seq.sv(60) @ 95000: uvm_test_top.env.master_agent.sqr@@cp_seq [axi4_cache_prot_seq] [16/16] Swept CACHE=0b1111 PROT=0b111 (Write & Read)
# UVM_INFO ../src/seq/axi4_cache_prot_seq.sv(63) @ 95000: uvm_test_top.env.master_agent.sqr@@cp_seq [axi4_cache_prot_seq] Cache and prot attribute sweep sequence complete
# UVM_INFO ../src/slv/axi4_slave_driver.sv(386) @ 115000: uvm_test_top.env.slave_agent.drv [axi4_slave_driver] AR received: ID=0x1 ADDR=0x3d7f9009 LEN=242 LOCK=AXI4_LOCK_NORMAL
# UVM_INFO ../src/slv/axi4_slave_driver.sv(228) @ 115000: uvm_test_top.env.slave_agent.drv [axi4_slave_driver] AW received: ID=0x6 ADDR=0x4a0345bf LEN=117 LOCK=AXI4_LOCK_NORMAL
# UVM_INFO ../src/slv/axi4_slave_monitor.sv(224) @ 115000: uvm_test_top.env.slave_agent.mon [axi4_slave_monitor] AR received: ID=0x1 ADDR=0x3d7f9009 LEN=242
# UVM_INFO ../src/slv/axi4_slave_monitor.sv(116) @ 115000: uvm_test_top.env.slave_agent.mon [axi4_slave_monitor] AW received: ID=0x6 ADDR=0x4a0345bf LEN=117
# UVM_INFO ../src/mst/axi4_master_monitor.sv(246) @ 115000: uvm_test_top.env.master_agent.mon [axi4_master_monitor] AR observed: ID=0x1 ADDR=0x3d7f9009 LEN=242
# UVM_INFO ../src/mst/axi4_master_monitor.sv(124) @ 115000: uvm_test_top.env.master_agent.mon [axi4_master_monitor] AW observed: ID=0x6 ADDR=0x4a0345bf LEN=117
# UVM_INFO ../src/slv/axi4_slave_driver.sv(228) @ 145000: uvm_test_top.env.slave_agent.drv [axi4_slave_driver] AW received: ID=0x2 ADDR=0x8dcb8a4f LEN=7 LOCK=AXI4_LOCK_NORMAL
# UVM_INFO ../src/slv/axi4_slave_driver.sv(386) @ 145000: uvm_test_top.env.slave_agent.drv [axi4_slave_driver] AR received: ID=0xd ADDR=0x2312b57f LEN=247 LOCK=AXI4_LOCK_NORMAL
# UVM_INFO ../src/mst/axi4_master_monitor.sv(124) @ 145000: uvm_test_top.env.master_agent.mon [axi4_master_monitor] AW observed: ID=0x2 ADDR=0x8dcb8a4f LEN=7
# UVM_INFO ../src/mst/axi4_master_monitor.sv(246) @ 145000: uvm_test_top.env.master_agent.mon [axi4_master_monitor] AR observed: ID=0xd ADDR=0x2312b57f LEN=247
# UVM_INFO ../src/slv/axi4_slave_monitor.sv(116) @ 145000: uvm_test_top.env.slave_agent.mon [axi4_slave_monitor] AW received: ID=0x2 ADDR=0x8dcb8a4f LEN=7
# UVM_INFO ../src/slv/axi4_slave_monitor.sv(224) @ 145000: uvm_test_top.env.slave_agent.mon [axi4_slave_monitor] AR received: ID=0xd ADDR=0x2312b57f LEN=247
# UVM_INFO ../src/slv/axi4_slave_driver.sv(386) @ 175000: uvm_test_top.env.slave_agent.drv [axi4_slave_driver] AR received: ID=0x9 ADDR=0x086a3021 LEN=136 LOCK=AXI4_LOCK_NORMAL
# UVM_INFO ../src/slv/axi4_slave_driver.sv(228) @ 175000: uvm_test_top.env.slave_agent.drv [axi4_slave_driver] AW received: ID=0x1 ADDR=0x0ea71e23 LEN=147 LOCK=AXI4_LOCK_NORMAL
# UVM_INFO ../src/slv/axi4_slave_monitor.sv(224) @ 175000: uvm_test_top.env.slave_agent.mon [axi4_slave_monitor] AR received: ID=0x9 ADDR=0x086a3021 LEN=136
# UVM_INFO ../src/slv/axi4_slave_monitor.sv(116) @ 175000: uvm_test_top.env.slave_agent.mon [axi4_slave_monitor] AW received: ID=0x1 ADDR=0x0ea71e23 LEN=147
# UVM_INFO ../src/mst/axi4_master_monitor.sv(246) @ 175000: uvm_test_top.env.master_agent.mon [axi4_master_monitor] AR observed: ID=0x9 ADDR=0x086a3021 LEN=136
# UVM_INFO ../src/mst/axi4_master_monitor.sv(124) @ 175000: uvm_test_top.env.master_agent.mon [axi4_master_monitor] AW observed: ID=0x1 ADDR=0x0ea71e23 LEN=147
# UVM_INFO ../src/slv/axi4_slave_driver.sv(386) @ 205000: uvm_test_top.env.slave_agent.drv [axi4_slave_driver] AR received: ID=0x7 ADDR=0x4da4d370 LEN=72 LOCK=AXI4_LOCK_NORMAL
# UVM_INFO ../src/mst/axi4_master_monitor.sv(246) @ 205000: uvm_test_top.env.master_agent.mon [axi4_master_monitor] AR observed: ID=0x7 ADDR=0x4da4d370 LEN=72
# UVM_INFO ../src/slv/axi4_slave_monitor.sv(224) @ 205000: uvm_test_top.env.slave_agent.mon [axi4_slave_monitor] AR received: ID=0x7 ADDR=0x4da4d370 LEN=72
# UVM_INFO ../src/slv/axi4_slave_driver.sv(386) @ 235000: uvm_test_top.env.slave_agent.drv [axi4_slave_driver] AR received: ID=0x4 ADDR=0x8d53ab55 LEN=118 LOCK=AXI4_LOCK_NORMAL
# UVM_INFO ../src/slv/axi4_slave_monitor.sv(224) @ 235000: uvm_test_top.env.slave_agent.mon [axi4_slave_monitor] AR received: ID=0x4 ADDR=0x8d53ab55 LEN=118
# UVM_INFO ../src/mst/axi4_master_monitor.sv(246) @ 235000: uvm_test_top.env.master_agent.mon [axi4_master_monitor] AR observed: ID=0x4 ADDR=0x8d53ab55 LEN=118
# UVM_INFO ../src/slv/axi4_slave_driver.sv(386) @ 265000: uvm_test_top.env.slave_agent.drv [axi4_slave_driver] AR received: ID=0x7 ADDR=0x6d878beb LEN=123 LOCK=AXI4_LOCK_NORMAL
# UVM_INFO ../src/mst/axi4_master_monitor.sv(246) @ 265000: uvm_test_top.env.master_agent.mon [axi4_master_monitor] AR observed: ID=0x7 ADDR=0x6d878beb LEN=123
# UVM_INFO ../src/slv/axi4_slave_monitor.sv(224) @ 265000: uvm_test_top.env.slave_agent.mon [axi4_slave_monitor] AR received: ID=0x7 ADDR=0x6d878beb LEN=123
# UVM_INFO ../src/slv/axi4_slave_driver.sv(386) @ 295000: uvm_test_top.env.slave_agent.drv [axi4_slave_driver] AR received: ID=0x4 ADDR=0xd0eef6f3 LEN=180 LOCK=AXI4_LOCK_NORMAL
# UVM_INFO ../src/slv/axi4_slave_monitor.sv(224) @ 295000: uvm_test_top.env.slave_agent.mon [axi4_slave_monitor] AR received: ID=0x4 ADDR=0xd0eef6f3 LEN=180
# UVM_INFO ../src/mst/axi4_master_monitor.sv(246) @ 295000: uvm_test_top.env.master_agent.mon [axi4_master_monitor] AR observed: ID=0x4 ADDR=0xd0eef6f3 LEN=180
# UVM_INFO ../src/slv/axi4_slave_driver.sv(386) @ 325000: uvm_test_top.env.slave_agent.drv [axi4_slave_driver] AR received: ID=0x6 ADDR=0x81e53f56 LEN=30 LOCK=AXI4_LOCK_NORMAL
# UVM_INFO ../src/mst/axi4_master_monitor.sv(246) @ 325000: uvm_test_top.env.master_agent.mon [axi4_master_monitor] AR observed: ID=0x6 ADDR=0x81e53f56 LEN=30
# UVM_INFO ../src/slv/axi4_slave_monitor.sv(224) @ 325000: uvm_test_top.env.slave_agent.mon [axi4_slave_monitor] AR received: ID=0x6 ADDR=0x81e53f56 LEN=30
# UVM_INFO ../src/slv/axi4_slave_driver.sv(386) @ 355000: uvm_test_top.env.slave_agent.drv [axi4_slave_driver] AR received: ID=0xd ADDR=0xa39d46e7 LEN=188 LOCK=AXI4_LOCK_NORMAL
# UVM_INFO ../src/slv/axi4_slave_monitor.sv(224) @ 355000: uvm_test_top.env.slave_agent.mon [axi4_slave_monitor] AR received: ID=0xd ADDR=0xa39d46e7 LEN=188
# UVM_INFO ../src/mst/axi4_master_monitor.sv(246) @ 355000: uvm_test_top.env.master_agent.mon [axi4_master_monitor] AR observed: ID=0xd ADDR=0xa39d46e7 LEN=188
# UVM_INFO ../src/slv/axi4_slave_driver.sv(386) @ 385000: uvm_test_top.env.slave_agent.drv [axi4_slave_driver] AR received: ID=0x4 ADDR=0x39de0934 LEN=7 LOCK=AXI4_LOCK_NORMAL
# UVM_INFO ../src/mst/axi4_master_monitor.sv(246) @ 385000: uvm_test_top.env.master_agent.mon [axi4_master_monitor] AR observed: ID=0x4 ADDR=0x39de0934 LEN=7
# UVM_INFO ../src/slv/axi4_slave_monitor.sv(224) @ 385000: uvm_test_top.env.slave_agent.mon [axi4_slave_monitor] AR received: ID=0x4 ADDR=0x39de0934 LEN=7
# UVM_INFO ../src/slv/axi4_slave_driver.sv(386) @ 415000: uvm_test_top.env.slave_agent.drv [axi4_slave_driver] AR received: ID=0xc ADDR=0x523fe3a7 LEN=255 LOCK=AXI4_LOCK_NORMAL
# UVM_INFO ../src/slv/axi4_slave_monitor.sv(224) @ 415000: uvm_test_top.env.slave_agent.mon [axi4_slave_monitor] AR received: ID=0xc ADDR=0x523fe3a7 LEN=255
# UVM_INFO ../src/mst/axi4_master_monitor.sv(246) @ 415000: uvm_test_top.env.master_agent.mon [axi4_master_monitor] AR observed: ID=0xc ADDR=0x523fe3a7 LEN=255
# UVM_INFO ../src/slv/axi4_slave_driver.sv(386) @ 445000: uvm_test_top.env.slave_agent.drv [axi4_slave_driver] AR received: ID=0x2 ADDR=0x6066edcc LEN=209 LOCK=AXI4_LOCK_NORMAL
# UVM_INFO ../src/mst/axi4_master_monitor.sv(246) @ 445000: uvm_test_top.env.master_agent.mon [axi4_master_monitor] AR observed: ID=0x2 ADDR=0x6066edcc LEN=209
# UVM_INFO ../src/slv/axi4_slave_monitor.sv(224) @ 445000: uvm_test_top.env.slave_agent.mon [axi4_slave_monitor] AR received: ID=0x2 ADDR=0x6066edcc LEN=209
# UVM_INFO ../src/slv/axi4_slave_driver.sv(386) @ 475000: uvm_test_top.env.slave_agent.drv [axi4_slave_driver] AR received: ID=0xf ADDR=0x915e2b7c LEN=15 LOCK=AXI4_LOCK_NORMAL
# UVM_INFO ../src/slv/axi4_slave_monitor.sv(224) @ 475000: uvm_test_top.env.slave_agent.mon [axi4_slave_monitor] AR received: ID=0xf ADDR=0x915e2b7c LEN=15
# UVM_INFO ../src/mst/axi4_master_monitor.sv(246) @ 475000: uvm_test_top.env.master_agent.mon [axi4_master_monitor] AR observed: ID=0xf ADDR=0x915e2b7c LEN=15
# UVM_INFO ../src/slv/axi4_slave_driver.sv(386) @ 505000: uvm_test_top.env.slave_agent.drv [axi4_slave_driver] AR received: ID=0x3 ADDR=0x545fc146 LEN=122 LOCK=AXI4_LOCK_NORMAL
# UVM_INFO ../src/mst/axi4_master_monitor.sv(246) @ 505000: uvm_test_top.env.master_agent.mon [axi4_master_monitor] AR observed: ID=0x3 ADDR=0x545fc146 LEN=122
# UVM_INFO ../src/slv/axi4_slave_monitor.sv(224) @ 505000: uvm_test_top.env.slave_agent.mon [axi4_slave_monitor] AR received: ID=0x3 ADDR=0x545fc146 LEN=122
# UVM_INFO ../src/slv/axi4_slave_driver.sv(386) @ 535000: uvm_test_top.env.slave_agent.drv [axi4_slave_driver] AR received: ID=0x4 ADDR=0x81f088e7 LEN=15 LOCK=AXI4_LOCK_NORMAL
# UVM_INFO ../src/slv/axi4_slave_monitor.sv(224) @ 535000: uvm_test_top.env.slave_agent.mon [axi4_slave_monitor] AR received: ID=0x4 ADDR=0x81f088e7 LEN=15
# UVM_INFO ../src/mst/axi4_master_monitor.sv(246) @ 535000: uvm_test_top.env.master_agent.mon [axi4_master_monitor] AR observed: ID=0x4 ADDR=0x81f088e7 LEN=15
# UVM_INFO ../src/slv/axi4_slave_driver.sv(386) @ 565000: uvm_test_top.env.slave_agent.drv [axi4_slave_driver] AR received: ID=0x6 ADDR=0x6654ec0b LEN=30 LOCK=AXI4_LOCK_NORMAL
# UVM_INFO ../src/mst/axi4_master_monitor.sv(246) @ 565000: uvm_test_top.env.master_agent.mon [axi4_master_monitor] AR observed: ID=0x6 ADDR=0x6654ec0b LEN=30
# UVM_INFO ../src/slv/axi4_slave_monitor.sv(224) @ 565000: uvm_test_top.env.slave_agent.mon [axi4_slave_monitor] AR received: ID=0x6 ADDR=0x6654ec0b LEN=30
# UVM_INFO ../src/test/axi4_cache_prot_test.sv(32) @ 1095000: uvm_test_top [axi4_cache_prot_test] Cache and protection sweep test complete
# UVM_INFO ../src/slv/axi4_slave_monitor.sv(167) @ 2475000: uvm_test_top.env.slave_agent.mon [axi4_slave_monitor] W data assembled: ID=0x6 ADDR=0x4a0345bf 118 beats
# UVM_INFO ../src/mst/axi4_master_monitor.sv(184) @ 2475000: uvm_test_top.env.master_agent.mon [axi4_master_monitor] W data assembled: ID=0x6 ADDR=0x4a0345bf 118 beats
# UVM_INFO ../src/mst/axi4_master_driver.sv(289) @ 2505000: uvm_test_top.env.master_agent.drv [axi4_master_driver] Master driver received B response: ID=0x6 RESP=AXI4_RESP_OKAY
# UVM_INFO ../src/slv/axi4_slave_driver.sv(348) @ 2505000: uvm_test_top.env.slave_agent.drv [axi4_slave_driver] Write complete: ID=0x6 RESP=AXI4_RESP_OKAY
# UVM_INFO ../src/mst/axi4_master_monitor.sv(210) @ 2505000: uvm_test_top.env.master_agent.mon [axi4_master_monitor] Write complete: ID=0x6 ADDR=0x4a0345bf RESP=AXI4_RESP_OKAY
# UVM_INFO ../src/env/axi4_scoreboard.sv(87) @ 2505000: uvm_test_top.env.scb [axi4_scoreboard] Master AXI4_WRITE received: ID=0x6 ADDR=0x4a0345bf LEN=117
# UVM_INFO ../src/slv/axi4_slave_monitor.sv(189) @ 2505000: uvm_test_top.env.slave_agent.mon [axi4_slave_monitor] Write response sent: ID=0x6 ADDR=0x4a0345bf RESP=AXI4_RESP_OKAY
# UVM_INFO ../src/env/axi4_scoreboard.sv(108) @ 2505000: uvm_test_top.env.scb [axi4_scoreboard] Slave AXI4_WRITE received: ID=0x6 ADDR=0x4a0345bf LEN=117
# UVM_INFO ../src/env/axi4_scoreboard.sv(291) @ 2505000: uvm_test_top.env.scb [axi4_scoreboard] [WRITE] MATCH #1: ID=0x6 ADDR=0x4a0345bf LEN=117
# UVM_INFO ../src/env/axi4_scoreboard.sv(219) @ 2505000: uvm_test_top.env.scb [axi4_scoreboard] [REF_MEM_WRITE] Addr=0x4a0345bc Data=0xeb
# UVM_INFO ../src/env/axi4_scoreboard.sv(219) @ 2505000: uvm_test_top.env.scb [axi4_scoreboard] [REF_MEM_WRITE] Addr=0x4a0345bd Data=0x5a
# UVM_INFO ../src/env/axi4_scoreboard.sv(219) @ 2505000: uvm_test_top.env.scb [axi4_scoreboard] [REF_MEM_WRITE] Addr=0x4a0345be Data=0x64
# UVM_INFO ../src/env/axi4_scoreboard.sv(219) @ 2505000: uvm_test_top.env.scb [axi4_scoreboard] [REF_MEM_WRITE] Addr=0x4a0345bf Data=0xf5
# UVM_INFO ../src/env/axi4_scoreboard.sv(219) @ 2505000: uvm_test_top.env.scb [axi4_scoreboard] [REF_MEM_WRITE] Addr=0x4a0345c1 Data=0x0a
# UVM_INFO ../src/env/axi4_scoreboard.sv(219) @ 2505000: uvm_test_top.env.scb [axi4_scoreboard] [REF_MEM_WRITE] Addr=0x4a0345c0 Data=0x0c
# UVM_INFO ../src/env/axi4_scoreboard.sv(219) @ 2505000: uvm_test_top.env.scb [axi4_scoreboard] [REF_MEM_WRITE] Addr=0x4a0345c4 Data=0xb1
# UVM_INFO ../src/env/axi4_scoreboard.sv(219) @ 2505000: uvm_test_top.env.scb [axi4_scoreboard] [REF_MEM_WRITE] Addr=0x4a0345c5 Data=0xc1
# UVM_INFO ../src/env/axi4_scoreboard.sv(219) @ 2505000: uvm_test_top.env.scb [axi4_scoreboard] [REF_MEM_WRITE] Addr=0x4a0345c7 Data=0xfc
# UVM_INFO ../src/env/axi4_scoreboard.sv(219) @ 2505000: uvm_test_top.env.scb [axi4_scoreboard] [REF_MEM_WRITE] Addr=0x4a0345c5 Data=0xa1
# UVM_INFO ../src/env/axi4_scoreboard.sv(219) @ 2505000: uvm_test_top.env.scb [axi4_scoreboard] [REF_MEM_WRITE] Addr=0x4a0345c6 Data=0x17
# UVM_INFO ../src/env/axi4_scoreboard.sv(219) @ 2505000: uvm_test_top.env.scb [axi4_scoreboard] [REF_MEM_WRITE] Addr=0x4a0345c7 Data=0xf4
# UVM_INFO ../src/env/axi4_scoreboard.sv(219) @ 2505000: uvm_test_top.env.scb [axi4_scoreboard] [REF_MEM_WRITE] Addr=0x4a0345c9 Data=0x2b
# UVM_INFO ../src/env/axi4_scoreboard.sv(219) @ 2505000: uvm_test_top.env.scb [axi4_scoreboard] [REF_MEM_WRITE] Addr=0x4a0345ca Data=0x1b
# UVM_INFO ../src/env/axi4_scoreboard.sv(219) @ 2505000: uvm_test_top.env.scb [axi4_scoreboard] [REF_MEM_WRITE] Addr=0x4a0345cb Data=0x56
# UVM_INFO ../src/env/axi4_scoreboard.sv(219) @ 2505000: uvm_test_top.env.scb [axi4_scoreboard] [REF_MEM_WRITE] Addr=0x4a0345c8 Data=0x42
# UVM_INFO ../src/env/axi4_scoreboard.sv(219) @ 2505000: uvm_test_top.env.scb [axi4_scoreboard] [REF_MEM_WRITE] Addr=0x4a0345c9 Data=0xc0
# UVM_INFO ../src/env/axi4_scoreboard.sv(219) @ 2505000: uvm_test_top.env.scb [axi4_scoreboard] [REF_MEM_WRITE] Addr=0x4a0345ca Data=0x51
# UVM_INFO ../src/env/axi4_scoreboard.sv(219) @ 2505000: uvm_test_top.env.scb [axi4_scoreboard] [REF_MEM_WRITE] Addr=0x4a0345cb Data=0xbc
# UVM_INFO ../src/env/axi4_scoreboard.sv(219) @ 2505000: uvm_test_top.env.scb [axi4_scoreboard] [REF_MEM_WRITE] Addr=0x4a0345cf Data=0x0b
# UVM_INFO ../src/env/axi4_scoreboard.sv(219) @ 2505000: uvm_test_top.env.scb [axi4_scoreboard] [REF_MEM_WRITE] Addr=0x4a0345cc Data=0xa8
# UVM_INFO ../src/env/axi4_scoreboard.sv(219) @ 2505000: uvm_test_top.env.scb [axi4_scoreboard] [REF_MEM_WRITE] Addr=0x4a0345ce Data=0x24
# UVM_INFO ../src/env/axi4_scoreboard.sv(219) @ 2505000: uvm_test_top.env.scb [axi4_scoreboard] [REF_MEM_WRITE] Addr=0x4a0345d0 Data=0x34
# UVM_INFO ../src/env/axi4_scoreboard.sv(219) @ 2505000: uvm_test_top.env.scb [axi4_scoreboard] [REF_MEM_WRITE] Addr=0x4a0345d2 Data=0x23
# UVM_INFO ../src/env/axi4_scoreboard.sv(219) @ 2505000: uvm_test_top.env.scb [axi4_scoreboard] [REF_MEM_WRITE] Addr=0x4a0345d3 Data=0xfb
# UVM_INFO ../src/env/axi4_scoreboard.sv(219) @ 2505000: uvm_test_top.env.scb [axi4_scoreboard] [REF_MEM_WRITE] Addr=0x4a0345d0 Data=0xb2
# UVM_INFO ../src/env/axi4_scoreboard.sv(219) @ 2505000: uvm_test_top.env.scb [axi4_scoreboard] [REF_MEM_WRITE] Addr=0x4a0345d3 Data=0x98
# UVM_INFO ../src/env/axi4_scoreboard.sv(219) @ 2505000: uvm_test_top.env.scb [axi4_scoreboard] [REF_MEM_WRITE] Addr=0x4a0345d5 Data=0x21
# UVM_INFO ../src/env/axi4_scoreboard.sv(219) @ 2505000: uvm_test_top.env.scb [axi4_scoreboard] [REF_MEM_WRITE] Addr=0x4a0345d6 Data=0x0a
# UVM_INFO ../src/env/axi4_scoreboard.sv(219) @ 2505000: uvm_test_top.env.scb [axi4_scoreboard] [REF_MEM_WRITE] Addr=0x4a0345d6 Data=0xb2
# UVM_INFO ../src/env/axi4_scoreboard.sv(219) @ 2505000: uvm_test_top.env.scb [axi4_scoreboard] [REF_MEM_WRITE] Addr=0x4a0345d8 Data=0xc9
# UVM_INFO ../src/env/axi4_scoreboard.sv(219) @ 2505000: uvm_test_top.env.scb [axi4_scoreboard] [REF_MEM_WRITE] Addr=0x4a0345d9 Data=0x33
# UVM_INFO ../src/env/axi4_scoreboard.sv(219) @ 2505000: uvm_test_top.env.scb [axi4_scoreboard] [REF_MEM_WRITE] Addr=0x4a0345da Data=0xbb
# UVM_INFO ../src/env/axi4_scoreboard.sv(219) @ 2505000: uvm_test_top.env.scb [axi4_scoreboard] [REF_MEM_WRITE] Addr=0x4a0345db Data=0x59
# UVM_INFO ../src/env/axi4_scoreboard.sv(219) @ 2505000: uvm_test_top.env.scb [axi4_scoreboard] [REF_MEM_WRITE] Addr=0x4a0345dc Data=0xc5
# UVM_INFO ../src/env/axi4_scoreboard.sv(219) @ 2505000: uvm_test_top.env.scb [axi4_scoreboard] [REF_MEM_WRITE] Addr=0x4a0345dd Data=0xf3
# UVM_INFO ../src/env/axi4_scoreboard.sv(219) @ 2505000: uvm_test_top.env.scb [axi4_scoreboard] [REF_MEM_WRITE] Addr=0x4a0345de Data=0xe5
# UVM_INFO ../src/env/axi4_scoreboard.sv(219) @ 2505000: uvm_test_top.env.scb [axi4_scoreboard] [REF_MEM_WRITE] Addr=0x4a0345dd Data=0xcf
# UVM_INFO ../src/env/axi4_scoreboard.sv(219) @ 2505000: uvm_test_top.env.scb [axi4_scoreboard] [REF_MEM_WRITE] Addr=0x4a0345e1 Data=0x48
# UVM_INFO ../src/env/axi4_scoreboard.sv(219) @ 2505000: uvm_test_top.env.scb [axi4_scoreboard] [REF_MEM_WRITE] Addr=0x4a0345e3 Data=0xfa
# UVM_INFO ../src/env/axi4_scoreboard.sv(219) @ 2505000: uvm_test_top.env.scb [axi4_scoreboard] [REF_MEM_WRITE] Addr=0x4a0345e0 Data=0xb3
# UVM_INFO ../src/env/axi4_scoreboard.sv(219) @ 2505000: uvm_test_top.env.scb [axi4_scoreboard] [REF_MEM_WRITE] Addr=0x4a0345e1 Data=0x18
# UVM_INFO ../src/env/axi4_scoreboard.sv(219) @ 2505000: uvm_test_top.env.scb [axi4_scoreboard] [REF_MEM_WRITE] Addr=0x4a0345e2 Data=0xcb
# UVM_INFO ../src/env/axi4_scoreboard.sv(219) @ 2505000: uvm_test_top.env.scb [axi4_scoreboard] [REF_MEM_WRITE] Addr=0x4a0345e3 Data=0xe5
# UVM_INFO ../src/env/axi4_scoreboard.sv(219) @ 2505000: uvm_test_top.env.scb [axi4_scoreboard] [REF_MEM_WRITE] Addr=0x4a0345e4 Data=0x21
# UVM_INFO ../src/env/axi4_scoreboard.sv(219) @ 2505000: uvm_test_top.env.scb [axi4_scoreboard] [REF_MEM_WRITE] Addr=0x4a0345e7 Data=0x8e
# UVM_INFO ../src/env/axi4_scoreboard.sv(219) @ 2505000: uvm_test_top.env.scb [axi4_scoreboard] [REF_MEM_WRITE] Addr=0x4a0345e6 Data=0xa4
# UVM_INFO ../src/env/axi4_scoreboard.sv(219) @ 2505000: uvm_test_top.env.scb [axi4_scoreboard] [REF_MEM_WRITE] Addr=0x4a0345e8 Data=0xe8
# UVM_INFO ../src/env/axi4_scoreboard.sv(219) @ 2505000: uvm_test_top.env.scb [axi4_scoreboard] [REF_MEM_WRITE] Addr=0x4a0345ea Data=0x38
# UVM_INFO ../src/env/axi4_scoreboard.sv(219) @ 2505000: uvm_test_top.env.scb [axi4_scoreboard] [REF_MEM_WRITE] Addr=0x4a0345eb Data=0x93
# UVM_INFO ../src/env/axi4_scoreboard.sv(219) @ 2505000: uvm_test_top.env.scb [axi4_scoreboard] [REF_MEM_WRITE] Addr=0x4a0345ea Data=0x63
# UVM_INFO ../src/env/axi4_scoreboard.sv(219) @ 2505000: uvm_test_top.env.scb [axi4_scoreboard] [REF_MEM_WRITE] Addr=0x4a0345eb Data=0x28
# UVM_INFO ../src/env/axi4_scoreboard.sv(219) @ 2505000: uvm_test_top.env.scb [axi4_scoreboard] [REF_MEM_WRITE] Addr=0x4a0345ed Data=0xef
# UVM_INFO ../src/env/axi4_scoreboard.sv(219) @ 2505000: uvm_test_top.env.scb [axi4_scoreboard] [REF_MEM_WRITE] Addr=0x4a0345ef Data=0x84
# UVM_INFO ../src/env/axi4_scoreboard.sv(219) @ 2505000: uvm_test_top.env.scb [axi4_scoreboard] [REF_MEM_WRITE] Addr=0x4a0345ee Data=0x3e
# UVM_INFO ../src/env/axi4_scoreboard.sv(219) @ 2505000: uvm_test_top.env.scb [axi4_scoreboard] [REF_MEM_WRITE] Addr=0x4a0345ef Data=0x94
# UVM_INFO ../src/env/axi4_scoreboard.sv(219) @ 2505000: uvm_test_top.env.scb [axi4_scoreboard] [REF_MEM_WRITE] Addr=0x4a0345f1 Data=0x44
# UVM_INFO ../src/env/axi4_scoreboard.sv(219) @ 2505000: uvm_test_top.env.scb [axi4_scoreboard] [REF_MEM_WRITE] Addr=0x4a0345f3 Data=0x59
# UVM_INFO ../src/env/axi4_scoreboard.sv(219) @ 2505000: uvm_test_top.env.scb [axi4_scoreboard] [REF_MEM_WRITE] Addr=0x4a0345f2 Data=0xc8
# UVM_INFO ../src/env/axi4_scoreboard.sv(219) @ 2505000: uvm_test_top.env.scb [axi4_scoreboard] [REF_MEM_WRITE] Addr=0x4a0345f3 Data=0x61
# UVM_INFO ../src/env/axi4_scoreboard.sv(219) @ 2505000: uvm_test_top.env.scb [axi4_scoreboard] [REF_MEM_WRITE] Addr=0x4a0345f4 Data=0x5f
# UVM_INFO ../src/env/axi4_scoreboard.sv(219) @ 2505000: uvm_test_top.env.scb [axi4_scoreboard] [REF_MEM_WRITE] Addr=0x4a0345f4 Data=0xa4
# UVM_INFO ../src/env/axi4_scoreboard.sv(219) @ 2505000: uvm_test_top.env.scb [axi4_scoreboard] [REF_MEM_WRITE] Addr=0x4a0345f5 Data=0xe6
# UVM_INFO ../src/env/axi4_scoreboard.sv(219) @ 2505000: uvm_test_top.env.scb [axi4_scoreboard] [REF_MEM_WRITE] Addr=0x4a0345f6 Data=0xf8
# UVM_INFO ../src/env/axi4_scoreboard.sv(219) @ 2505000: uvm_test_top.env.scb [axi4_scoreboard] [REF_MEM_WRITE] Addr=0x4a0345f8 Data=0xec
# UVM_INFO ../src/env/axi4_scoreboard.sv(219) @ 2505000: uvm_test_top.env.scb [axi4_scoreboard] [REF_MEM_WRITE] Addr=0x4a0345f9 Data=0xeb
# UVM_INFO ../src/env/axi4_scoreboard.sv(219) @ 2505000: uvm_test_top.env.scb [axi4_scoreboard] [REF_MEM_WRITE] Addr=0x4a0345fa Data=0xc1
# UVM_INFO ../src/env/axi4_scoreboard.sv(219) @ 2505000: uvm_test_top.env.scb [axi4_scoreboard] [REF_MEM_WRITE] Addr=0x4a0345f9 Data=0xf5
# UVM_INFO ../src/env/axi4_scoreboard.sv(219) @ 2505000: uvm_test_top.env.scb [axi4_scoreboard] [REF_MEM_WRITE] Addr=0x4a0345fb Data=0x79
# UVM_INFO ../src/env/axi4_scoreboard.sv(219) @ 2505000: uvm_test_top.env.scb [axi4_scoreboard] [REF_MEM_WRITE] Addr=0x4a0345fc Data=0x11
# UVM_INFO ../src/env/axi4_scoreboard.sv(219) @ 2505000: uvm_test_top.env.scb [axi4_scoreboard] [REF_MEM_WRITE] Addr=0x4a0345fe Data=0x1b
# UVM_INFO ../src/env/axi4_scoreboard.sv(219) @ 2505000: uvm_test_top.env.scb [axi4_scoreboard] [REF_MEM_WRITE] Addr=0x4a0345ff Data=0xad
# UVM_INFO ../src/env/axi4_scoreboard.sv(219) @ 2505000: uvm_test_top.env.scb [axi4_scoreboard] [REF_MEM_WRITE] Addr=0x4a0345fc Data=0x1e
# UVM_INFO ../src/env/axi4_scoreboard.sv(219) @ 2505000: uvm_test_top.env.scb [axi4_scoreboard] [REF_MEM_WRITE] Addr=0x4a0345fd Data=0x86
# UVM_INFO ../src/env/axi4_scoreboard.sv(219) @ 2505000: uvm_test_top.env.scb [axi4_scoreboard] [REF_MEM_WRITE] Addr=0x4a034600 Data=0x6d
# UVM_INFO ../src/env/axi4_scoreboard.sv(219) @ 2505000: uvm_test_top.env.scb [axi4_scoreboard] [REF_MEM_WRITE] Addr=0x4a034603 Data=0xf7
# UVM_INFO ../src/env/axi4_scoreboard.sv(219) @ 2505000: uvm_test_top.env.scb [axi4_scoreboard] [REF_MEM_WRITE] Addr=0x4a034601 Data=0xfe
# UVM_INFO ../src/env/axi4_scoreboard.sv(219) @ 2505000: uvm_test_top.env.scb [axi4_scoreboard] [REF_MEM_WRITE] Addr=0x4a034603 Data=0x1e
# UVM_INFO ../src/env/axi4_scoreboard.sv(219) @ 2505000: uvm_test_top.env.scb [axi4_scoreboard] [REF_MEM_WRITE] Addr=0x4a034606 Data=0xf9
# UVM_INFO ../src/env/axi4_scoreboard.sv(219) @ 2505000: uvm_test_top.env.scb [axi4_scoreboard] [REF_MEM_WRITE] Addr=0x4a034607 Data=0x29
# UVM_INFO ../src/env/axi4_scoreboard.sv(219) @ 2505000: uvm_test_top.env.scb [axi4_scoreboard] [REF_MEM_WRITE] Addr=0x4a034606 Data=0x24
# UVM_INFO ../src/env/axi4_scoreboard.sv(219) @ 2505000: uvm_test_top.env.scb [axi4_scoreboard] [REF_MEM_WRITE] Addr=0x4a034607 Data=0xbd
# UVM_INFO ../src/env/axi4_scoreboard.sv(219) @ 2505000: uvm_test_top.env.scb [axi4_scoreboard] [REF_MEM_WRITE] Addr=0x4a03460b Data=0x15
# UVM_INFO ../src/env/axi4_scoreboard.sv(219) @ 2505000: uvm_test_top.env.scb [axi4_scoreboard] [REF_MEM_WRITE] Addr=0x4a034608 Data=0x84
# UVM_INFO ../src/env/axi4_scoreboard.sv(219) @ 2505000: uvm_test_top.env.scb [axi4_scoreboard] [REF_MEM_WRITE] Addr=0x4a034609 Data=0x6d
# UVM_INFO ../src/env/axi4_scoreboard.sv(219) @ 2505000: uvm_test_top.env.scb [axi4_scoreboard] [REF_MEM_WRITE] Addr=0x4a03460c Data=0xf7
# UVM_INFO ../src/env/axi4_scoreboard.sv(219) @ 2505000: uvm_test_top.env.scb [axi4_scoreboard] [REF_MEM_WRITE] Addr=0x4a03460e Data=0x21
# UVM_INFO ../src/env/axi4_scoreboard.sv(219) @ 2505000: uvm_test_top.env.scb [axi4_scoreboard] [REF_MEM_WRITE] Addr=0x4a03460f Data=0xc7
# UVM_INFO ../src/env/axi4_scoreboard.sv(219) @ 2505000: uvm_test_top.env.scb [axi4_scoreboard] [REF_MEM_WRITE] Addr=0x4a034610 Data=0xeb
# UVM_INFO ../src/env/axi4_scoreboard.sv(219) @ 2505000: uvm_test_top.env.scb [axi4_scoreboard] [REF_MEM_WRITE] Addr=0x4a034612 Data=0xdc
# UVM_INFO ../src/env/axi4_scoreboard.sv(219) @ 2505000: uvm_test_top.env.scb [axi4_scoreboard] [REF_MEM_WRITE] Addr=0x4a034615 Data=0x31
# UVM_INFO ../src/env/axi4_scoreboard.sv(219) @ 2505000: uvm_test_top.env.scb [axi4_scoreboard] [REF_MEM_WRITE] Addr=0x4a034616 Data=0x9d
# UVM_INFO ../src/env/axi4_scoreboard.sv(219) @ 2505000: uvm_test_top.env.scb [axi4_scoreboard] [REF_MEM_WRITE] Addr=0x4a034617 Data=0x93
# UVM_INFO ../src/env/axi4_scoreboard.sv(219) @ 2505000: uvm_test_top.env.scb [axi4_scoreboard] [REF_MEM_WRITE] Addr=0x4a034616 Data=0x4f
# UVM_INFO ../src/env/axi4_scoreboard.sv(219) @ 2505000: uvm_test_top.env.scb [axi4_scoreboard] [REF_MEM_WRITE] Addr=0x4a034617 Data=0xaf
# UVM_INFO ../src/env/axi4_scoreboard.sv(219) @ 2505000: uvm_test_top.env.scb [axi4_scoreboard] [REF_MEM_WRITE] Addr=0x4a034618 Data=0xee
# UVM_INFO ../src/env/axi4_scoreboard.sv(219) @ 2505000: uvm_test_top.env.scb [axi4_scoreboard] [REF_MEM_WRITE] Addr=0x4a034619 Data=0xf5
# UVM_INFO ../src/env/axi4_scoreboard.sv(219) @ 2505000: uvm_test_top.env.scb [axi4_scoreboard] [REF_MEM_WRITE] Addr=0x4a034618 Data=0x51
# UVM_INFO ../src/env/axi4_scoreboard.sv(219) @ 2505000: uvm_test_top.env.scb [axi4_scoreboard] [REF_MEM_WRITE] Addr=0x4a034619 Data=0x53
# UVM_INFO ../src/env/axi4_scoreboard.sv(219) @ 2505000: uvm_test_top.env.scb [axi4_scoreboard] [REF_MEM_WRITE] Addr=0x4a03461b Data=0x63
# UVM_INFO ../src/env/axi4_scoreboard.sv(219) @ 2505000: uvm_test_top.env.scb [axi4_scoreboard] [REF_MEM_WRITE] Addr=0x4a03461d Data=0x00
# UVM_INFO ../src/env/axi4_scoreboard.sv(219) @ 2505000: uvm_test_top.env.scb [axi4_scoreboard] [REF_MEM_WRITE] Addr=0x4a03461e Data=0x2b
# UVM_INFO ../src/env/axi4_scoreboard.sv(219) @ 2505000: uvm_test_top.env.scb [axi4_scoreboard] [REF_MEM_WRITE] Addr=0x4a03461f Data=0xb4
# UVM_INFO ../src/env/axi4_scoreboard.sv(219) @ 2505000: uvm_test_top.env.scb [axi4_scoreboard] [REF_MEM_WRITE] Addr=0x4a03461d Data=0x08
# UVM_INFO ../src/env/axi4_scoreboard.sv(219) @ 2505000: uvm_test_top.env.scb [axi4_scoreboard] [REF_MEM_WRITE] Addr=0x4a03461f Data=0x58
# UVM_INFO ../src/env/axi4_scoreboard.sv(219) @ 2505000: uvm_test_top.env.scb [axi4_scoreboard] [REF_MEM_WRITE] Addr=0x4a034622 Data=0x37
# UVM_INFO ../src/env/axi4_scoreboard.sv(219) @ 2505000: uvm_test_top.env.scb [axi4_scoreboard] [REF_MEM_WRITE] Addr=0x4a034623 Data=0xec
# UVM_INFO ../src/env/axi4_scoreboard.sv(219) @ 2505000: uvm_test_top.env.scb [axi4_scoreboard] [REF_MEM_WRITE] Addr=0x4a034620 Data=0xd5
# UVM_INFO ../src/env/axi4_scoreboard.sv(219) @ 2505000: uvm_test_top.env.scb [axi4_scoreboard] [REF_MEM_WRITE] Addr=0x4a034622 Data=0x16
# UVM_INFO ../src/env/axi4_scoreboard.sv(219) @ 2505000: uvm_test_top.env.scb [axi4_scoreboard] [REF_MEM_WRITE] Addr=0x4a034623 Data=0xfb
# UVM_INFO ../src/env/axi4_scoreboard.sv(219) @ 2505000: uvm_test_top.env.scb [axi4_scoreboard] [REF_MEM_WRITE] Addr=0x4a034625 Data=0x9c
# UVM_INFO ../src/env/axi4_scoreboard.sv(219) @ 2505000: uvm_test_top.env.scb [axi4_scoreboard] [REF_MEM_WRITE] Addr=0x4a034627 Data=0x4d
# UVM_INFO ../src/env/axi4_scoreboard.sv(219) @ 2505000: uvm_test_top.env.scb [axi4_scoreboard] [REF_MEM_WRITE] Addr=0x4a034628 Data=0x21
# UVM_INFO ../src/env/axi4_scoreboard.sv(219) @ 2505000: uvm_test_top.env.scb [axi4_scoreboard] [REF_MEM_WRITE] Addr=0x4a03462a Data=0x26
# UVM_INFO ../src/env/axi4_scoreboard.sv(219) @ 2505000: uvm_test_top.env.scb [axi4_scoreboard] [REF_MEM_WRITE] Addr=0x4a03462a Data=0xfd
# UVM_INFO ../src/env/axi4_scoreboard.sv(219) @ 2505000: uvm_test_top.env.scb [axi4_scoreboard] [REF_MEM_WRITE] Addr=0x4a03462c Data=0x13
# UVM_INFO ../src/env/axi4_scoreboard.sv(219) @ 2505000: uvm_test_top.env.scb [axi4_scoreboard] [REF_MEM_WRITE] Addr=0x4a03462d Data=0x0d
# UVM_INFO ../src/env/axi4_scoreboard.sv(219) @ 2505000: uvm_test_top.env.scb [axi4_scoreboard] [REF_MEM_WRITE] Addr=0x4a03462e Data=0x7a
# UVM_INFO ../src/env/axi4_scoreboard.sv(219) @ 2505000: uvm_test_top.env.scb [axi4_scoreboard] [REF_MEM_WRITE] Addr=0x4a03462c Data=0xe3
# UVM_INFO ../src/env/axi4_scoreboard.sv(219) @ 2505000: uvm_test_top.env.scb [axi4_scoreboard] [REF_MEM_WRITE] Addr=0x4a03462d Data=0x1d
# UVM_INFO ../src/env/axi4_scoreboard.sv(219) @ 2505000: uvm_test_top.env.scb [axi4_scoreboard] [REF_MEM_WRITE] Addr=0x4a03462e Data=0x80
# UVM_INFO ../src/env/axi4_scoreboard.sv(219) @ 2505000: uvm_test_top.env.scb [axi4_scoreboard] [REF_MEM_WRITE] Addr=0x4a034631 Data=0xf3
# UVM_INFO ../src/env/axi4_scoreboard.sv(219) @ 2505000: uvm_test_top.env.scb [axi4_scoreboard] [REF_MEM_WRITE] Addr=0x4a034630 Data=0x17
# UVM_INFO ../src/env/axi4_scoreboard.sv(219) @ 2505000: uvm_test_top.env.scb [axi4_scoreboard] [REF_MEM_WRITE] Addr=0x4a034631 Data=0x77
# UVM_INFO ../src/env/axi4_scoreboard.sv(219) @ 2505000: uvm_test_top.env.scb [axi4_scoreboard] [REF_MEM_WRITE] Addr=0x4a034633 Data=0x21
# UVM_INFO ../src/env/axi4_scoreboard.sv(219) @ 2505000: uvm_test_top.env.scb [axi4_scoreboard] [REF_MEM_WRITE] Addr=0x4a034635 Data=0xa2
# UVM_INFO ../src/env/axi4_scoreboard.sv(219) @ 2505000: uvm_test_top.env.scb [axi4_scoreboard] [REF_MEM_WRITE] Addr=0x4a034636 Data=0x1f
# UVM_INFO ../src/env/axi4_scoreboard.sv(219) @ 2505000: uvm_test_top.env.scb [axi4_scoreboard] [REF_MEM_WRITE] Addr=0x4a034635 Data=0x67
# UVM_INFO ../src/env/axi4_scoreboard.sv(219) @ 2505000: uvm_test_top.env.scb [axi4_scoreboard] [REF_MEM_WRITE] Addr=0x4a034636 Data=0x7c
# UVM_INFO ../src/env/axi4_scoreboard.sv(219) @ 2505000: uvm_test_top.env.scb [axi4_scoreboard] [REF_MEM_WRITE] Addr=0x4a034637 Data=0x1b
# UVM_INFO ../src/env/axi4_scoreboard.sv(219) @ 2505000: uvm_test_top.env.scb [axi4_scoreboard] [REF_MEM_WRITE] Addr=0x4a034638 Data=0x4c
# UVM_INFO ../src/env/axi4_scoreboard.sv(219) @ 2505000: uvm_test_top.env.scb [axi4_scoreboard] [REF_MEM_WRITE] Addr=0x4a03463a Data=0x96
# UVM_INFO ../src/env/axi4_scoreboard.sv(219) @ 2505000: uvm_test_top.env.scb [axi4_scoreboard] [REF_MEM_WRITE] Addr=0x4a03463b Data=0xae
# UVM_INFO ../src/env/axi4_scoreboard.sv(219) @ 2505000: uvm_test_top.env.scb [axi4_scoreboard] [REF_MEM_WRITE] Addr=0x4a034638 Data=0x8b
# UVM_INFO ../src/env/axi4_scoreboard.sv(219) @ 2505000: uvm_test_top.env.scb [axi4_scoreboard] [REF_MEM_WRITE] Addr=0x4a034639 Data=0x95
# UVM_INFO ../src/env/axi4_scoreboard.sv(219) @ 2505000: uvm_test_top.env.scb [axi4_scoreboard] [REF_MEM_WRITE] Addr=0x4a03463a Data=0x5f
# UVM_INFO ../src/env/axi4_scoreboard.sv(219) @ 2505000: uvm_test_top.env.scb [axi4_scoreboard] [REF_MEM_WRITE] Addr=0x4a03463b Data=0xa8
# UVM_INFO ../src/env/axi4_scoreboard.sv(219) @ 2505000: uvm_test_top.env.scb [axi4_scoreboard] [REF_MEM_WRITE] Addr=0x4a03463c Data=0x73
# UVM_INFO ../src/env/axi4_scoreboard.sv(219) @ 2505000: uvm_test_top.env.scb [axi4_scoreboard] [REF_MEM_WRITE] Addr=0x4a03463d Data=0xc9
# UVM_INFO ../src/env/axi4_scoreboard.sv(219) @ 2505000: uvm_test_top.env.scb [axi4_scoreboard] [REF_MEM_WRITE] Addr=0x4a03463f Data=0x46
# UVM_INFO ../src/env/axi4_scoreboard.sv(219) @ 2505000: uvm_test_top.env.scb [axi4_scoreboard] [REF_MEM_WRITE] Addr=0x4a03463e Data=0x6b
# UVM_INFO ../src/env/axi4_scoreboard.sv(219) @ 2505000: uvm_test_top.env.scb [axi4_scoreboard] [REF_MEM_WRITE] Addr=0x4a03463f Data=0xdc
# UVM_INFO ../src/env/axi4_scoreboard.sv(219) @ 2505000: uvm_test_top.env.scb [axi4_scoreboard] [REF_MEM_WRITE] Addr=0x4a034640 Data=0x44
# UVM_INFO ../src/env/axi4_scoreboard.sv(219) @ 2505000: uvm_test_top.env.scb [axi4_scoreboard] [REF_MEM_WRITE] Addr=0x4a034641 Data=0xef
# UVM_INFO ../src/env/axi4_scoreboard.sv(219) @ 2505000: uvm_test_top.env.scb [axi4_scoreboard] [REF_MEM_WRITE] Addr=0x4a034642 Data=0xda
# UVM_INFO ../src/env/axi4_scoreboard.sv(219) @ 2505000: uvm_test_top.env.scb [axi4_scoreboard] [REF_MEM_WRITE] Addr=0x4a034640 Data=0xa9
# UVM_INFO ../src/env/axi4_scoreboard.sv(219) @ 2505000: uvm_test_top.env.scb [axi4_scoreboard] [REF_MEM_WRITE] Addr=0x4a034642 Data=0xbb
# UVM_INFO ../src/env/axi4_scoreboard.sv(219) @ 2505000: uvm_test_top.env.scb [axi4_scoreboard] [REF_MEM_WRITE] Addr=0x4a034646 Data=0xe6
# UVM_INFO ../src/env/axi4_scoreboard.sv(219) @ 2505000: uvm_test_top.env.scb [axi4_scoreboard] [REF_MEM_WRITE] Addr=0x4a034648 Data=0xb8
# UVM_INFO ../src/env/axi4_scoreboard.sv(219) @ 2505000: uvm_test_top.env.scb [axi4_scoreboard] [REF_MEM_WRITE] Addr=0x4a034649 Data=0x29
# UVM_INFO ../src/env/axi4_scoreboard.sv(219) @ 2505000: uvm_test_top.env.scb [axi4_scoreboard] [REF_MEM_WRITE] Addr=0x4a03464b Data=0xd3
# UVM_INFO ../src/env/axi4_scoreboard.sv(219) @ 2505000: uvm_test_top.env.scb [axi4_scoreboard] [REF_MEM_WRITE] Addr=0x4a034648 Data=0x80
# UVM_INFO ../src/env/axi4_scoreboard.sv(219) @ 2505000: uvm_test_top.env.scb [axi4_scoreboard] [REF_MEM_WRITE] Addr=0x4a03464a Data=0xeb
# UVM_INFO ../src/env/axi4_scoreboard.sv(219) @ 2505000: uvm_test_top.env.scb [axi4_scoreboard] [REF_MEM_WRITE] Addr=0x4a03464b Data=0xc3
# UVM_INFO ../src/env/axi4_scoreboard.sv(219) @ 2505000: uvm_test_top.env.scb [axi4_scoreboard] [REF_MEM_WRITE] Addr=0x4a03464c Data=0xc4
# UVM_INFO ../src/env/axi4_scoreboard.sv(219) @ 2505000: uvm_test_top.env.scb [axi4_scoreboard] [REF_MEM_WRITE] Addr=0x4a03464d Data=0x63
# UVM_INFO ../src/env/axi4_scoreboard.sv(219) @ 2505000: uvm_test_top.env.scb [axi4_scoreboard] [REF_MEM_WRITE] Addr=0x4a03464c Data=0xd2
# UVM_INFO ../src/env/axi4_scoreboard.sv(219) @ 2505000: uvm_test_top.env.scb [axi4_scoreboard] [REF_MEM_WRITE] Addr=0x4a03464d Data=0x29
# UVM_INFO ../src/env/axi4_scoreboard.sv(219) @ 2505000: uvm_test_top.env.scb [axi4_scoreboard] [REF_MEM_WRITE] Addr=0x4a03464e Data=0x00
# UVM_INFO ../src/env/axi4_scoreboard.sv(219) @ 2505000: uvm_test_top.env.scb [axi4_scoreboard] [REF_MEM_WRITE] Addr=0x4a03464f Data=0x5f
# UVM_INFO ../src/env/axi4_scoreboard.sv(219) @ 2505000: uvm_test_top.env.scb [axi4_scoreboard] [REF_MEM_WRITE] Addr=0x4a034650 Data=0x5a
# UVM_INFO ../src/env/axi4_scoreboard.sv(219) @ 2505000: uvm_test_top.env.scb [axi4_scoreboard] [REF_MEM_WRITE] Addr=0x4a034651 Data=0x39
# UVM_INFO ../src/env/axi4_scoreboard.sv(219) @ 2505000: uvm_test_top.env.scb [axi4_scoreboard] [REF_MEM_WRITE] Addr=0x4a034653 Data=0x83
# UVM_INFO ../src/env/axi4_scoreboard.sv(219) @ 2505000: uvm_test_top.env.scb [axi4_scoreboard] [REF_MEM_WRITE] Addr=0x4a034651 Data=0x11
# UVM_INFO ../src/env/axi4_scoreboard.sv(219) @ 2505000: uvm_test_top.env.scb [axi4_scoreboard] [REF_MEM_WRITE] Addr=0x4a034654 Data=0x35
# UVM_INFO ../src/env/axi4_scoreboard.sv(219) @ 2505000: uvm_test_top.env.scb [axi4_scoreboard] [REF_MEM_WRITE] Addr=0x4a034655 Data=0x1e
# UVM_INFO ../src/env/axi4_scoreboard.sv(219) @ 2505000: uvm_test_top.env.scb [axi4_scoreboard] [REF_MEM_WRITE] Addr=0x4a034655 Data=0xba
# UVM_INFO ../src/env/axi4_scoreboard.sv(219) @ 2505000: uvm_test_top.env.scb [axi4_scoreboard] [REF_MEM_WRITE] Addr=0x4a034656 Data=0x61
# UVM_INFO ../src/env/axi4_scoreboard.sv(219) @ 2505000: uvm_test_top.env.scb [axi4_scoreboard] [REF_MEM_WRITE] Addr=0x4a034659 Data=0x71
# UVM_INFO ../src/env/axi4_scoreboard.sv(219) @ 2505000: uvm_test_top.env.scb [axi4_scoreboard] [REF_MEM_WRITE] Addr=0x4a03465a Data=0xff
# UVM_INFO ../src/env/axi4_scoreboard.sv(219) @ 2505000: uvm_test_top.env.scb [axi4_scoreboard] [REF_MEM_WRITE] Addr=0x4a034658 Data=0x43
# UVM_INFO ../src/env/axi4_scoreboard.sv(219) @ 2505000: uvm_test_top.env.scb [axi4_scoreboard] [REF_MEM_WRITE] Addr=0x4a034659 Data=0xc3
# UVM_INFO ../src/env/axi4_scoreboard.sv(219) @ 2505000: uvm_test_top.env.scb [axi4_scoreboard] [REF_MEM_WRITE] Addr=0x4a03465a Data=0x76
# UVM_INFO ../src/env/axi4_scoreboard.sv(219) @ 2505000: uvm_test_top.env.scb [axi4_scoreboard] [REF_MEM_WRITE] Addr=0x4a03465b Data=0x10
# UVM_INFO ../src/env/axi4_scoreboard.sv(219) @ 2505000: uvm_test_top.env.scb [axi4_scoreboard] [REF_MEM_WRITE] Addr=0x4a03465c Data=0x99
# UVM_INFO ../src/env/axi4_scoreboard.sv(219) @ 2505000: uvm_test_top.env.scb [axi4_scoreboard] [REF_MEM_WRITE] Addr=0x4a03465f Data=0x5b
# UVM_INFO ../src/env/axi4_scoreboard.sv(219) @ 2505000: uvm_test_top.env.scb [axi4_scoreboard] [REF_MEM_WRITE] Addr=0x4a03465d Data=0xef
# UVM_INFO ../src/env/axi4_scoreboard.sv(219) @ 2505000: uvm_test_top.env.scb [axi4_scoreboard] [REF_MEM_WRITE] Addr=0x4a034662 Data=0xf4
# UVM_INFO ../src/env/axi4_scoreboard.sv(219) @ 2505000: uvm_test_top.env.scb [axi4_scoreboard] [REF_MEM_WRITE] Addr=0x4a034663 Data=0x7c
# UVM_INFO ../src/env/axi4_scoreboard.sv(219) @ 2505000: uvm_test_top.env.scb [axi4_scoreboard] [REF_MEM_WRITE] Addr=0x4a034663 Data=0x4c
# UVM_INFO ../src/env/axi4_scoreboard.sv(219) @ 2505000: uvm_test_top.env.scb [axi4_scoreboard] [REF_MEM_WRITE] Addr=0x4a034664 Data=0x4a
# UVM_INFO ../src/env/axi4_scoreboard.sv(219) @ 2505000: uvm_test_top.env.scb [axi4_scoreboard] [REF_MEM_WRITE] Addr=0x4a034665 Data=0x9f
# UVM_INFO ../src/env/axi4_scoreboard.sv(219) @ 2505000: uvm_test_top.env.scb [axi4_scoreboard] [REF_MEM_WRITE] Addr=0x4a034667 Data=0x3d
# UVM_INFO ../src/env/axi4_scoreboard.sv(219) @ 2505000: uvm_test_top.env.scb [axi4_scoreboard] [REF_MEM_WRITE] Addr=0x4a034664 Data=0x8f
# UVM_INFO ../src/env/axi4_scoreboard.sv(219) @ 2505000: uvm_test_top.env.scb [axi4_scoreboard] [REF_MEM_WRITE] Addr=0x4a034667 Data=0xab
# UVM_INFO ../src/env/axi4_scoreboard.sv(219) @ 2505000: uvm_test_top.env.scb [axi4_scoreboard] [REF_MEM_WRITE] Addr=0x4a034669 Data=0x99
# UVM_INFO ../src/env/axi4_scoreboard.sv(219) @ 2505000: uvm_test_top.env.scb [axi4_scoreboard] [REF_MEM_WRITE] Addr=0x4a03466a Data=0x4a
# UVM_INFO ../src/env/axi4_scoreboard.sv(219) @ 2505000: uvm_test_top.env.scb [axi4_scoreboard] [REF_MEM_WRITE] Addr=0x4a03466c Data=0x5a
# UVM_INFO ../src/env/axi4_scoreboard.sv(219) @ 2505000: uvm_test_top.env.scb [axi4_scoreboard] [REF_MEM_WRITE] Addr=0x4a03466e Data=0x70
# UVM_INFO ../src/env/axi4_scoreboard.sv(219) @ 2505000: uvm_test_top.env.scb [axi4_scoreboard] [REF_MEM_WRITE] Addr=0x4a03466c Data=0x89
# UVM_INFO ../src/env/axi4_scoreboard.sv(219) @ 2505000: uvm_test_top.env.scb [axi4_scoreboard] [REF_MEM_WRITE] Addr=0x4a03466d Data=0x09
# UVM_INFO ../src/env/axi4_scoreboard.sv(219) @ 2505000: uvm_test_top.env.scb [axi4_scoreboard] [REF_MEM_WRITE] Addr=0x4a03466f Data=0xed
# UVM_INFO ../src/env/axi4_scoreboard.sv(219) @ 2505000: uvm_test_top.env.scb [axi4_scoreboard] [REF_MEM_WRITE] Addr=0x4a034671 Data=0x8c
# UVM_INFO ../src/env/axi4_scoreboard.sv(219) @ 2505000: uvm_test_top.env.scb [axi4_scoreboard] [REF_MEM_WRITE] Addr=0x4a034672 Data=0x01
# UVM_INFO ../src/env/axi4_scoreboard.sv(219) @ 2505000: uvm_test_top.env.scb [axi4_scoreboard] [REF_MEM_WRITE] Addr=0x4a034673 Data=0x9f
# UVM_INFO ../src/env/axi4_scoreboard.sv(219) @ 2505000: uvm_test_top.env.scb [axi4_scoreboard] [REF_MEM_WRITE] Addr=0x4a034674 Data=0x82
# UVM_INFO ../src/env/axi4_scoreboard.sv(219) @ 2505000: uvm_test_top.env.scb [axi4_scoreboard] [REF_MEM_WRITE] Addr=0x4a034675 Data=0xcf
# UVM_INFO ../src/env/axi4_scoreboard.sv(219) @ 2505000: uvm_test_top.env.scb [axi4_scoreboard] [REF_MEM_WRITE] Addr=0x4a034674 Data=0xdf
# UVM_INFO ../src/env/axi4_scoreboard.sv(219) @ 2505000: uvm_test_top.env.scb [axi4_scoreboard] [REF_MEM_WRITE] Addr=0x4a034679 Data=0xe3
# UVM_INFO ../src/env/axi4_scoreboard.sv(219) @ 2505000: uvm_test_top.env.scb [axi4_scoreboard] [REF_MEM_WRITE] Addr=0x4a03467a Data=0x49
# UVM_INFO ../src/env/axi4_scoreboard.sv(219) @ 2505000: uvm_test_top.env.scb [axi4_scoreboard] [REF_MEM_WRITE] Addr=0x4a03467a Data=0xe1
# UVM_INFO ../src/env/axi4_scoreboard.sv(219) @ 2505000: uvm_test_top.env.scb [axi4_scoreboard] [REF_MEM_WRITE] Addr=0x4a03467c Data=0xbd
# UVM_INFO ../src/env/axi4_scoreboard.sv(219) @ 2505000: uvm_test_top.env.scb [axi4_scoreboard] [REF_MEM_WRITE] Addr=0x4a03467e Data=0x22
# UVM_INFO ../src/env/axi4_scoreboard.sv(219) @ 2505000: uvm_test_top.env.scb [axi4_scoreboard] [REF_MEM_WRITE] Addr=0x4a03467f Data=0x1e
# UVM_INFO ../src/env/axi4_scoreboard.sv(219) @ 2505000: uvm_test_top.env.scb [axi4_scoreboard] [REF_MEM_WRITE] Addr=0x4a03467d Data=0xef
# UVM_INFO ../src/env/axi4_scoreboard.sv(219) @ 2505000: uvm_test_top.env.scb [axi4_scoreboard] [REF_MEM_WRITE] Addr=0x4a034681 Data=0x2f
# UVM_INFO ../src/env/axi4_scoreboard.sv(219) @ 2505000: uvm_test_top.env.scb [axi4_scoreboard] [REF_MEM_WRITE] Addr=0x4a034682 Data=0xd9
# UVM_INFO ../src/env/axi4_scoreboard.sv(219) @ 2505000: uvm_test_top.env.scb [axi4_scoreboard] [REF_MEM_WRITE] Addr=0x4a034683 Data=0x65
# UVM_INFO ../src/env/axi4_scoreboard.sv(219) @ 2505000: uvm_test_top.env.scb [axi4_scoreboard] [REF_MEM_WRITE] Addr=0x4a034684 Data=0xe5
# UVM_INFO ../src/env/axi4_scoreboard.sv(219) @ 2505000: uvm_test_top.env.scb [axi4_scoreboard] [REF_MEM_WRITE] Addr=0x4a034687 Data=0x01
# UVM_INFO ../src/env/axi4_scoreboard.sv(219) @ 2505000: uvm_test_top.env.scb [axi4_scoreboard] [REF_MEM_WRITE] Addr=0x4a034684 Data=0xa9
# UVM_INFO ../src/env/axi4_scoreboard.sv(219) @ 2505000: uvm_test_top.env.scb [axi4_scoreboard] [REF_MEM_WRITE] Addr=0x4a034685 Data=0xe3
# UVM_INFO ../src/env/axi4_scoreboard.sv(219) @ 2505000: uvm_test_top.env.scb [axi4_scoreboard] [REF_MEM_WRITE] Addr=0x4a034687 Data=0x43
# UVM_INFO ../src/env/axi4_scoreboard.sv(219) @ 2505000: uvm_test_top.env.scb [axi4_scoreboard] [REF_MEM_WRITE] Addr=0x4a03468a Data=0x11
# UVM_INFO ../src/env/axi4_scoreboard.sv(219) @ 2505000: uvm_test_top.env.scb [axi4_scoreboard] [REF_MEM_WRITE] Addr=0x4a03468a Data=0x12
# UVM_INFO ../src/env/axi4_scoreboard.sv(219) @ 2505000: uvm_test_top.env.scb [axi4_scoreboard] [REF_MEM_WRITE] Addr=0x4a03468b Data=0xee
# UVM_INFO ../src/env/axi4_scoreboard.sv(219) @ 2505000: uvm_test_top.env.scb [axi4_scoreboard] [REF_MEM_WRITE] Addr=0x4a03468e Data=0xae
# UVM_INFO ../src/env/axi4_scoreboard.sv(219) @ 2505000: uvm_test_top.env.scb [axi4_scoreboard] [REF_MEM_WRITE] Addr=0x4a03468f Data=0x63
# UVM_INFO ../src/env/axi4_scoreboard.sv(219) @ 2505000: uvm_test_top.env.scb [axi4_scoreboard] [REF_MEM_WRITE] Addr=0x4a03468c Data=0xa6
# UVM_INFO ../src/env/axi4_scoreboard.sv(219) @ 2505000: uvm_test_top.env.scb [axi4_scoreboard] [REF_MEM_WRITE] Addr=0x4a03468d Data=0xc9
# UVM_INFO ../src/env/axi4_scoreboard.sv(219) @ 2505000: uvm_test_top.env.scb [axi4_scoreboard] [REF_MEM_WRITE] Addr=0x4a034690 Data=0xd5
# UVM_INFO ../src/env/axi4_scoreboard.sv(219) @ 2505000: uvm_test_top.env.scb [axi4_scoreboard] [REF_MEM_WRITE] Addr=0x4a034691 Data=0x91
# UVM_INFO ../src/env/axi4_scoreboard.sv(219) @ 2505000: uvm_test_top.env.scb [axi4_scoreboard] [REF_MEM_WRITE] Addr=0x4a034693 Data=0x2f
# UVM_INFO ../src/env/axi4_scoreboard.sv(219) @ 2505000: uvm_test_top.env.scb [axi4_scoreboard] [REF_MEM_WRITE] Addr=0x4a034694 Data=0x4b
# UVM_INFO ../src/env/axi4_scoreboard.sv(219) @ 2505000: uvm_test_top.env.scb [axi4_scoreboard] [REF_MEM_WRITE] Addr=0x4a034695 Data=0x43
# UVM_INFO ../src/env/axi4_scoreboard.sv(219) @ 2505000: uvm_test_top.env.scb [axi4_scoreboard] [REF_MEM_WRITE] Addr=0x4a03469a Data=0x4b
# UVM_INFO ../src/env/axi4_scoreboard.sv(219) @ 2505000: uvm_test_top.env.scb [axi4_scoreboard] [REF_MEM_WRITE] Addr=0x4a03469a Data=0x78
# UVM_INFO ../src/env/axi4_scoreboard.sv(219) @ 2505000: uvm_test_top.env.scb [axi4_scoreboard] [REF_MEM_WRITE] Addr=0x4a03469b Data=0xb7
# UVM_INFO ../src/env/axi4_scoreboard.sv(219) @ 2505000: uvm_test_top.env.scb [axi4_scoreboard] [REF_MEM_WRITE] Addr=0x4a03469d Data=0x2b
# UVM_INFO ../src/env/axi4_scoreboard.sv(219) @ 2505000: uvm_test_top.env.scb [axi4_scoreboard] [REF_MEM_WRITE] Addr=0x4a03469c Data=0xcb
# UVM_INFO ../src/env/axi4_scoreboard.sv(219) @ 2505000: uvm_test_top.env.scb [axi4_scoreboard] [REF_MEM_WRITE] Addr=0x4a03469e Data=0x2e
# UVM_INFO ../src/env/axi4_scoreboard.sv(219) @ 2505000: uvm_test_top.env.scb [axi4_scoreboard] [REF_MEM_WRITE] Addr=0x4a03469f Data=0xec
# UVM_INFO ../src/env/axi4_scoreboard.sv(219) @ 2505000: uvm_test_top.env.scb [axi4_scoreboard] [REF_MEM_WRITE] Addr=0x4a0346a1 Data=0x51
# UVM_INFO ../src/env/axi4_scoreboard.sv(219) @ 2505000: uvm_test_top.env.scb [axi4_scoreboard] [REF_MEM_WRITE] Addr=0x4a0346a2 Data=0x58
# UVM_INFO ../src/env/axi4_scoreboard.sv(219) @ 2505000: uvm_test_top.env.scb [axi4_scoreboard] [REF_MEM_WRITE] Addr=0x4a0346a0 Data=0xef
# UVM_INFO ../src/env/axi4_scoreboard.sv(219) @ 2505000: uvm_test_top.env.scb [axi4_scoreboard] [REF_MEM_WRITE] Addr=0x4a0346a1 Data=0x6a
# UVM_INFO ../src/env/axi4_scoreboard.sv(219) @ 2505000: uvm_test_top.env.scb [axi4_scoreboard] [REF_MEM_WRITE] Addr=0x4a0346a3 Data=0x3e
# UVM_INFO ../src/env/axi4_scoreboard.sv(219) @ 2505000: uvm_test_top.env.scb [axi4_scoreboard] [REF_MEM_WRITE] Addr=0x4a0346a5 Data=0xed
# UVM_INFO ../src/env/axi4_scoreboard.sv(219) @ 2505000: uvm_test_top.env.scb [axi4_scoreboard] [REF_MEM_WRITE] Addr=0x4a0346a7 Data=0xf5
# UVM_INFO ../src/env/axi4_scoreboard.sv(219) @ 2505000: uvm_test_top.env.scb [axi4_scoreboard] [REF_MEM_WRITE] Addr=0x4a0346a8 Data=0x0e
# UVM_INFO ../src/env/axi4_scoreboard.sv(219) @ 2505000: uvm_test_top.env.scb [axi4_scoreboard] [REF_MEM_WRITE] Addr=0x4a0346aa Data=0x01
# UVM_INFO ../src/env/axi4_scoreboard.sv(219) @ 2505000: uvm_test_top.env.scb [axi4_scoreboard] [REF_MEM_WRITE] Addr=0x4a0346ab Data=0x8d
# UVM_INFO ../src/slv/axi4_slave_monitor.sv(167) @ 2635000: uvm_test_top.env.slave_agent.mon [axi4_slave_monitor] W data assembled: ID=0x2 ADDR=0x8dcb8a4f 8 beats
# UVM_INFO ../src/mst/axi4_master_monitor.sv(184) @ 2635000: uvm_test_top.env.master_agent.mon [axi4_master_monitor] W data assembled: ID=0x2 ADDR=0x8dcb8a4f 8 beats
# UVM_INFO ../src/mst/axi4_master_driver.sv(289) @ 2665000: uvm_test_top.env.master_agent.drv [axi4_master_driver] Master driver received B response: ID=0x2 RESP=AXI4_RESP_OKAY
# UVM_INFO ../src/slv/axi4_slave_driver.sv(348) @ 2665000: uvm_test_top.env.slave_agent.drv [axi4_slave_driver] Write complete: ID=0x2 RESP=AXI4_RESP_OKAY
# UVM_INFO ../src/mst/axi4_master_monitor.sv(210) @ 2665000: uvm_test_top.env.master_agent.mon [axi4_master_monitor] Write complete: ID=0x2 ADDR=0x8dcb8a4f RESP=AXI4_RESP_OKAY
# UVM_INFO ../src/env/axi4_scoreboard.sv(87) @ 2665000: uvm_test_top.env.scb [axi4_scoreboard] Master AXI4_WRITE received: ID=0x2 ADDR=0x8dcb8a4f LEN=7
# UVM_INFO ../src/slv/axi4_slave_monitor.sv(189) @ 2665000: uvm_test_top.env.slave_agent.mon [axi4_slave_monitor] Write response sent: ID=0x2 ADDR=0x8dcb8a4f RESP=AXI4_RESP_OKAY
# UVM_INFO ../src/env/axi4_scoreboard.sv(108) @ 2665000: uvm_test_top.env.scb [axi4_scoreboard] Slave AXI4_WRITE received: ID=0x2 ADDR=0x8dcb8a4f LEN=7
# UVM_INFO ../src/env/axi4_scoreboard.sv(291) @ 2665000: uvm_test_top.env.scb [axi4_scoreboard] [WRITE] MATCH #2: ID=0x2 ADDR=0x8dcb8a4f LEN=7
# UVM_INFO ../src/env/axi4_scoreboard.sv(219) @ 2665000: uvm_test_top.env.scb [axi4_scoreboard] [REF_MEM_WRITE] Addr=0x8dcb8a4e Data=0x8a
# UVM_INFO ../src/env/axi4_scoreboard.sv(219) @ 2665000: uvm_test_top.env.scb [axi4_scoreboard] [REF_MEM_WRITE] Addr=0x8dcb8a4c Data=0xe6
# UVM_INFO ../src/env/axi4_scoreboard.sv(219) @ 2665000: uvm_test_top.env.scb [axi4_scoreboard] [REF_MEM_WRITE] Addr=0x8dcb8a4d Data=0x87
# UVM_INFO ../src/env/axi4_scoreboard.sv(219) @ 2665000: uvm_test_top.env.scb [axi4_scoreboard] [REF_MEM_WRITE] Addr=0x8dcb8a4f Data=0xf3
# UVM_INFO ../src/env/axi4_scoreboard.sv(219) @ 2665000: uvm_test_top.env.scb [axi4_scoreboard] [REF_MEM_WRITE] Addr=0x8dcb8a4c Data=0xfa
# UVM_INFO ../src/env/axi4_scoreboard.sv(219) @ 2665000: uvm_test_top.env.scb [axi4_scoreboard] [REF_MEM_WRITE] Addr=0x8dcb8a4d Data=0x60
# UVM_INFO ../src/env/axi4_scoreboard.sv(219) @ 2665000: uvm_test_top.env.scb [axi4_scoreboard] [REF_MEM_WRITE] Addr=0x8dcb8a4e Data=0x77
# UVM_INFO ../src/env/axi4_scoreboard.sv(219) @ 2665000: uvm_test_top.env.scb [axi4_scoreboard] [REF_MEM_WRITE] Addr=0x8dcb8a4f Data=0x71
# UVM_INFO ../src/env/axi4_scoreboard.sv(219) @ 2665000: uvm_test_top.env.scb [axi4_scoreboard] [REF_MEM_WRITE] Addr=0x8dcb8a4e Data=0x88
# UVM_INFO ../src/env/axi4_scoreboard.sv(219) @ 2665000: uvm_test_top.env.scb [axi4_scoreboard] [REF_MEM_WRITE] Addr=0x8dcb8a4f Data=0xfc
# UVM_INFO ../src/env/axi4_scoreboard.sv(219) @ 2665000: uvm_test_top.env.scb [axi4_scoreboard] [REF_MEM_WRITE] Addr=0x8dcb8a4c Data=0x84
# UVM_INFO ../src/env/axi4_scoreboard.sv(219) @ 2665000: uvm_test_top.env.scb [axi4_scoreboard] [REF_MEM_WRITE] Addr=0x8dcb8a4d Data=0xc6
# UVM_INFO ../src/env/axi4_scoreboard.sv(219) @ 2665000: uvm_test_top.env.scb [axi4_scoreboard] [REF_MEM_WRITE] Addr=0x8dcb8a4e Data=0x14
# UVM_INFO ../src/env/axi4_scoreboard.sv(219) @ 2665000: uvm_test_top.env.scb [axi4_scoreboard] [REF_MEM_WRITE] Addr=0x8dcb8a4f Data=0xd9
# UVM_INFO ../src/env/axi4_scoreboard.sv(219) @ 2665000: uvm_test_top.env.scb [axi4_scoreboard] [REF_MEM_WRITE] Addr=0x8dcb8a4e Data=0xeb
# UVM_INFO ../src/env/axi4_scoreboard.sv(219) @ 2665000: uvm_test_top.env.scb [axi4_scoreboard] [REF_MEM_WRITE] Addr=0x8dcb8a4f Data=0x70
# UVM_INFO ../src/env/axi4_scoreboard.sv(219) @ 2665000: uvm_test_top.env.scb [axi4_scoreboard] [REF_MEM_WRITE] Addr=0x8dcb8a4c Data=0xb6
# UVM_INFO ../src/env/axi4_scoreboard.sv(219) @ 2665000: uvm_test_top.env.scb [axi4_scoreboard] [REF_MEM_WRITE] Addr=0x8dcb8a4d Data=0x04
# UVM_INFO ../src/env/axi4_scoreboard.sv(219) @ 2665000: uvm_test_top.env.scb [axi4_scoreboard] [REF_MEM_WRITE] Addr=0x8dcb8a4d Data=0x38
# UVM_INFO ../src/env/axi4_scoreboard.sv(219) @ 2665000: uvm_test_top.env.scb [axi4_scoreboard] [REF_MEM_WRITE] Addr=0x8dcb8a4e Data=0x61
# UVM_INFO ../src/mst/axi4_master_driver.sv(348) @ 4975000: uvm_test_top.env.master_agent.drv [axi4_master_driver] Master driver received all R beats for ID=0x1
# UVM_INFO ../src/slv/axi4_slave_driver.sv(501) @ 4975000: uvm_test_top.env.slave_agent.drv [axi4_slave_driver] Read complete: ID=0x1 ADDR=0x3d7f9009 RESP=AXI4_RESP_OKAY  243 beats sent
# UVM_INFO ../src/slv/axi4_slave_monitor.sv(287) @ 4975000: uvm_test_top.env.slave_agent.mon [axi4_slave_monitor] Read data sent: ID=0x1 ADDR=0x3d7f9009 243 beats
# UVM_INFO ../src/env/axi4_scoreboard.sv(108) @ 4975000: uvm_test_top.env.scb [axi4_scoreboard] Slave AXI4_READ received: ID=0x1 ADDR=0x3d7f9009 LEN=242
# UVM_INFO ../src/mst/axi4_master_monitor.sv(314) @ 4975000: uvm_test_top.env.master_agent.mon [axi4_master_monitor] Read complete: ID=0x1 ADDR=0x3d7f9009 243 beats
# UVM_INFO ../src/env/axi4_scoreboard.sv(87) @ 4975000: uvm_test_top.env.scb [axi4_scoreboard] Master AXI4_READ received: ID=0x1 ADDR=0x3d7f9009 LEN=242
# UVM_INFO ../src/env/axi4_scoreboard.sv(291) @ 4975000: uvm_test_top.env.scb [axi4_scoreboard] [READ] MATCH #3: ID=0x1 ADDR=0x3d7f9009 LEN=242
# UVM_INFO ../src/slv/axi4_slave_monitor.sv(167) @ 5595000: uvm_test_top.env.slave_agent.mon [axi4_slave_monitor] W data assembled: ID=0x1 ADDR=0x0ea71e23 148 beats
# UVM_INFO ../src/mst/axi4_master_monitor.sv(184) @ 5595000: uvm_test_top.env.master_agent.mon [axi4_master_monitor] W data assembled: ID=0x1 ADDR=0x0ea71e23 148 beats
# UVM_INFO ../src/mst/axi4_master_driver.sv(289) @ 5625000: uvm_test_top.env.master_agent.drv [axi4_master_driver] Master driver received B response: ID=0x1 RESP=AXI4_RESP_OKAY
# UVM_INFO ../src/slv/axi4_slave_driver.sv(348) @ 5625000: uvm_test_top.env.slave_agent.drv [axi4_slave_driver] Write complete: ID=0x1 RESP=AXI4_RESP_OKAY
# UVM_INFO ../src/mst/axi4_master_monitor.sv(210) @ 5625000: uvm_test_top.env.master_agent.mon [axi4_master_monitor] Write complete: ID=0x1 ADDR=0x0ea71e23 RESP=AXI4_RESP_OKAY
# UVM_INFO ../src/env/axi4_scoreboard.sv(87) @ 5625000: uvm_test_top.env.scb [axi4_scoreboard] Master AXI4_WRITE received: ID=0x1 ADDR=0x0ea71e23 LEN=147
# UVM_INFO ../src/slv/axi4_slave_monitor.sv(189) @ 5625000: uvm_test_top.env.slave_agent.mon [axi4_slave_monitor] Write response sent: ID=0x1 ADDR=0x0ea71e23 RESP=AXI4_RESP_OKAY
# UVM_INFO ../src/env/axi4_scoreboard.sv(108) @ 5625000: uvm_test_top.env.scb [axi4_scoreboard] Slave AXI4_WRITE received: ID=0x1 ADDR=0x0ea71e23 LEN=147
# UVM_INFO ../src/env/axi4_scoreboard.sv(291) @ 5625000: uvm_test_top.env.scb [axi4_scoreboard] [WRITE] MATCH #4: ID=0x1 ADDR=0x0ea71e23 LEN=147
# UVM_INFO ../src/env/axi4_scoreboard.sv(219) @ 5625000: uvm_test_top.env.scb [axi4_scoreboard] [REF_MEM_WRITE] Addr=0x0ea71e20 Data=0xfc
# UVM_INFO ../src/env/axi4_scoreboard.sv(219) @ 5625000: uvm_test_top.env.scb [axi4_scoreboard] [REF_MEM_WRITE] Addr=0x0ea71e23 Data=0xa8
# UVM_INFO ../src/env/axi4_scoreboard.sv(219) @ 5625000: uvm_test_top.env.scb [axi4_scoreboard] [REF_MEM_WRITE] Addr=0x0ea71e24 Data=0xa0
# UVM_INFO ../src/env/axi4_scoreboard.sv(219) @ 5625000: uvm_test_top.env.scb [axi4_scoreboard] [REF_MEM_WRITE] Addr=0x0ea71e27 Data=0xe7
# UVM_INFO ../src/env/axi4_scoreboard.sv(219) @ 5625000: uvm_test_top.env.scb [axi4_scoreboard] [REF_MEM_WRITE] Addr=0x0ea71e25 Data=0x75
# UVM_INFO ../src/env/axi4_scoreboard.sv(219) @ 5625000: uvm_test_top.env.scb [axi4_scoreboard] [REF_MEM_WRITE] Addr=0x0ea71e26 Data=0x0a
# UVM_INFO ../src/env/axi4_scoreboard.sv(219) @ 5625000: uvm_test_top.env.scb [axi4_scoreboard] [REF_MEM_WRITE] Addr=0x0ea71e29 Data=0xe9
# UVM_INFO ../src/env/axi4_scoreboard.sv(219) @ 5625000: uvm_test_top.env.scb [axi4_scoreboard] [REF_MEM_WRITE] Addr=0x0ea71e2a Data=0xfd
# UVM_INFO ../src/env/axi4_scoreboard.sv(219) @ 5625000: uvm_test_top.env.scb [axi4_scoreboard] [REF_MEM_WRITE] Addr=0x0ea71e2b Data=0xee
# UVM_INFO ../src/env/axi4_scoreboard.sv(219) @ 5625000: uvm_test_top.env.scb [axi4_scoreboard] [REF_MEM_WRITE] Addr=0x0ea71e28 Data=0xd3
# UVM_INFO ../src/env/axi4_scoreboard.sv(219) @ 5625000: uvm_test_top.env.scb [axi4_scoreboard] [REF_MEM_WRITE] Addr=0x0ea71e29 Data=0xce
# UVM_INFO ../src/env/axi4_scoreboard.sv(219) @ 5625000: uvm_test_top.env.scb [axi4_scoreboard] [REF_MEM_WRITE] Addr=0x0ea71e2b Data=0xa0
# UVM_INFO ../src/env/axi4_scoreboard.sv(219) @ 5625000: uvm_test_top.env.scb [axi4_scoreboard] [REF_MEM_WRITE] Addr=0x0ea71e2c Data=0x6b
# UVM_INFO ../src/env/axi4_scoreboard.sv(219) @ 5625000: uvm_test_top.env.scb [axi4_scoreboard] [REF_MEM_WRITE] Addr=0x0ea71e2d Data=0xaf
# UVM_INFO ../src/env/axi4_scoreboard.sv(219) @ 5625000: uvm_test_top.env.scb [axi4_scoreboard] [REF_MEM_WRITE] Addr=0x0ea71e2e Data=0xb1
# UVM_INFO ../src/env/axi4_scoreboard.sv(219) @ 5625000: uvm_test_top.env.scb [axi4_scoreboard] [REF_MEM_WRITE] Addr=0x0ea71e2f Data=0x16
# UVM_INFO ../src/env/axi4_scoreboard.sv(219) @ 5625000: uvm_test_top.env.scb [axi4_scoreboard] [REF_MEM_WRITE] Addr=0x0ea71e2c Data=0x62
# UVM_INFO ../src/env/axi4_scoreboard.sv(219) @ 5625000: uvm_test_top.env.scb [axi4_scoreboard] [REF_MEM_WRITE] Addr=0x0ea71e2e Data=0xf1
# UVM_INFO ../src/env/axi4_scoreboard.sv(219) @ 5625000: uvm_test_top.env.scb [axi4_scoreboard] [REF_MEM_WRITE] Addr=0x0ea71e30 Data=0x37
# UVM_INFO ../src/env/axi4_scoreboard.sv(219) @ 5625000: uvm_test_top.env.scb [axi4_scoreboard] [REF_MEM_WRITE] Addr=0x0ea71e31 Data=0xab
# UVM_INFO ../src/env/axi4_scoreboard.sv(219) @ 5625000: uvm_test_top.env.scb [axi4_scoreboard] [REF_MEM_WRITE] Addr=0x0ea71e33 Data=0x90
# UVM_INFO ../src/env/axi4_scoreboard.sv(219) @ 5625000: uvm_test_top.env.scb [axi4_scoreboard] [REF_MEM_WRITE] Addr=0x0ea71e30 Data=0xa3
# UVM_INFO ../src/env/axi4_scoreboard.sv(219) @ 5625000: uvm_test_top.env.scb [axi4_scoreboard] [REF_MEM_WRITE] Addr=0x0ea71e32 Data=0x6a
# UVM_INFO ../src/env/axi4_scoreboard.sv(219) @ 5625000: uvm_test_top.env.scb [axi4_scoreboard] [REF_MEM_WRITE] Addr=0x0ea71e33 Data=0xee
# UVM_INFO ../src/env/axi4_scoreboard.sv(219) @ 5625000: uvm_test_top.env.scb [axi4_scoreboard] [REF_MEM_WRITE] Addr=0x0ea71e34 Data=0x97
# UVM_INFO ../src/env/axi4_scoreboard.sv(219) @ 5625000: uvm_test_top.env.scb [axi4_scoreboard] [REF_MEM_WRITE] Addr=0x0ea71e36 Data=0xaf
# UVM_INFO ../src/env/axi4_scoreboard.sv(219) @ 5625000: uvm_test_top.env.scb [axi4_scoreboard] [REF_MEM_WRITE] Addr=0x0ea71e37 Data=0x10
# UVM_INFO ../src/env/axi4_scoreboard.sv(219) @ 5625000: uvm_test_top.env.scb [axi4_scoreboard] [REF_MEM_WRITE] Addr=0x0ea71e34 Data=0x61
# UVM_INFO ../src/env/axi4_scoreboard.sv(219) @ 5625000: uvm_test_top.env.scb [axi4_scoreboard] [REF_MEM_WRITE] Addr=0x0ea71e35 Data=0xb2
# UVM_INFO ../src/env/axi4_scoreboard.sv(219) @ 5625000: uvm_test_top.env.scb [axi4_scoreboard] [REF_MEM_WRITE] Addr=0x0ea71e37 Data=0x99
# UVM_INFO ../src/env/axi4_scoreboard.sv(219) @ 5625000: uvm_test_top.env.scb [axi4_scoreboard] [REF_MEM_WRITE] Addr=0x0ea71e39 Data=0x01
# UVM_INFO ../src/env/axi4_scoreboard.sv(219) @ 5625000: uvm_test_top.env.scb [axi4_scoreboard] [REF_MEM_WRITE] Addr=0x0ea71e3a Data=0x5f
# UVM_INFO ../src/env/axi4_scoreboard.sv(219) @ 5625000: uvm_test_top.env.scb [axi4_scoreboard] [REF_MEM_WRITE] Addr=0x0ea71e3b Data=0xc4
# UVM_INFO ../src/env/axi4_scoreboard.sv(219) @ 5625000: uvm_test_top.env.scb [axi4_scoreboard] [REF_MEM_WRITE] Addr=0x0ea71e38 Data=0xb0
# UVM_INFO ../src/env/axi4_scoreboard.sv(219) @ 5625000: uvm_test_top.env.scb [axi4_scoreboard] [REF_MEM_WRITE] Addr=0x0ea71e3a Data=0x42
# UVM_INFO ../src/env/axi4_scoreboard.sv(219) @ 5625000: uvm_test_top.env.scb [axi4_scoreboard] [REF_MEM_WRITE] Addr=0x0ea71e3f Data=0x67
# UVM_INFO ../src/env/axi4_scoreboard.sv(219) @ 5625000: uvm_test_top.env.scb [axi4_scoreboard] [REF_MEM_WRITE] Addr=0x0ea71e3c Data=0x6a
# UVM_INFO ../src/env/axi4_scoreboard.sv(219) @ 5625000: uvm_test_top.env.scb [axi4_scoreboard] [REF_MEM_WRITE] Addr=0x0ea71e3d Data=0x62
# UVM_INFO ../src/env/axi4_scoreboard.sv(219) @ 5625000: uvm_test_top.env.scb [axi4_scoreboard] [REF_MEM_WRITE] Addr=0x0ea71e3f Data=0xf3
# UVM_INFO ../src/env/axi4_scoreboard.sv(219) @ 5625000: uvm_test_top.env.scb [axi4_scoreboard] [REF_MEM_WRITE] Addr=0x0ea71e40 Data=0x0e
# UVM_INFO ../src/env/axi4_scoreboard.sv(219) @ 5625000: uvm_test_top.env.scb [axi4_scoreboard] [REF_MEM_WRITE] Addr=0x0ea71e42 Data=0x45
# UVM_INFO ../src/env/axi4_scoreboard.sv(219) @ 5625000: uvm_test_top.env.scb [axi4_scoreboard] [REF_MEM_WRITE] Addr=0x0ea71e42 Data=0xe6
# UVM_INFO ../src/env/axi4_scoreboard.sv(219) @ 5625000: uvm_test_top.env.scb [axi4_scoreboard] [REF_MEM_WRITE] Addr=0x0ea71e43 Data=0x06
# UVM_INFO ../src/env/axi4_scoreboard.sv(219) @ 5625000: uvm_test_top.env.scb [axi4_scoreboard] [REF_MEM_WRITE] Addr=0x0ea71e45 Data=0x21
# UVM_INFO ../src/env/axi4_scoreboard.sv(219) @ 5625000: uvm_test_top.env.scb [axi4_scoreboard] [REF_MEM_WRITE] Addr=0x0ea71e44 Data=0xd6
# UVM_INFO ../src/env/axi4_scoreboard.sv(219) @ 5625000: uvm_test_top.env.scb [axi4_scoreboard] [REF_MEM_WRITE] Addr=0x0ea71e45 Data=0xe7
# UVM_INFO ../src/env/axi4_scoreboard.sv(219) @ 5625000: uvm_test_top.env.scb [axi4_scoreboard] [REF_MEM_WRITE] Addr=0x0ea71e46 Data=0x1c
# UVM_INFO ../src/env/axi4_scoreboard.sv(219) @ 5625000: uvm_test_top.env.scb [axi4_scoreboard] [REF_MEM_WRITE] Addr=0x0ea71e49 Data=0xb5
# UVM_INFO ../src/env/axi4_scoreboard.sv(219) @ 5625000: uvm_test_top.env.scb [axi4_scoreboard] [REF_MEM_WRITE] Addr=0x0ea71e4b Data=0x22
# UVM_INFO ../src/env/axi4_scoreboard.sv(219) @ 5625000: uvm_test_top.env.scb [axi4_scoreboard] [REF_MEM_WRITE] Addr=0x0ea71e48 Data=0xc2
# UVM_INFO ../src/env/axi4_scoreboard.sv(219) @ 5625000: uvm_test_top.env.scb [axi4_scoreboard] [REF_MEM_WRITE] Addr=0x0ea71e49 Data=0xe6
# UVM_INFO ../src/env/axi4_scoreboard.sv(219) @ 5625000: uvm_test_top.env.scb [axi4_scoreboard] [REF_MEM_WRITE] Addr=0x0ea71e4a Data=0x51
# UVM_INFO ../src/env/axi4_scoreboard.sv(219) @ 5625000: uvm_test_top.env.scb [axi4_scoreboard] [REF_MEM_WRITE] Addr=0x0ea71e4e Data=0x9a
# UVM_INFO ../src/env/axi4_scoreboard.sv(219) @ 5625000: uvm_test_top.env.scb [axi4_scoreboard] [REF_MEM_WRITE] Addr=0x0ea71e4c Data=0xe1
# UVM_INFO ../src/env/axi4_scoreboard.sv(219) @ 5625000: uvm_test_top.env.scb [axi4_scoreboard] [REF_MEM_WRITE] Addr=0x0ea71e4f Data=0x86
# UVM_INFO ../src/env/axi4_scoreboard.sv(219) @ 5625000: uvm_test_top.env.scb [axi4_scoreboard] [REF_MEM_WRITE] Addr=0x0ea71e53 Data=0x86
# UVM_INFO ../src/env/axi4_scoreboard.sv(219) @ 5625000: uvm_test_top.env.scb [axi4_scoreboard] [REF_MEM_WRITE] Addr=0x0ea71e51 Data=0xa6
# UVM_INFO ../src/env/axi4_scoreboard.sv(219) @ 5625000: uvm_test_top.env.scb [axi4_scoreboard] [REF_MEM_WRITE] Addr=0x0ea71e52 Data=0xb5
# UVM_INFO ../src/env/axi4_scoreboard.sv(219) @ 5625000: uvm_test_top.env.scb [axi4_scoreboard] [REF_MEM_WRITE] Addr=0x0ea71e54 Data=0x66
# UVM_INFO ../src/env/axi4_scoreboard.sv(219) @ 5625000: uvm_test_top.env.scb [axi4_scoreboard] [REF_MEM_WRITE] Addr=0x0ea71e57 Data=0xe3
# UVM_INFO ../src/env/axi4_scoreboard.sv(219) @ 5625000: uvm_test_top.env.scb [axi4_scoreboard] [REF_MEM_WRITE] Addr=0x0ea71e55 Data=0x36
# UVM_INFO ../src/env/axi4_scoreboard.sv(219) @ 5625000: uvm_test_top.env.scb [axi4_scoreboard] [REF_MEM_WRITE] Addr=0x0ea71e57 Data=0x53
# UVM_INFO ../src/env/axi4_scoreboard.sv(219) @ 5625000: uvm_test_top.env.scb [axi4_scoreboard] [REF_MEM_WRITE] Addr=0x0ea71e58 Data=0x5f
# UVM_INFO ../src/env/axi4_scoreboard.sv(219) @ 5625000: uvm_test_top.env.scb [axi4_scoreboard] [REF_MEM_WRITE] Addr=0x0ea71e59 Data=0xd6
# UVM_INFO ../src/env/axi4_scoreboard.sv(219) @ 5625000: uvm_test_top.env.scb [axi4_scoreboard] [REF_MEM_WRITE] Addr=0x0ea71e5a Data=0x7f
# UVM_INFO ../src/env/axi4_scoreboard.sv(219) @ 5625000: uvm_test_top.env.scb [axi4_scoreboard] [REF_MEM_WRITE] Addr=0x0ea71e5b Data=0x14
# UVM_INFO ../src/env/axi4_scoreboard.sv(219) @ 5625000: uvm_test_top.env.scb [axi4_scoreboard] [REF_MEM_WRITE] Addr=0x0ea71e5b Data=0x61
# UVM_INFO ../src/env/axi4_scoreboard.sv(219) @ 5625000: uvm_test_top.env.scb [axi4_scoreboard] [REF_MEM_WRITE] Addr=0x0ea71e5d Data=0x64
# UVM_INFO ../src/env/axi4_scoreboard.sv(219) @ 5625000: uvm_test_top.env.scb [axi4_scoreboard] [REF_MEM_WRITE] Addr=0x0ea71e5e Data=0x39
# UVM_INFO ../src/env/axi4_scoreboard.sv(219) @ 5625000: uvm_test_top.env.scb [axi4_scoreboard] [REF_MEM_WRITE] Addr=0x0ea71e5d Data=0x33
# UVM_INFO ../src/env/axi4_scoreboard.sv(219) @ 5625000: uvm_test_top.env.scb [axi4_scoreboard] [REF_MEM_WRITE] Addr=0x0ea71e5e Data=0xd7
# UVM_INFO ../src/env/axi4_scoreboard.sv(219) @ 5625000: uvm_test_top.env.scb [axi4_scoreboard] [REF_MEM_WRITE] Addr=0x0ea71e5f Data=0xa7
# UVM_INFO ../src/env/axi4_scoreboard.sv(219) @ 5625000: uvm_test_top.env.scb [axi4_scoreboard] [REF_MEM_WRITE] Addr=0x0ea71e61 Data=0x83
# UVM_INFO ../src/env/axi4_scoreboard.sv(219) @ 5625000: uvm_test_top.env.scb [axi4_scoreboard] [REF_MEM_WRITE] Addr=0x0ea71e63 Data=0x98
# UVM_INFO ../src/env/axi4_scoreboard.sv(219) @ 5625000: uvm_test_top.env.scb [axi4_scoreboard] [REF_MEM_WRITE] Addr=0x0ea71e63 Data=0x69
# UVM_INFO ../src/env/axi4_scoreboard.sv(219) @ 5625000: uvm_test_top.env.scb [axi4_scoreboard] [REF_MEM_WRITE] Addr=0x0ea71e65 Data=0x60
# UVM_INFO ../src/env/axi4_scoreboard.sv(219) @ 5625000: uvm_test_top.env.scb [axi4_scoreboard] [REF_MEM_WRITE] Addr=0x0ea71e64 Data=0x8c
# UVM_INFO ../src/env/axi4_scoreboard.sv(219) @ 5625000: uvm_test_top.env.scb [axi4_scoreboard] [REF_MEM_WRITE] Addr=0x0ea71e68 Data=0xb0
# UVM_INFO ../src/env/axi4_scoreboard.sv(219) @ 5625000: uvm_test_top.env.scb [axi4_scoreboard] [REF_MEM_WRITE] Addr=0x0ea71e69 Data=0x19
# UVM_INFO ../src/env/axi4_scoreboard.sv(219) @ 5625000: uvm_test_top.env.scb [axi4_scoreboard] [REF_MEM_WRITE] Addr=0x0ea71e6a Data=0x73
# UVM_INFO ../src/env/axi4_scoreboard.sv(219) @ 5625000: uvm_test_top.env.scb [axi4_scoreboard] [REF_MEM_WRITE] Addr=0x0ea71e68 Data=0x95
# UVM_INFO ../src/env/axi4_scoreboard.sv(219) @ 5625000: uvm_test_top.env.scb [axi4_scoreboard] [REF_MEM_WRITE] Addr=0x0ea71e6b Data=0x30
# UVM_INFO ../src/env/axi4_scoreboard.sv(219) @ 5625000: uvm_test_top.env.scb [axi4_scoreboard] [REF_MEM_WRITE] Addr=0x0ea71e6c Data=0x7c
# UVM_INFO ../src/env/axi4_scoreboard.sv(219) @ 5625000: uvm_test_top.env.scb [axi4_scoreboard] [REF_MEM_WRITE] Addr=0x0ea71e6d Data=0x0b
# UVM_INFO ../src/env/axi4_scoreboard.sv(219) @ 5625000: uvm_test_top.env.scb [axi4_scoreboard] [REF_MEM_WRITE] Addr=0x0ea71e6c Data=0x85
# UVM_INFO ../src/env/axi4_scoreboard.sv(219) @ 5625000: uvm_test_top.env.scb [axi4_scoreboard] [REF_MEM_WRITE] Addr=0x0ea71e6d Data=0xef
# UVM_INFO ../src/env/axi4_scoreboard.sv(219) @ 5625000: uvm_test_top.env.scb [axi4_scoreboard] [REF_MEM_WRITE] Addr=0x0ea71e6e Data=0x33
# UVM_INFO ../src/env/axi4_scoreboard.sv(219) @ 5625000: uvm_test_top.env.scb [axi4_scoreboard] [REF_MEM_WRITE] Addr=0x0ea71e6f Data=0x0d
# UVM_INFO ../src/env/axi4_scoreboard.sv(219) @ 5625000: uvm_test_top.env.scb [axi4_scoreboard] [REF_MEM_WRITE] Addr=0x0ea71e70 Data=0x51
# UVM_INFO ../src/env/axi4_scoreboard.sv(219) @ 5625000: uvm_test_top.env.scb [axi4_scoreboard] [REF_MEM_WRITE] Addr=0x0ea71e72 Data=0xd8
# UVM_INFO ../src/env/axi4_scoreboard.sv(219) @ 5625000: uvm_test_top.env.scb [axi4_scoreboard] [REF_MEM_WRITE] Addr=0x0ea71e70 Data=0x1a
# UVM_INFO ../src/env/axi4_scoreboard.sv(219) @ 5625000: uvm_test_top.env.scb [axi4_scoreboard] [REF_MEM_WRITE] Addr=0x0ea71e72 Data=0x7c
# UVM_INFO ../src/env/axi4_scoreboard.sv(219) @ 5625000: uvm_test_top.env.scb [axi4_scoreboard] [REF_MEM_WRITE] Addr=0x0ea71e74 Data=0xcb
# UVM_INFO ../src/env/axi4_scoreboard.sv(219) @ 5625000: uvm_test_top.env.scb [axi4_scoreboard] [REF_MEM_WRITE] Addr=0x0ea71e75 Data=0x32
# UVM_INFO ../src/env/axi4_scoreboard.sv(219) @ 5625000: uvm_test_top.env.scb [axi4_scoreboard] [REF_MEM_WRITE] Addr=0x0ea71e76 Data=0x44
# UVM_INFO ../src/env/axi4_scoreboard.sv(219) @ 5625000: uvm_test_top.env.scb [axi4_scoreboard] [REF_MEM_WRITE] Addr=0x0ea71e77 Data=0x42
# UVM_INFO ../src/env/axi4_scoreboard.sv(219) @ 5625000: uvm_test_top.env.scb [axi4_scoreboard] [REF_MEM_WRITE] Addr=0x0ea71e74 Data=0x0c
# UVM_INFO ../src/env/axi4_scoreboard.sv(219) @ 5625000: uvm_test_top.env.scb [axi4_scoreboard] [REF_MEM_WRITE] Addr=0x0ea71e76 Data=0xd7
# UVM_INFO ../src/env/axi4_scoreboard.sv(219) @ 5625000: uvm_test_top.env.scb [axi4_scoreboard] [REF_MEM_WRITE] Addr=0x0ea71e77 Data=0x92
# UVM_INFO ../src/env/axi4_scoreboard.sv(219) @ 5625000: uvm_test_top.env.scb [axi4_scoreboard] [REF_MEM_WRITE] Addr=0x0ea71e78 Data=0x5d
# UVM_INFO ../src/env/axi4_scoreboard.sv(219) @ 5625000: uvm_test_top.env.scb [axi4_scoreboard] [REF_MEM_WRITE] Addr=0x0ea71e7b Data=0xcc
# UVM_INFO ../src/env/axi4_scoreboard.sv(219) @ 5625000: uvm_test_top.env.scb [axi4_scoreboard] [REF_MEM_WRITE] Addr=0x0ea71e78 Data=0x23
# UVM_INFO ../src/env/axi4_scoreboard.sv(219) @ 5625000: uvm_test_top.env.scb [axi4_scoreboard] [REF_MEM_WRITE] Addr=0x0ea71e7a Data=0x61
# UVM_INFO ../src/env/axi4_scoreboard.sv(219) @ 5625000: uvm_test_top.env.scb [axi4_scoreboard] [REF_MEM_WRITE] Addr=0x0ea71e7d Data=0xb0
# UVM_INFO ../src/env/axi4_scoreboard.sv(219) @ 5625000: uvm_test_top.env.scb [axi4_scoreboard] [REF_MEM_WRITE] Addr=0x0ea71e7f Data=0xe3
# UVM_INFO ../src/env/axi4_scoreboard.sv(219) @ 5625000: uvm_test_top.env.scb [axi4_scoreboard] [REF_MEM_WRITE] Addr=0x0ea71e7c Data=0xe4
# UVM_INFO ../src/env/axi4_scoreboard.sv(219) @ 5625000: uvm_test_top.env.scb [axi4_scoreboard] [REF_MEM_WRITE] Addr=0x0ea71e7d Data=0xb7
# UVM_INFO ../src/env/axi4_scoreboard.sv(219) @ 5625000: uvm_test_top.env.scb [axi4_scoreboard] [REF_MEM_WRITE] Addr=0x0ea71e7e Data=0xf4
# UVM_INFO ../src/env/axi4_scoreboard.sv(219) @ 5625000: uvm_test_top.env.scb [axi4_scoreboard] [REF_MEM_WRITE] Addr=0x0ea71e7f Data=0x31
# UVM_INFO ../src/env/axi4_scoreboard.sv(219) @ 5625000: uvm_test_top.env.scb [axi4_scoreboard] [REF_MEM_WRITE] Addr=0x0ea71e82 Data=0x4d
# UVM_INFO ../src/env/axi4_scoreboard.sv(219) @ 5625000: uvm_test_top.env.scb [axi4_scoreboard] [REF_MEM_WRITE] Addr=0x0ea71e83 Data=0x3e
# UVM_INFO ../src/env/axi4_scoreboard.sv(219) @ 5625000: uvm_test_top.env.scb [axi4_scoreboard] [REF_MEM_WRITE] Addr=0x0ea71e80 Data=0x58
# UVM_INFO ../src/env/axi4_scoreboard.sv(219) @ 5625000: uvm_test_top.env.scb [axi4_scoreboard] [REF_MEM_WRITE] Addr=0x0ea71e84 Data=0x9a
# UVM_INFO ../src/env/axi4_scoreboard.sv(219) @ 5625000: uvm_test_top.env.scb [axi4_scoreboard] [REF_MEM_WRITE] Addr=0x0ea71e86 Data=0xa0
# UVM_INFO ../src/env/axi4_scoreboard.sv(219) @ 5625000: uvm_test_top.env.scb [axi4_scoreboard] [REF_MEM_WRITE] Addr=0x0ea71e87 Data=0xe3
# UVM_INFO ../src/env/axi4_scoreboard.sv(219) @ 5625000: uvm_test_top.env.scb [axi4_scoreboard] [REF_MEM_WRITE] Addr=0x0ea71e88 Data=0xe8
# UVM_INFO ../src/env/axi4_scoreboard.sv(219) @ 5625000: uvm_test_top.env.scb [axi4_scoreboard] [REF_MEM_WRITE] Addr=0x0ea71e89 Data=0xe9
# UVM_INFO ../src/env/axi4_scoreboard.sv(219) @ 5625000: uvm_test_top.env.scb [axi4_scoreboard] [REF_MEM_WRITE] Addr=0x0ea71e8b Data=0xbb
# UVM_INFO ../src/env/axi4_scoreboard.sv(219) @ 5625000: uvm_test_top.env.scb [axi4_scoreboard] [REF_MEM_WRITE] Addr=0x0ea71e88 Data=0x4e
# UVM_INFO ../src/env/axi4_scoreboard.sv(219) @ 5625000: uvm_test_top.env.scb [axi4_scoreboard] [REF_MEM_WRITE] Addr=0x0ea71e8a Data=0x9b
# UVM_INFO ../src/env/axi4_scoreboard.sv(219) @ 5625000: uvm_test_top.env.scb [axi4_scoreboard] [REF_MEM_WRITE] Addr=0x0ea71e8b Data=0x34
# UVM_INFO ../src/env/axi4_scoreboard.sv(219) @ 5625000: uvm_test_top.env.scb [axi4_scoreboard] [REF_MEM_WRITE] Addr=0x0ea71e8c Data=0x03
# UVM_INFO ../src/env/axi4_scoreboard.sv(219) @ 5625000: uvm_test_top.env.scb [axi4_scoreboard] [REF_MEM_WRITE] Addr=0x0ea71e8e Data=0x5b
# UVM_INFO ../src/env/axi4_scoreboard.sv(219) @ 5625000: uvm_test_top.env.scb [axi4_scoreboard] [REF_MEM_WRITE] Addr=0x0ea71e8d Data=0x55
# UVM_INFO ../src/env/axi4_scoreboard.sv(219) @ 5625000: uvm_test_top.env.scb [axi4_scoreboard] [REF_MEM_WRITE] Addr=0x0ea71e8e Data=0x78
# UVM_INFO ../src/env/axi4_scoreboard.sv(219) @ 5625000: uvm_test_top.env.scb [axi4_scoreboard] [REF_MEM_WRITE] Addr=0x0ea71e8f Data=0x4e
# UVM_INFO ../src/env/axi4_scoreboard.sv(219) @ 5625000: uvm_test_top.env.scb [axi4_scoreboard] [REF_MEM_WRITE] Addr=0x0ea71e90 Data=0xf8
# UVM_INFO ../src/env/axi4_scoreboard.sv(219) @ 5625000: uvm_test_top.env.scb [axi4_scoreboard] [REF_MEM_WRITE] Addr=0x0ea71e92 Data=0x55
# UVM_INFO ../src/env/axi4_scoreboard.sv(219) @ 5625000: uvm_test_top.env.scb [axi4_scoreboard] [REF_MEM_WRITE] Addr=0x0ea71e93 Data=0xeb
# UVM_INFO ../src/env/axi4_scoreboard.sv(219) @ 5625000: uvm_test_top.env.scb [axi4_scoreboard] [REF_MEM_WRITE] Addr=0x0ea71e90 Data=0xc1
# UVM_INFO ../src/env/axi4_scoreboard.sv(219) @ 5625000: uvm_test_top.env.scb [axi4_scoreboard] [REF_MEM_WRITE] Addr=0x0ea71e93 Data=0xa9
# UVM_INFO ../src/env/axi4_scoreboard.sv(219) @ 5625000: uvm_test_top.env.scb [axi4_scoreboard] [REF_MEM_WRITE] Addr=0x0ea71e94 Data=0x01
# UVM_INFO ../src/env/axi4_scoreboard.sv(219) @ 5625000: uvm_test_top.env.scb [axi4_scoreboard] [REF_MEM_WRITE] Addr=0x0ea71e95 Data=0x7a
# UVM_INFO ../src/env/axi4_scoreboard.sv(219) @ 5625000: uvm_test_top.env.scb [axi4_scoreboard] [REF_MEM_WRITE] Addr=0x0ea71e97 Data=0x56
# UVM_INFO ../src/env/axi4_scoreboard.sv(219) @ 5625000: uvm_test_top.env.scb [axi4_scoreboard] [REF_MEM_WRITE] Addr=0x0ea71e96 Data=0x16
# UVM_INFO ../src/env/axi4_scoreboard.sv(219) @ 5625000: uvm_test_top.env.scb [axi4_scoreboard] [REF_MEM_WRITE] Addr=0x0ea71e98 Data=0x35
# UVM_INFO ../src/env/axi4_scoreboard.sv(219) @ 5625000: uvm_test_top.env.scb [axi4_scoreboard] [REF_MEM_WRITE] Addr=0x0ea71e9a Data=0xae
# UVM_INFO ../src/env/axi4_scoreboard.sv(219) @ 5625000: uvm_test_top.env.scb [axi4_scoreboard] [REF_MEM_WRITE] Addr=0x0ea71e9b Data=0xc7
# UVM_INFO ../src/env/axi4_scoreboard.sv(219) @ 5625000: uvm_test_top.env.scb [axi4_scoreboard] [REF_MEM_WRITE] Addr=0x0ea71e99 Data=0x3f
# UVM_INFO ../src/env/axi4_scoreboard.sv(219) @ 5625000: uvm_test_top.env.scb [axi4_scoreboard] [REF_MEM_WRITE] Addr=0x0ea71e9b Data=0x86
# UVM_INFO ../src/env/axi4_scoreboard.sv(219) @ 5625000: uvm_test_top.env.scb [axi4_scoreboard] [REF_MEM_WRITE] Addr=0x0ea71e9d Data=0x11
# UVM_INFO ../src/env/axi4_scoreboard.sv(219) @ 5625000: uvm_test_top.env.scb [axi4_scoreboard] [REF_MEM_WRITE] Addr=0x0ea71e9e Data=0xa0
# UVM_INFO ../src/env/axi4_scoreboard.sv(219) @ 5625000: uvm_test_top.env.scb [axi4_scoreboard] [REF_MEM_WRITE] Addr=0x0ea71e9f Data=0x3c
# UVM_INFO ../src/env/axi4_scoreboard.sv(219) @ 5625000: uvm_test_top.env.scb [axi4_scoreboard] [REF_MEM_WRITE] Addr=0x0ea71ea0 Data=0xb7
# UVM_INFO ../src/env/axi4_scoreboard.sv(219) @ 5625000: uvm_test_top.env.scb [axi4_scoreboard] [REF_MEM_WRITE] Addr=0x0ea71ea1 Data=0xe4
# UVM_INFO ../src/env/axi4_scoreboard.sv(219) @ 5625000: uvm_test_top.env.scb [axi4_scoreboard] [REF_MEM_WRITE] Addr=0x0ea71ea2 Data=0x1c
# UVM_INFO ../src/env/axi4_scoreboard.sv(219) @ 5625000: uvm_test_top.env.scb [axi4_scoreboard] [REF_MEM_WRITE] Addr=0x0ea71ea3 Data=0xce
# UVM_INFO ../src/env/axi4_scoreboard.sv(219) @ 5625000: uvm_test_top.env.scb [axi4_scoreboard] [REF_MEM_WRITE] Addr=0x0ea71ea4 Data=0xbd
# UVM_INFO ../src/env/axi4_scoreboard.sv(219) @ 5625000: uvm_test_top.env.scb [axi4_scoreboard] [REF_MEM_WRITE] Addr=0x0ea71ea5 Data=0x2d
# UVM_INFO ../src/env/axi4_scoreboard.sv(219) @ 5625000: uvm_test_top.env.scb [axi4_scoreboard] [REF_MEM_WRITE] Addr=0x0ea71ea6 Data=0xd1
# UVM_INFO ../src/env/axi4_scoreboard.sv(219) @ 5625000: uvm_test_top.env.scb [axi4_scoreboard] [REF_MEM_WRITE] Addr=0x0ea71ea4 Data=0x0b
# UVM_INFO ../src/env/axi4_scoreboard.sv(219) @ 5625000: uvm_test_top.env.scb [axi4_scoreboard] [REF_MEM_WRITE] Addr=0x0ea71ea6 Data=0x99
# UVM_INFO ../src/env/axi4_scoreboard.sv(219) @ 5625000: uvm_test_top.env.scb [axi4_scoreboard] [REF_MEM_WRITE] Addr=0x0ea71eaa Data=0x6e
# UVM_INFO ../src/env/axi4_scoreboard.sv(219) @ 5625000: uvm_test_top.env.scb [axi4_scoreboard] [REF_MEM_WRITE] Addr=0x0ea71eab Data=0x59
# UVM_INFO ../src/env/axi4_scoreboard.sv(219) @ 5625000: uvm_test_top.env.scb [axi4_scoreboard] [REF_MEM_WRITE] Addr=0x0ea71ea8 Data=0x0e
# UVM_INFO ../src/env/axi4_scoreboard.sv(219) @ 5625000: uvm_test_top.env.scb [axi4_scoreboard] [REF_MEM_WRITE] Addr=0x0ea71ea9 Data=0x7c
# UVM_INFO ../src/env/axi4_scoreboard.sv(219) @ 5625000: uvm_test_top.env.scb [axi4_scoreboard] [REF_MEM_WRITE] Addr=0x0ea71eaa Data=0x9f
# UVM_INFO ../src/env/axi4_scoreboard.sv(219) @ 5625000: uvm_test_top.env.scb [axi4_scoreboard] [REF_MEM_WRITE] Addr=0x0ea71ead Data=0x70
# UVM_INFO ../src/env/axi4_scoreboard.sv(219) @ 5625000: uvm_test_top.env.scb [axi4_scoreboard] [REF_MEM_WRITE] Addr=0x0ea71eaf Data=0xa8
# UVM_INFO ../src/env/axi4_scoreboard.sv(219) @ 5625000: uvm_test_top.env.scb [axi4_scoreboard] [REF_MEM_WRITE] Addr=0x0ea71eaf Data=0x47
# UVM_INFO ../src/env/axi4_scoreboard.sv(219) @ 5625000: uvm_test_top.env.scb [axi4_scoreboard] [REF_MEM_WRITE] Addr=0x0ea71eb0 Data=0x79
# UVM_INFO ../src/env/axi4_scoreboard.sv(219) @ 5625000: uvm_test_top.env.scb [axi4_scoreboard] [REF_MEM_WRITE] Addr=0x0ea71eb1 Data=0xdc
# UVM_INFO ../src/env/axi4_scoreboard.sv(219) @ 5625000: uvm_test_top.env.scb [axi4_scoreboard] [REF_MEM_WRITE] Addr=0x0ea71eb3 Data=0x0e
# UVM_INFO ../src/env/axi4_scoreboard.sv(219) @ 5625000: uvm_test_top.env.scb [axi4_scoreboard] [REF_MEM_WRITE] Addr=0x0ea71eb0 Data=0xb8
# UVM_INFO ../src/env/axi4_scoreboard.sv(219) @ 5625000: uvm_test_top.env.scb [axi4_scoreboard] [REF_MEM_WRITE] Addr=0x0ea71eb1 Data=0x8b
# UVM_INFO ../src/env/axi4_scoreboard.sv(219) @ 5625000: uvm_test_top.env.scb [axi4_scoreboard] [REF_MEM_WRITE] Addr=0x0ea71eb3 Data=0x48
# UVM_INFO ../src/env/axi4_scoreboard.sv(219) @ 5625000: uvm_test_top.env.scb [axi4_scoreboard] [REF_MEM_WRITE] Addr=0x0ea71eb4 Data=0xc4
# UVM_INFO ../src/env/axi4_scoreboard.sv(219) @ 5625000: uvm_test_top.env.scb [axi4_scoreboard] [REF_MEM_WRITE] Addr=0x0ea71eb7 Data=0x39
# UVM_INFO ../src/env/axi4_scoreboard.sv(219) @ 5625000: uvm_test_top.env.scb [axi4_scoreboard] [REF_MEM_WRITE] Addr=0x0ea71eb7 Data=0xef
# UVM_INFO ../src/env/axi4_scoreboard.sv(219) @ 5625000: uvm_test_top.env.scb [axi4_scoreboard] [REF_MEM_WRITE] Addr=0x0ea71eb8 Data=0xfc
# UVM_INFO ../src/env/axi4_scoreboard.sv(219) @ 5625000: uvm_test_top.env.scb [axi4_scoreboard] [REF_MEM_WRITE] Addr=0x0ea71eba Data=0x30
# UVM_INFO ../src/env/axi4_scoreboard.sv(219) @ 5625000: uvm_test_top.env.scb [axi4_scoreboard] [REF_MEM_WRITE] Addr=0x0ea71ebb Data=0x49
# UVM_INFO ../src/env/axi4_scoreboard.sv(219) @ 5625000: uvm_test_top.env.scb [axi4_scoreboard] [REF_MEM_WRITE] Addr=0x0ea71eb9 Data=0xeb
# UVM_INFO ../src/env/axi4_scoreboard.sv(219) @ 5625000: uvm_test_top.env.scb [axi4_scoreboard] [REF_MEM_WRITE] Addr=0x0ea71eba Data=0x66
# UVM_INFO ../src/env/axi4_scoreboard.sv(219) @ 5625000: uvm_test_top.env.scb [axi4_scoreboard] [REF_MEM_WRITE] Addr=0x0ea71ebd Data=0xf7
# UVM_INFO ../src/env/axi4_scoreboard.sv(219) @ 5625000: uvm_test_top.env.scb [axi4_scoreboard] [REF_MEM_WRITE] Addr=0x0ea71ebe Data=0x12
# UVM_INFO ../src/env/axi4_scoreboard.sv(219) @ 5625000: uvm_test_top.env.scb [axi4_scoreboard] [REF_MEM_WRITE] Addr=0x0ea71ec0 Data=0x46
# UVM_INFO ../src/env/axi4_scoreboard.sv(219) @ 5625000: uvm_test_top.env.scb [axi4_scoreboard] [REF_MEM_WRITE] Addr=0x0ea71ec1 Data=0x88
# UVM_INFO ../src/env/axi4_scoreboard.sv(219) @ 5625000: uvm_test_top.env.scb [axi4_scoreboard] [REF_MEM_WRITE] Addr=0x0ea71ec0 Data=0xc6
# UVM_INFO ../src/env/axi4_scoreboard.sv(219) @ 5625000: uvm_test_top.env.scb [axi4_scoreboard] [REF_MEM_WRITE] Addr=0x0ea71ec1 Data=0x2d
# UVM_INFO ../src/env/axi4_scoreboard.sv(219) @ 5625000: uvm_test_top.env.scb [axi4_scoreboard] [REF_MEM_WRITE] Addr=0x0ea71ec3 Data=0x23
# UVM_INFO ../src/env/axi4_scoreboard.sv(219) @ 5625000: uvm_test_top.env.scb [axi4_scoreboard] [REF_MEM_WRITE] Addr=0x0ea71ec5 Data=0xbb
# UVM_INFO ../src/env/axi4_scoreboard.sv(219) @ 5625000: uvm_test_top.env.scb [axi4_scoreboard] [REF_MEM_WRITE] Addr=0x0ea71ec6 Data=0x76
# UVM_INFO ../src/env/axi4_scoreboard.sv(219) @ 5625000: uvm_test_top.env.scb [axi4_scoreboard] [REF_MEM_WRITE] Addr=0x0ea71ec7 Data=0x54
# UVM_INFO ../src/env/axi4_scoreboard.sv(219) @ 5625000: uvm_test_top.env.scb [axi4_scoreboard] [REF_MEM_WRITE] Addr=0x0ea71ec4 Data=0x0f
# UVM_INFO ../src/env/axi4_scoreboard.sv(219) @ 5625000: uvm_test_top.env.scb [axi4_scoreboard] [REF_MEM_WRITE] Addr=0x0ea71ec6 Data=0x2a
# UVM_INFO ../src/env/axi4_scoreboard.sv(219) @ 5625000: uvm_test_top.env.scb [axi4_scoreboard] [REF_MEM_WRITE] Addr=0x0ea71ecb Data=0x1a
# UVM_INFO ../src/env/axi4_scoreboard.sv(219) @ 5625000: uvm_test_top.env.scb [axi4_scoreboard] [REF_MEM_WRITE] Addr=0x0ea71ecb Data=0xf8
# UVM_INFO ../src/env/axi4_scoreboard.sv(219) @ 5625000: uvm_test_top.env.scb [axi4_scoreboard] [REF_MEM_WRITE] Addr=0x0ea71ecc Data=0xc1
# UVM_INFO ../src/env/axi4_scoreboard.sv(219) @ 5625000: uvm_test_top.env.scb [axi4_scoreboard] [REF_MEM_WRITE] Addr=0x0ea71ecf Data=0x71
# UVM_INFO ../src/env/axi4_scoreboard.sv(219) @ 5625000: uvm_test_top.env.scb [axi4_scoreboard] [REF_MEM_WRITE] Addr=0x0ea71ecd Data=0x34
# UVM_INFO ../src/env/axi4_scoreboard.sv(219) @ 5625000: uvm_test_top.env.scb [axi4_scoreboard] [REF_MEM_WRITE] Addr=0x0ea71ed0 Data=0x18
# UVM_INFO ../src/env/axi4_scoreboard.sv(219) @ 5625000: uvm_test_top.env.scb [axi4_scoreboard] [REF_MEM_WRITE] Addr=0x0ea71ed1 Data=0x5b
# UVM_INFO ../src/env/axi4_scoreboard.sv(219) @ 5625000: uvm_test_top.env.scb [axi4_scoreboard] [REF_MEM_WRITE] Addr=0x0ea71ed3 Data=0xae
# UVM_INFO ../src/env/axi4_scoreboard.sv(219) @ 5625000: uvm_test_top.env.scb [axi4_scoreboard] [REF_MEM_WRITE] Addr=0x0ea71ed0 Data=0xee
# UVM_INFO ../src/env/axi4_scoreboard.sv(219) @ 5625000: uvm_test_top.env.scb [axi4_scoreboard] [REF_MEM_WRITE] Addr=0x0ea71ed1 Data=0xae
# UVM_INFO ../src/env/axi4_scoreboard.sv(219) @ 5625000: uvm_test_top.env.scb [axi4_scoreboard] [REF_MEM_WRITE] Addr=0x0ea71ed4 Data=0x73
# UVM_INFO ../src/env/axi4_scoreboard.sv(219) @ 5625000: uvm_test_top.env.scb [axi4_scoreboard] [REF_MEM_WRITE] Addr=0x0ea71ed6 Data=0xf2
# UVM_INFO ../src/env/axi4_scoreboard.sv(219) @ 5625000: uvm_test_top.env.scb [axi4_scoreboard] [REF_MEM_WRITE] Addr=0x0ea71ed4 Data=0x0f
# UVM_INFO ../src/env/axi4_scoreboard.sv(219) @ 5625000: uvm_test_top.env.scb [axi4_scoreboard] [REF_MEM_WRITE] Addr=0x0ea71ed6 Data=0xa2
# UVM_INFO ../src/env/axi4_scoreboard.sv(219) @ 5625000: uvm_test_top.env.scb [axi4_scoreboard] [REF_MEM_WRITE] Addr=0x0ea71ed7 Data=0x79
# UVM_INFO ../src/env/axi4_scoreboard.sv(219) @ 5625000: uvm_test_top.env.scb [axi4_scoreboard] [REF_MEM_WRITE] Addr=0x0ea71edb Data=0xf0
# UVM_INFO ../src/env/axi4_scoreboard.sv(219) @ 5625000: uvm_test_top.env.scb [axi4_scoreboard] [REF_MEM_WRITE] Addr=0x0ea71ed8 Data=0xbd
# UVM_INFO ../src/env/axi4_scoreboard.sv(219) @ 5625000: uvm_test_top.env.scb [axi4_scoreboard] [REF_MEM_WRITE] Addr=0x0ea71ed9 Data=0x46
# UVM_INFO ../src/env/axi4_scoreboard.sv(219) @ 5625000: uvm_test_top.env.scb [axi4_scoreboard] [REF_MEM_WRITE] Addr=0x0ea71eda Data=0x5a
# UVM_INFO ../src/env/axi4_scoreboard.sv(219) @ 5625000: uvm_test_top.env.scb [axi4_scoreboard] [REF_MEM_WRITE] Addr=0x0ea71edc Data=0x14
# UVM_INFO ../src/env/axi4_scoreboard.sv(219) @ 5625000: uvm_test_top.env.scb [axi4_scoreboard] [REF_MEM_WRITE] Addr=0x0ea71ede Data=0x23
# UVM_INFO ../src/env/axi4_scoreboard.sv(219) @ 5625000: uvm_test_top.env.scb [axi4_scoreboard] [REF_MEM_WRITE] Addr=0x0ea71edf Data=0x69
# UVM_INFO ../src/env/axi4_scoreboard.sv(219) @ 5625000: uvm_test_top.env.scb [axi4_scoreboard] [REF_MEM_WRITE] Addr=0x0ea71ede Data=0xce
# UVM_INFO ../src/env/axi4_scoreboard.sv(219) @ 5625000: uvm_test_top.env.scb [axi4_scoreboard] [REF_MEM_WRITE] Addr=0x0ea71edf Data=0xe3
# UVM_INFO ../src/env/axi4_scoreboard.sv(219) @ 5625000: uvm_test_top.env.scb [axi4_scoreboard] [REF_MEM_WRITE] Addr=0x0ea71ee1 Data=0x36
# UVM_INFO ../src/env/axi4_scoreboard.sv(219) @ 5625000: uvm_test_top.env.scb [axi4_scoreboard] [REF_MEM_WRITE] Addr=0x0ea71ee3 Data=0xe9
# UVM_INFO ../src/env/axi4_scoreboard.sv(219) @ 5625000: uvm_test_top.env.scb [axi4_scoreboard] [REF_MEM_WRITE] Addr=0x0ea71ee4 Data=0xeb
# UVM_INFO ../src/env/axi4_scoreboard.sv(219) @ 5625000: uvm_test_top.env.scb [axi4_scoreboard] [REF_MEM_WRITE] Addr=0x0ea71ee4 Data=0xdb
# UVM_INFO ../src/env/axi4_scoreboard.sv(219) @ 5625000: uvm_test_top.env.scb [axi4_scoreboard] [REF_MEM_WRITE] Addr=0x0ea71ee5 Data=0x43
# UVM_INFO ../src/env/axi4_scoreboard.sv(219) @ 5625000: uvm_test_top.env.scb [axi4_scoreboard] [REF_MEM_WRITE] Addr=0x0ea71ee6 Data=0xb5
# UVM_INFO ../src/env/axi4_scoreboard.sv(219) @ 5625000: uvm_test_top.env.scb [axi4_scoreboard] [REF_MEM_WRITE] Addr=0x0ea71ee7 Data=0xf1
# UVM_INFO ../src/env/axi4_scoreboard.sv(219) @ 5625000: uvm_test_top.env.scb [axi4_scoreboard] [REF_MEM_WRITE] Addr=0x0ea71eeb Data=0x31
# UVM_INFO ../src/env/axi4_scoreboard.sv(219) @ 5625000: uvm_test_top.env.scb [axi4_scoreboard] [REF_MEM_WRITE] Addr=0x0ea71ee9 Data=0x17
# UVM_INFO ../src/env/axi4_scoreboard.sv(219) @ 5625000: uvm_test_top.env.scb [axi4_scoreboard] [REF_MEM_WRITE] Addr=0x0ea71eea Data=0xdb
# UVM_INFO ../src/env/axi4_scoreboard.sv(219) @ 5625000: uvm_test_top.env.scb [axi4_scoreboard] [REF_MEM_WRITE] Addr=0x0ea71eeb Data=0xf3
# UVM_INFO ../src/env/axi4_scoreboard.sv(219) @ 5625000: uvm_test_top.env.scb [axi4_scoreboard] [REF_MEM_WRITE] Addr=0x0ea71eee Data=0xda
# UVM_INFO ../src/env/axi4_scoreboard.sv(219) @ 5625000: uvm_test_top.env.scb [axi4_scoreboard] [REF_MEM_WRITE] Addr=0x0ea71eef Data=0x68
# UVM_INFO ../src/env/axi4_scoreboard.sv(219) @ 5625000: uvm_test_top.env.scb [axi4_scoreboard] [REF_MEM_WRITE] Addr=0x0ea71ef3 Data=0xea
# UVM_INFO ../src/env/axi4_scoreboard.sv(219) @ 5625000: uvm_test_top.env.scb [axi4_scoreboard] [REF_MEM_WRITE] Addr=0x0ea71ef1 Data=0x19
# UVM_INFO ../src/env/axi4_scoreboard.sv(219) @ 5625000: uvm_test_top.env.scb [axi4_scoreboard] [REF_MEM_WRITE] Addr=0x0ea71ef2 Data=0xae
# UVM_INFO ../src/env/axi4_scoreboard.sv(219) @ 5625000: uvm_test_top.env.scb [axi4_scoreboard] [REF_MEM_WRITE] Addr=0x0ea71ef3 Data=0xd3
# UVM_INFO ../src/env/axi4_scoreboard.sv(219) @ 5625000: uvm_test_top.env.scb [axi4_scoreboard] [REF_MEM_WRITE] Addr=0x0ea71ef5 Data=0x8b
# UVM_INFO ../src/env/axi4_scoreboard.sv(219) @ 5625000: uvm_test_top.env.scb [axi4_scoreboard] [REF_MEM_WRITE] Addr=0x0ea71ef4 Data=0x92
# UVM_INFO ../src/env/axi4_scoreboard.sv(219) @ 5625000: uvm_test_top.env.scb [axi4_scoreboard] [REF_MEM_WRITE] Addr=0x0ea71ef5 Data=0x68
# UVM_INFO ../src/env/axi4_scoreboard.sv(219) @ 5625000: uvm_test_top.env.scb [axi4_scoreboard] [REF_MEM_WRITE] Addr=0x0ea71ef6 Data=0x62
# UVM_INFO ../src/env/axi4_scoreboard.sv(219) @ 5625000: uvm_test_top.env.scb [axi4_scoreboard] [REF_MEM_WRITE] Addr=0x0ea71ef7 Data=0x6f
# UVM_INFO ../src/env/axi4_scoreboard.sv(219) @ 5625000: uvm_test_top.env.scb [axi4_scoreboard] [REF_MEM_WRITE] Addr=0x0ea71ef9 Data=0xc9
# UVM_INFO ../src/env/axi4_scoreboard.sv(219) @ 5625000: uvm_test_top.env.scb [axi4_scoreboard] [REF_MEM_WRITE] Addr=0x0ea71efb Data=0x7b
# UVM_INFO ../src/env/axi4_scoreboard.sv(219) @ 5625000: uvm_test_top.env.scb [axi4_scoreboard] [REF_MEM_WRITE] Addr=0x0ea71ef9 Data=0x9c
# UVM_INFO ../src/env/axi4_scoreboard.sv(219) @ 5625000: uvm_test_top.env.scb [axi4_scoreboard] [REF_MEM_WRITE] Addr=0x0ea71efa Data=0x91
# UVM_INFO ../src/env/axi4_scoreboard.sv(219) @ 5625000: uvm_test_top.env.scb [axi4_scoreboard] [REF_MEM_WRITE] Addr=0x0ea71efd Data=0xb3
# UVM_INFO ../src/env/axi4_scoreboard.sv(219) @ 5625000: uvm_test_top.env.scb [axi4_scoreboard] [REF_MEM_WRITE] Addr=0x0ea71efe Data=0xcd
# UVM_INFO ../src/env/axi4_scoreboard.sv(219) @ 5625000: uvm_test_top.env.scb [axi4_scoreboard] [REF_MEM_WRITE] Addr=0x0ea71efc Data=0x08
# UVM_INFO ../src/env/axi4_scoreboard.sv(219) @ 5625000: uvm_test_top.env.scb [axi4_scoreboard] [REF_MEM_WRITE] Addr=0x0ea71eff Data=0x2e
