# vsim -c -coverage -sv_seed 21543180 "+UVM_TESTNAME=axi4_wr_rd_test" "+UVM_VERBOSITY=UVM_HIGH" "+DUMP_VCD" -l ./report/logs/axi4_wr_rd_test_run_3_seed_21543180.log -do "coverage save -onexit ./report/coverage/axi4_wr_rd_test_run_3_seed_21543180.ucdb; run -all; quit -f" opt_tb_top 
# Start time: 09:30:54 on Jun 11,2026
# //  Questa Sim-64
# //  Version 10.6b linux_x86_64 May 25 2017
# //
# //  Copyright 1991-2017 Mentor Graphics Corporation
# //  All Rights Reserved.
# //
# //  QuestaSim and its associated documentation contain trade
# //  secrets and commercial or financial information that are the property of
# //  Mentor Graphics Corporation and are privileged, confidential,
# //  and exempt from disclosure under the Freedom of Information Act,
# //  5 U.S.C. Section 552. Furthermore, this information
# //  is prohibited from disclosure under the Trade Secrets Act,
# //  18 U.S.C. Section 1905.
# //
# Loading sv_std.std
# Loading work.axi4_if(fast)
# Loading mtiUvm.uvm_pkg
# Loading work.axi4_pkg(fast)
# Loading work.axi4_test_pkg(fast)
# Loading work.tb_top(fast)
# Loading work.axi4_if(fast)
# Loading work.axi4_sva(fast)
# Loading mtiUvm.questa_uvm_pkg(fast)
# Loading /cadtools/mentor/Questa_10.6b/questasim/uvm-1.1d/linux_x86_64/uvm_dpi.so
# coverage save -onexit ./report/coverage/axi4_wr_rd_test_run_3_seed_21543180.ucdb
#  run -all
# ----------------------------------------------------------------
# UVM-1.1d
# (C) 2007-2013 Mentor Graphics Corporation
# (C) 2007-2013 Cadence Design Systems, Inc.
# (C) 2006-2013 Synopsys, Inc.
# (C) 2011-2013 Cypress Semiconductor Corp.
# ----------------------------------------------------------------
# 
#   ***********       IMPORTANT RELEASE NOTES         ************
# 
#   You are using a version of the UVM library that has been compiled
#   with `UVM_NO_DEPRECATED undefined.
#   See http://www.eda.org/svdb/view.php?id=3313 for more details.
# 
#   You are using a version of the UVM library that has been compiled
#   with `UVM_OBJECT_MUST_HAVE_CONSTRUCTOR undefined.
#   See http://www.eda.org/svdb/view.php?id=3770 for more details.
# 
#       (Specify +UVM_NO_RELNOTES to turn off this notice)
# 
# UVM_INFO verilog_src/questa_uvm_pkg-1.2/src/questa_uvm_pkg.sv(215) @ 0: reporter [Questa UVM] QUESTA_UVM-1.2.3
# UVM_INFO verilog_src/questa_uvm_pkg-1.2/src/questa_uvm_pkg.sv(217) @ 0: reporter [Questa UVM]  questa_uvm::init(+struct)
# UVM_INFO ../src/tb_top.sv(128) @ 0: reporter [TB_TOP] Virtual interface set in config_db
# UVM_INFO @ 0: reporter [RNTST] Running test axi4_wr_rd_test...
# UVM_INFO ../src/tb_top.sv(142) @ 0: reporter [TB_TOP] Waveform VCD dumping enabled (axi4_vip.vcd)
# UVM_INFO ../src/env/axi4_vip_env.sv(83) @ 0: uvm_test_top.env [axi4_vip_env] slave_vif not set - reusing master_vif (passthrough mode)
# UVM_INFO ../src/env/axi4_vip_env.sv(93) @ 0: uvm_test_top.env [axi4_vip_env] Scoreboard created
# UVM_INFO ../src/env/axi4_vip_env.sv(100) @ 0: uvm_test_top.env [axi4_vip_env] Coverage collectors created
# UVM_INFO ../src/mst/axi4_master_agent.sv(69) @ 0: uvm_test_top.env.master_agent [axi4_master_agent] ACTIVE mode - driver + sequencer created
# UVM_INFO ../src/slv/axi4_slave_agent.sv(82) @ 0: uvm_test_top.env.slave_agent [axi4_slave_agent] ACTIVE mode — ready_delay=[0:0] resp_delay=[0:0]
# UVM_INFO ../src/env/axi4_vip_env.sv(116) @ 0: uvm_test_top.env [axi4_vip_env] Scoreboard connected: master_mon.ap -> scb, slave_mon.ap -> scb
# UVM_INFO ../src/env/axi4_vip_env.sv(124) @ 0: uvm_test_top.env [axi4_vip_env] Coverage connected: master_mon.ap -> master_cov, slave_mon.ap -> slave_cov
# UVM_INFO @ 0: reporter [UVMTOP] UVM testbench topology:
# ---------------------------------------------------------------
# Name                       Type                     Size  Value
# ---------------------------------------------------------------
# uvm_test_top               axi4_wr_rd_test          -     @473 
#   env                      axi4_vip_env             -     @488 
#     master_agent           axi4_master_agent        -     @503 
#       drv                  axi4_master_driver       -     @567 
#         rsp_port           uvm_analysis_port        -     @582 
#         seq_item_port      uvm_seq_item_pull_port   -     @574 
#       mon                  axi4_master_monitor      -     @559 
#         ap                 uvm_analysis_port        -     @700 
#       sqr                  axi4_master_sequencer    -     @590 
#         rsp_export         uvm_analysis_export      -     @597 
#         seq_item_export    uvm_seq_item_pull_imp    -     @691 
#         arbitration_queue  array                    0     -    
#         lock_queue         array                    0     -    
#         num_last_reqs      integral                 32    'd1  
#         num_last_rsps      integral                 32    'd1  
#     master_cov             axi4_coverage            -     @524 
#       analysis_imp         uvm_analysis_imp         -     @531 
#     scb                    axi4_scoreboard          -     @517 
#       master_export        uvm_analysis_imp_master  -     @714 
#       slave_export         uvm_analysis_imp_slave   -     @722 
#     slave_agent            axi4_slave_agent         -     @510 
#       drv                  axi4_slave_driver        -     @753 
#         rsp_port           uvm_analysis_port        -     @768 
#         seq_item_port      uvm_seq_item_pull_port   -     @760 
#       mon                  axi4_slave_monitor       -     @735 
#         ap                 uvm_analysis_port        -     @892 
#       sqr                  axi4_slave_sequencer     -     @776 
#         rsp_export         uvm_analysis_export      -     @783 
#         seq_item_export    uvm_seq_item_pull_imp    -     @877 
#         arbitration_queue  array                    0     -    
#         lock_queue         array                    0     -    
#         num_last_reqs      integral                 32    'd1  
#         num_last_rsps      integral                 32    'd1  
#     slave_cov              axi4_coverage            -     @539 
#       analysis_imp         uvm_analysis_imp         -     @546 
# ---------------------------------------------------------------
# 
# UVM_INFO verilog_src/questa_uvm_pkg-1.2/src/questa_uvm_pkg.sv(277) @ 0: reporter [Questa UVM] End Of Elaboration
# UVM_INFO ../src/test/axi4_wr_rd_test.sv(37) @ 0: uvm_test_top [axi4_wr_rd_test] Starting 10 write-read-back iterations
# UVM_INFO ../src/test/axi4_wr_rd_test.sv(52) @ 0: uvm_test_top [axi4_wr_rd_test] [1/10] ADDR=0x4b7ab3f3 LEN=5 BURST=AXI4_BURST_INCR
# UVM_INFO ../src/tb_top.sv(49) @ 95000: reporter [TOP_TB] Reset de-asserted
# UVM_INFO ../src/slv/axi4_slave_driver.sv(122) @ 95000: uvm_test_top.env.slave_agent.drv [axi4_slave_driver] Reset deasserted - slave driver active
# UVM_INFO ../src/mst/axi4_master_driver.sv(64) @ 95000: uvm_test_top.env.master_agent.drv [axi4_master_driver] Reset deasserted - master driver active
# UVM_INFO ../src/mst/axi4_master_monitor.sv(77) @ 95000: uvm_test_top.env.master_agent.mon [axi4_master_monitor] Reset deasserted - monitor active
# UVM_INFO ../src/slv/axi4_slave_monitor.sv(71) @ 95000: uvm_test_top.env.slave_agent.mon [axi4_slave_monitor] Reset deasserted - monitor active
# UVM_INFO ../src/mst/axi4_master_driver.sv(73) @ 95000: uvm_test_top.env.master_agent.drv [axi4_master_driver] Driving AXI4_WRITE  ID=0xb  ADDR=0x4b7ab3f3  LEN=5
# UVM_INFO ../src/seq/axi4_write_read_back_seq.sv(60) @ 95000: uvm_test_top.env.master_agent.sqr@@wr_rd_seq_0 [axi4_write_read_back_seq] Write phase: ADDR=0x4b7ab3f3 LEN=5 SIZE=AXI4_SIZE_4B BURST=AXI4_BURST_INCR
# UVM_INFO ../src/mst/axi4_master_driver.sv(73) @ 95000: uvm_test_top.env.master_agent.drv [axi4_master_driver] Driving AXI4_READ  ID=0x7  ADDR=0x4b7ab3f3  LEN=5
# UVM_INFO ../src/seq/axi4_write_read_back_seq.sv(80) @ 95000: uvm_test_top.env.master_agent.sqr@@wr_rd_seq_0 [axi4_write_read_back_seq] Read-back phase: ADDR=0x4b7ab3f3 LEN=5 - data integrity check via scoreboard
# UVM_INFO ../src/test/axi4_wr_rd_test.sv(52) @ 95000: uvm_test_top [axi4_wr_rd_test] [2/10] ADDR=0x22864a3a LEN=3 BURST=AXI4_BURST_INCR
# UVM_INFO ../src/mst/axi4_master_driver.sv(73) @ 95000: uvm_test_top.env.master_agent.drv [axi4_master_driver] Driving AXI4_WRITE  ID=0x9  ADDR=0x22864a3a  LEN=3
# UVM_INFO ../src/seq/axi4_write_read_back_seq.sv(60) @ 95000: uvm_test_top.env.master_agent.sqr@@wr_rd_seq_1 [axi4_write_read_back_seq] Write phase: ADDR=0x22864a3a LEN=3 SIZE=AXI4_SIZE_4B BURST=AXI4_BURST_INCR
# UVM_INFO ../src/mst/axi4_master_driver.sv(73) @ 95000: uvm_test_top.env.master_agent.drv [axi4_master_driver] Driving AXI4_READ  ID=0x9  ADDR=0x22864a3a  LEN=3
# UVM_INFO ../src/seq/axi4_write_read_back_seq.sv(80) @ 95000: uvm_test_top.env.master_agent.sqr@@wr_rd_seq_1 [axi4_write_read_back_seq] Read-back phase: ADDR=0x22864a3a LEN=3 - data integrity check via scoreboard
# UVM_INFO ../src/test/axi4_wr_rd_test.sv(52) @ 95000: uvm_test_top [axi4_wr_rd_test] [3/10] ADDR=0x4f1d924b LEN=7 BURST=AXI4_BURST_INCR
# UVM_INFO ../src/mst/axi4_master_driver.sv(73) @ 95000: uvm_test_top.env.master_agent.drv [axi4_master_driver] Driving AXI4_WRITE  ID=0x2  ADDR=0x4f1d924b  LEN=7
# UVM_INFO ../src/seq/axi4_write_read_back_seq.sv(60) @ 95000: uvm_test_top.env.master_agent.sqr@@wr_rd_seq_2 [axi4_write_read_back_seq] Write phase: ADDR=0x4f1d924b LEN=7 SIZE=AXI4_SIZE_4B BURST=AXI4_BURST_INCR
# UVM_INFO ../src/mst/axi4_master_driver.sv(73) @ 95000: uvm_test_top.env.master_agent.drv [axi4_master_driver] Driving AXI4_READ  ID=0x1  ADDR=0x4f1d924b  LEN=7
# UVM_INFO ../src/seq/axi4_write_read_back_seq.sv(80) @ 95000: uvm_test_top.env.master_agent.sqr@@wr_rd_seq_2 [axi4_write_read_back_seq] Read-back phase: ADDR=0x4f1d924b LEN=7 - data integrity check via scoreboard
# UVM_INFO ../src/test/axi4_wr_rd_test.sv(52) @ 95000: uvm_test_top [axi4_wr_rd_test] [4/10] ADDR=0xdeaf891b LEN=2 BURST=AXI4_BURST_INCR
# UVM_INFO ../src/mst/axi4_master_driver.sv(73) @ 95000: uvm_test_top.env.master_agent.drv [axi4_master_driver] Driving AXI4_WRITE  ID=0xe  ADDR=0xdeaf891b  LEN=2
# UVM_INFO ../src/seq/axi4_write_read_back_seq.sv(60) @ 95000: uvm_test_top.env.master_agent.sqr@@wr_rd_seq_3 [axi4_write_read_back_seq] Write phase: ADDR=0xdeaf891b LEN=2 SIZE=AXI4_SIZE_4B BURST=AXI4_BURST_INCR
# UVM_INFO ../src/mst/axi4_master_driver.sv(73) @ 95000: uvm_test_top.env.master_agent.drv [axi4_master_driver] Driving AXI4_READ  ID=0xa  ADDR=0xdeaf891b  LEN=2
# UVM_INFO ../src/seq/axi4_write_read_back_seq.sv(80) @ 95000: uvm_test_top.env.master_agent.sqr@@wr_rd_seq_3 [axi4_write_read_back_seq] Read-back phase: ADDR=0xdeaf891b LEN=2 - data integrity check via scoreboard
# UVM_INFO ../src/test/axi4_wr_rd_test.sv(52) @ 95000: uvm_test_top [axi4_wr_rd_test] [5/10] ADDR=0xbeff9e51 LEN=0 BURST=AXI4_BURST_INCR
# UVM_INFO ../src/mst/axi4_master_driver.sv(73) @ 95000: uvm_test_top.env.master_agent.drv [axi4_master_driver] Driving AXI4_WRITE  ID=0xa  ADDR=0xbeff9e51  LEN=0
# UVM_INFO ../src/seq/axi4_write_read_back_seq.sv(60) @ 95000: uvm_test_top.env.master_agent.sqr@@wr_rd_seq_4 [axi4_write_read_back_seq] Write phase: ADDR=0xbeff9e51 LEN=0 SIZE=AXI4_SIZE_4B BURST=AXI4_BURST_INCR
# UVM_INFO ../src/mst/axi4_master_driver.sv(73) @ 95000: uvm_test_top.env.master_agent.drv [axi4_master_driver] Driving AXI4_READ  ID=0x8  ADDR=0xbeff9e51  LEN=0
# UVM_INFO ../src/seq/axi4_write_read_back_seq.sv(80) @ 95000: uvm_test_top.env.master_agent.sqr@@wr_rd_seq_4 [axi4_write_read_back_seq] Read-back phase: ADDR=0xbeff9e51 LEN=0 - data integrity check via scoreboard
# UVM_INFO ../src/test/axi4_wr_rd_test.sv(52) @ 95000: uvm_test_top [axi4_wr_rd_test] [6/10] ADDR=0x7a71fcc2 LEN=2 BURST=AXI4_BURST_INCR
# UVM_INFO ../src/mst/axi4_master_driver.sv(73) @ 95000: uvm_test_top.env.master_agent.drv [axi4_master_driver] Driving AXI4_WRITE  ID=0x7  ADDR=0x7a71fcc2  LEN=2
# UVM_INFO ../src/seq/axi4_write_read_back_seq.sv(60) @ 95000: uvm_test_top.env.master_agent.sqr@@wr_rd_seq_5 [axi4_write_read_back_seq] Write phase: ADDR=0x7a71fcc2 LEN=2 SIZE=AXI4_SIZE_4B BURST=AXI4_BURST_INCR
# UVM_INFO ../src/mst/axi4_master_driver.sv(73) @ 95000: uvm_test_top.env.master_agent.drv [axi4_master_driver] Driving AXI4_READ  ID=0x2  ADDR=0x7a71fcc2  LEN=2
# UVM_INFO ../src/seq/axi4_write_read_back_seq.sv(80) @ 95000: uvm_test_top.env.master_agent.sqr@@wr_rd_seq_5 [axi4_write_read_back_seq] Read-back phase: ADDR=0x7a71fcc2 LEN=2 - data integrity check via scoreboard
# UVM_INFO ../src/test/axi4_wr_rd_test.sv(52) @ 95000: uvm_test_top [axi4_wr_rd_test] [7/10] ADDR=0x259c4984 LEN=5 BURST=AXI4_BURST_INCR
# UVM_INFO ../src/mst/axi4_master_driver.sv(73) @ 95000: uvm_test_top.env.master_agent.drv [axi4_master_driver] Driving AXI4_WRITE  ID=0x4  ADDR=0x259c4984  LEN=5
# UVM_INFO ../src/seq/axi4_write_read_back_seq.sv(60) @ 95000: uvm_test_top.env.master_agent.sqr@@wr_rd_seq_6 [axi4_write_read_back_seq] Write phase: ADDR=0x259c4984 LEN=5 SIZE=AXI4_SIZE_4B BURST=AXI4_BURST_INCR
# UVM_INFO ../src/mst/axi4_master_driver.sv(73) @ 95000: uvm_test_top.env.master_agent.drv [axi4_master_driver] Driving AXI4_READ  ID=0x7  ADDR=0x259c4984  LEN=5
# UVM_INFO ../src/seq/axi4_write_read_back_seq.sv(80) @ 95000: uvm_test_top.env.master_agent.sqr@@wr_rd_seq_6 [axi4_write_read_back_seq] Read-back phase: ADDR=0x259c4984 LEN=5 - data integrity check via scoreboard
# UVM_INFO ../src/test/axi4_wr_rd_test.sv(52) @ 95000: uvm_test_top [axi4_wr_rd_test] [8/10] ADDR=0x4dd21883 LEN=11 BURST=AXI4_BURST_INCR
# UVM_INFO ../src/mst/axi4_master_driver.sv(73) @ 95000: uvm_test_top.env.master_agent.drv [axi4_master_driver] Driving AXI4_WRITE  ID=0x1  ADDR=0x4dd21883  LEN=11
# UVM_INFO ../src/seq/axi4_write_read_back_seq.sv(60) @ 95000: uvm_test_top.env.master_agent.sqr@@wr_rd_seq_7 [axi4_write_read_back_seq] Write phase: ADDR=0x4dd21883 LEN=11 SIZE=AXI4_SIZE_4B BURST=AXI4_BURST_INCR
# UVM_INFO ../src/mst/axi4_master_driver.sv(73) @ 95000: uvm_test_top.env.master_agent.drv [axi4_master_driver] Driving AXI4_READ  ID=0xe  ADDR=0x4dd21883  LEN=11
# UVM_INFO ../src/seq/axi4_write_read_back_seq.sv(80) @ 95000: uvm_test_top.env.master_agent.sqr@@wr_rd_seq_7 [axi4_write_read_back_seq] Read-back phase: ADDR=0x4dd21883 LEN=11 - data integrity check via scoreboard
# UVM_INFO ../src/test/axi4_wr_rd_test.sv(52) @ 95000: uvm_test_top [axi4_wr_rd_test] [9/10] ADDR=0xe62b045e LEN=9 BURST=AXI4_BURST_INCR
# UVM_INFO ../src/mst/axi4_master_driver.sv(73) @ 95000: uvm_test_top.env.master_agent.drv [axi4_master_driver] Driving AXI4_WRITE  ID=0xf  ADDR=0xe62b045e  LEN=9
# UVM_INFO ../src/seq/axi4_write_read_back_seq.sv(60) @ 95000: uvm_test_top.env.master_agent.sqr@@wr_rd_seq_8 [axi4_write_read_back_seq] Write phase: ADDR=0xe62b045e LEN=9 SIZE=AXI4_SIZE_4B BURST=AXI4_BURST_INCR
# UVM_INFO ../src/mst/axi4_master_driver.sv(73) @ 95000: uvm_test_top.env.master_agent.drv [axi4_master_driver] Driving AXI4_READ  ID=0x5  ADDR=0xe62b045e  LEN=9
# UVM_INFO ../src/seq/axi4_write_read_back_seq.sv(80) @ 95000: uvm_test_top.env.master_agent.sqr@@wr_rd_seq_8 [axi4_write_read_back_seq] Read-back phase: ADDR=0xe62b045e LEN=9 - data integrity check via scoreboard
# UVM_INFO ../src/test/axi4_wr_rd_test.sv(52) @ 95000: uvm_test_top [axi4_wr_rd_test] [10/10] ADDR=0xee9b3145 LEN=12 BURST=AXI4_BURST_INCR
# UVM_INFO ../src/mst/axi4_master_driver.sv(73) @ 95000: uvm_test_top.env.master_agent.drv [axi4_master_driver] Driving AXI4_WRITE  ID=0xa  ADDR=0xee9b3145  LEN=12
# UVM_INFO ../src/seq/axi4_write_read_back_seq.sv(60) @ 95000: uvm_test_top.env.master_agent.sqr@@wr_rd_seq_9 [axi4_write_read_back_seq] Write phase: ADDR=0xee9b3145 LEN=12 SIZE=AXI4_SIZE_4B BURST=AXI4_BURST_INCR
# UVM_INFO ../src/mst/axi4_master_driver.sv(73) @ 95000: uvm_test_top.env.master_agent.drv [axi4_master_driver] Driving AXI4_READ  ID=0x5  ADDR=0xee9b3145  LEN=12
# UVM_INFO ../src/seq/axi4_write_read_back_seq.sv(80) @ 95000: uvm_test_top.env.master_agent.sqr@@wr_rd_seq_9 [axi4_write_read_back_seq] Read-back phase: ADDR=0xee9b3145 LEN=12 - data integrity check via scoreboard
# UVM_INFO ../src/slv/axi4_slave_driver.sv(358) @ 115000: uvm_test_top.env.slave_agent.drv [axi4_slave_driver] AR received: ID=0x7 ADDR=0x4b7ab3f3 LEN=5 LOCK=AXI4_LOCK_NORMAL
# UVM_INFO ../src/slv/axi4_slave_driver.sv(212) @ 115000: uvm_test_top.env.slave_agent.drv [axi4_slave_driver] AW received: ID=0xb ADDR=0x4b7ab3f3 LEN=5 LOCK=AXI4_LOCK_EXCLUSIVE
# UVM_INFO ../src/slv/axi4_slave_monitor.sv(224) @ 115000: uvm_test_top.env.slave_agent.mon [axi4_slave_monitor] AR received: ID=0x7 ADDR=0x4b7ab3f3 LEN=5
# UVM_INFO ../src/slv/axi4_slave_monitor.sv(116) @ 115000: uvm_test_top.env.slave_agent.mon [axi4_slave_monitor] AW received: ID=0xb ADDR=0x4b7ab3f3 LEN=5
# UVM_INFO ../src/mst/axi4_master_monitor.sv(246) @ 115000: uvm_test_top.env.master_agent.mon [axi4_master_monitor] AR observed: ID=0x7 ADDR=0x4b7ab3f3 LEN=5
# UVM_INFO ../src/mst/axi4_master_monitor.sv(124) @ 115000: uvm_test_top.env.master_agent.mon [axi4_master_monitor] AW observed: ID=0xb ADDR=0x4b7ab3f3 LEN=5
# UVM_INFO ../src/slv/axi4_slave_driver.sv(212) @ 145000: uvm_test_top.env.slave_agent.drv [axi4_slave_driver] AW received: ID=0x9 ADDR=0x22864a3a LEN=3 LOCK=AXI4_LOCK_NORMAL
# UVM_INFO ../src/slv/axi4_slave_driver.sv(358) @ 145000: uvm_test_top.env.slave_agent.drv [axi4_slave_driver] AR received: ID=0x9 ADDR=0x22864a3a LEN=3 LOCK=AXI4_LOCK_NORMAL
# UVM_INFO ../src/mst/axi4_master_monitor.sv(124) @ 145000: uvm_test_top.env.master_agent.mon [axi4_master_monitor] AW observed: ID=0x9 ADDR=0x22864a3a LEN=3
# UVM_INFO ../src/mst/axi4_master_monitor.sv(246) @ 145000: uvm_test_top.env.master_agent.mon [axi4_master_monitor] AR observed: ID=0x9 ADDR=0x22864a3a LEN=3
# UVM_INFO ../src/slv/axi4_slave_monitor.sv(116) @ 145000: uvm_test_top.env.slave_agent.mon [axi4_slave_monitor] AW received: ID=0x9 ADDR=0x22864a3a LEN=3
# UVM_INFO ../src/slv/axi4_slave_monitor.sv(224) @ 145000: uvm_test_top.env.slave_agent.mon [axi4_slave_monitor] AR received: ID=0x9 ADDR=0x22864a3a LEN=3
# UVM_INFO ../src/slv/axi4_slave_driver.sv(358) @ 175000: uvm_test_top.env.slave_agent.drv [axi4_slave_driver] AR received: ID=0x1 ADDR=0x4f1d924b LEN=7 LOCK=AXI4_LOCK_EXCLUSIVE
# UVM_INFO ../src/slv/axi4_slave_monitor.sv(224) @ 175000: uvm_test_top.env.slave_agent.mon [axi4_slave_monitor] AR received: ID=0x1 ADDR=0x4f1d924b LEN=7
# UVM_INFO ../src/mst/axi4_master_monitor.sv(246) @ 175000: uvm_test_top.env.master_agent.mon [axi4_master_monitor] AR observed: ID=0x1 ADDR=0x4f1d924b LEN=7
# UVM_INFO ../src/slv/axi4_slave_driver.sv(358) @ 205000: uvm_test_top.env.slave_agent.drv [axi4_slave_driver] AR received: ID=0xa ADDR=0xdeaf891b LEN=2 LOCK=AXI4_LOCK_EXCLUSIVE
# UVM_INFO ../src/mst/axi4_master_monitor.sv(246) @ 205000: uvm_test_top.env.master_agent.mon [axi4_master_monitor] AR observed: ID=0xa ADDR=0xdeaf891b LEN=2
# UVM_INFO ../src/slv/axi4_slave_monitor.sv(224) @ 205000: uvm_test_top.env.slave_agent.mon [axi4_slave_monitor] AR received: ID=0xa ADDR=0xdeaf891b LEN=2
# UVM_INFO ../src/mst/axi4_master_driver.sv(348) @ 235000: uvm_test_top.env.master_agent.drv [axi4_master_driver] Master driver received all R beats for ID=0x7
# UVM_INFO ../src/slv/axi4_slave_driver.sv(358) @ 235000: uvm_test_top.env.slave_agent.drv [axi4_slave_driver] AR received: ID=0x8 ADDR=0xbeff9e51 LEN=0 LOCK=AXI4_LOCK_EXCLUSIVE
# UVM_INFO ../src/slv/axi4_slave_driver.sv(464) @ 235000: uvm_test_top.env.slave_agent.drv [axi4_slave_driver] Read complete: ID=0x7 ADDR=0x4b7ab3f3 RESP=AXI4_RESP_OKAY  6 beats sent
# UVM_INFO ../src/slv/axi4_slave_monitor.sv(287) @ 235000: uvm_test_top.env.slave_agent.mon [axi4_slave_monitor] Read data sent: ID=0x7 ADDR=0x4b7ab3f3 6 beats
# UVM_INFO ../src/env/axi4_scoreboard.sv(108) @ 235000: uvm_test_top.env.scb [axi4_scoreboard] Slave AXI4_READ received: ID=0x7 ADDR=0x4b7ab3f3 LEN=5
# UVM_INFO ../src/slv/axi4_slave_monitor.sv(224) @ 235000: uvm_test_top.env.slave_agent.mon [axi4_slave_monitor] AR received: ID=0x8 ADDR=0xbeff9e51 LEN=0
# UVM_INFO ../src/mst/axi4_master_monitor.sv(314) @ 235000: uvm_test_top.env.master_agent.mon [axi4_master_monitor] Read complete: ID=0x7 ADDR=0x4b7ab3f3 6 beats
# UVM_INFO ../src/env/axi4_scoreboard.sv(87) @ 235000: uvm_test_top.env.scb [axi4_scoreboard] Master AXI4_READ received: ID=0x7 ADDR=0x4b7ab3f3 LEN=5
# UVM_INFO ../src/env/axi4_scoreboard.sv(291) @ 235000: uvm_test_top.env.scb [axi4_scoreboard] [READ] MATCH #1: ID=0x7 ADDR=0x4b7ab3f3 LEN=5
# UVM_INFO ../src/mst/axi4_master_monitor.sv(246) @ 235000: uvm_test_top.env.master_agent.mon [axi4_master_monitor] AR observed: ID=0x8 ADDR=0xbeff9e51 LEN=0
# UVM_INFO ../src/slv/axi4_slave_monitor.sv(167) @ 235000: uvm_test_top.env.slave_agent.mon [axi4_slave_monitor] W data assembled: ID=0xb ADDR=0x4b7ab3f3 6 beats
# UVM_INFO ../src/mst/axi4_master_monitor.sv(184) @ 235000: uvm_test_top.env.master_agent.mon [axi4_master_monitor] W data assembled: ID=0xb ADDR=0x4b7ab3f3 6 beats
# UVM_INFO ../src/mst/axi4_master_driver.sv(289) @ 265000: uvm_test_top.env.master_agent.drv [axi4_master_driver] Master driver received B response: ID=0xb RESP=AXI4_RESP_OKAY
# UVM_INFO ../src/slv/axi4_slave_driver.sv(358) @ 265000: uvm_test_top.env.slave_agent.drv [axi4_slave_driver] AR received: ID=0x2 ADDR=0x7a71fcc2 LEN=2 LOCK=AXI4_LOCK_NORMAL
# UVM_INFO ../src/slv/axi4_slave_driver.sv(320) @ 265000: uvm_test_top.env.slave_agent.drv [axi4_slave_driver] Write complete: ID=0xb RESP=AXI4_RESP_OKAY
# UVM_INFO ../src/mst/axi4_master_monitor.sv(210) @ 265000: uvm_test_top.env.master_agent.mon [axi4_master_monitor] Write complete: ID=0xb ADDR=0x4b7ab3f3 RESP=AXI4_RESP_OKAY
# UVM_INFO ../src/env/axi4_scoreboard.sv(87) @ 265000: uvm_test_top.env.scb [axi4_scoreboard] Master AXI4_WRITE received: ID=0xb ADDR=0x4b7ab3f3 LEN=5
# UVM_INFO ../src/mst/axi4_master_monitor.sv(246) @ 265000: uvm_test_top.env.master_agent.mon [axi4_master_monitor] AR observed: ID=0x2 ADDR=0x7a71fcc2 LEN=2
# UVM_INFO ../src/slv/axi4_slave_monitor.sv(189) @ 265000: uvm_test_top.env.slave_agent.mon [axi4_slave_monitor] Write response sent: ID=0xb ADDR=0x4b7ab3f3 RESP=AXI4_RESP_OKAY
# UVM_INFO ../src/env/axi4_scoreboard.sv(108) @ 265000: uvm_test_top.env.scb [axi4_scoreboard] Slave AXI4_WRITE received: ID=0xb ADDR=0x4b7ab3f3 LEN=5
# UVM_INFO ../src/env/axi4_scoreboard.sv(291) @ 265000: uvm_test_top.env.scb [axi4_scoreboard] [WRITE] MATCH #2: ID=0xb ADDR=0x4b7ab3f3 LEN=5
# UVM_INFO ../src/env/axi4_scoreboard.sv(226) @ 265000: uvm_test_top.env.scb [axi4_scoreboard] [REF_MEM_WRITE_IGNORED] Write ignored for ADDR=0x4b7ab3f3 LOCK=AXI4_LOCK_EXCLUSIVE RESP=AXI4_RESP_OKAY
# UVM_INFO ../src/slv/axi4_slave_monitor.sv(224) @ 265000: uvm_test_top.env.slave_agent.mon [axi4_slave_monitor] AR received: ID=0x2 ADDR=0x7a71fcc2 LEN=2
# UVM_INFO ../src/slv/axi4_slave_driver.sv(358) @ 295000: uvm_test_top.env.slave_agent.drv [axi4_slave_driver] AR received: ID=0x7 ADDR=0x259c4984 LEN=5 LOCK=AXI4_LOCK_NORMAL
# UVM_INFO ../src/slv/axi4_slave_monitor.sv(224) @ 295000: uvm_test_top.env.slave_agent.mon [axi4_slave_monitor] AR received: ID=0x7 ADDR=0x259c4984 LEN=5
# UVM_INFO ../src/mst/axi4_master_monitor.sv(246) @ 295000: uvm_test_top.env.master_agent.mon [axi4_master_monitor] AR observed: ID=0x7 ADDR=0x259c4984 LEN=5
# UVM_INFO ../src/mst/axi4_master_driver.sv(348) @ 315000: uvm_test_top.env.master_agent.drv [axi4_master_driver] Master driver received all R beats for ID=0x9
# UVM_INFO ../src/slv/axi4_slave_driver.sv(464) @ 315000: uvm_test_top.env.slave_agent.drv [axi4_slave_driver] Read complete: ID=0x9 ADDR=0x22864a3a RESP=AXI4_RESP_OKAY  4 beats sent
# UVM_INFO ../src/slv/axi4_slave_monitor.sv(287) @ 315000: uvm_test_top.env.slave_agent.mon [axi4_slave_monitor] Read data sent: ID=0x9 ADDR=0x22864a3a 4 beats
# UVM_INFO ../src/env/axi4_scoreboard.sv(108) @ 315000: uvm_test_top.env.scb [axi4_scoreboard] Slave AXI4_READ received: ID=0x9 ADDR=0x22864a3a LEN=3
# UVM_INFO ../src/mst/axi4_master_monitor.sv(314) @ 315000: uvm_test_top.env.master_agent.mon [axi4_master_monitor] Read complete: ID=0x9 ADDR=0x22864a3a 4 beats
# UVM_INFO ../src/env/axi4_scoreboard.sv(87) @ 315000: uvm_test_top.env.scb [axi4_scoreboard] Master AXI4_READ received: ID=0x9 ADDR=0x22864a3a LEN=3
# UVM_INFO ../src/env/axi4_scoreboard.sv(291) @ 315000: uvm_test_top.env.scb [axi4_scoreboard] [READ] MATCH #3: ID=0x9 ADDR=0x22864a3a LEN=3
# UVM_INFO ../src/slv/axi4_slave_monitor.sv(167) @ 315000: uvm_test_top.env.slave_agent.mon [axi4_slave_monitor] W data assembled: ID=0x9 ADDR=0x22864a3a 4 beats
# UVM_INFO ../src/mst/axi4_master_monitor.sv(184) @ 315000: uvm_test_top.env.master_agent.mon [axi4_master_monitor] W data assembled: ID=0x9 ADDR=0x22864a3a 4 beats
# UVM_INFO ../src/slv/axi4_slave_driver.sv(358) @ 325000: uvm_test_top.env.slave_agent.drv [axi4_slave_driver] AR received: ID=0xe ADDR=0x4dd21883 LEN=11 LOCK=AXI4_LOCK_NORMAL
# UVM_INFO ../src/mst/axi4_master_monitor.sv(246) @ 325000: uvm_test_top.env.master_agent.mon [axi4_master_monitor] AR observed: ID=0xe ADDR=0x4dd21883 LEN=11
# UVM_INFO ../src/slv/axi4_slave_monitor.sv(224) @ 325000: uvm_test_top.env.slave_agent.mon [axi4_slave_monitor] AR received: ID=0xe ADDR=0x4dd21883 LEN=11
# UVM_INFO ../src/mst/axi4_master_driver.sv(289) @ 345000: uvm_test_top.env.master_agent.drv [axi4_master_driver] Master driver received B response: ID=0x9 RESP=AXI4_RESP_OKAY
# UVM_INFO ../src/slv/axi4_slave_driver.sv(320) @ 345000: uvm_test_top.env.slave_agent.drv [axi4_slave_driver] Write complete: ID=0x9 RESP=AXI4_RESP_OKAY
# UVM_INFO ../src/mst/axi4_master_monitor.sv(210) @ 345000: uvm_test_top.env.master_agent.mon [axi4_master_monitor] Write complete: ID=0x9 ADDR=0x22864a3a RESP=AXI4_RESP_OKAY
# UVM_INFO ../src/env/axi4_scoreboard.sv(87) @ 345000: uvm_test_top.env.scb [axi4_scoreboard] Master AXI4_WRITE received: ID=0x9 ADDR=0x22864a3a LEN=3
# UVM_INFO ../src/slv/axi4_slave_monitor.sv(189) @ 345000: uvm_test_top.env.slave_agent.mon [axi4_slave_monitor] Write response sent: ID=0x9 ADDR=0x22864a3a RESP=AXI4_RESP_OKAY
# UVM_INFO ../src/env/axi4_scoreboard.sv(108) @ 345000: uvm_test_top.env.scb [axi4_scoreboard] Slave AXI4_WRITE received: ID=0x9 ADDR=0x22864a3a LEN=3
# UVM_INFO ../src/env/axi4_scoreboard.sv(291) @ 345000: uvm_test_top.env.scb [axi4_scoreboard] [WRITE] MATCH #4: ID=0x9 ADDR=0x22864a3a LEN=3
# UVM_INFO ../src/env/axi4_scoreboard.sv(219) @ 345000: uvm_test_top.env.scb [axi4_scoreboard] [REF_MEM_WRITE] Addr=0x22864a39 Data=0x9b
# UVM_INFO ../src/env/axi4_scoreboard.sv(219) @ 345000: uvm_test_top.env.scb [axi4_scoreboard] [REF_MEM_WRITE] Addr=0x22864a3a Data=0x5c
# UVM_INFO ../src/env/axi4_scoreboard.sv(219) @ 345000: uvm_test_top.env.scb [axi4_scoreboard] [REF_MEM_WRITE] Addr=0x22864a3b Data=0xdb
# UVM_INFO ../src/env/axi4_scoreboard.sv(219) @ 345000: uvm_test_top.env.scb [axi4_scoreboard] [REF_MEM_WRITE] Addr=0x22864a3c Data=0xb1
# UVM_INFO ../src/env/axi4_scoreboard.sv(219) @ 345000: uvm_test_top.env.scb [axi4_scoreboard] [REF_MEM_WRITE] Addr=0x22864a3d Data=0x2f
# UVM_INFO ../src/env/axi4_scoreboard.sv(219) @ 345000: uvm_test_top.env.scb [axi4_scoreboard] [REF_MEM_WRITE] Addr=0x22864a41 Data=0xe1
# UVM_INFO ../src/env/axi4_scoreboard.sv(219) @ 345000: uvm_test_top.env.scb [axi4_scoreboard] [REF_MEM_WRITE] Addr=0x22864a43 Data=0xd7
# UVM_INFO ../src/env/axi4_scoreboard.sv(219) @ 345000: uvm_test_top.env.scb [axi4_scoreboard] [REF_MEM_WRITE] Addr=0x22864a44 Data=0x9e
# UVM_INFO ../src/env/axi4_scoreboard.sv(219) @ 345000: uvm_test_top.env.scb [axi4_scoreboard] [REF_MEM_WRITE] Addr=0x22864a45 Data=0x42
# UVM_INFO ../src/slv/axi4_slave_driver.sv(358) @ 355000: uvm_test_top.env.slave_agent.drv [axi4_slave_driver] AR received: ID=0x5 ADDR=0xe62b045e LEN=9 LOCK=AXI4_LOCK_NORMAL
# UVM_INFO ../src/slv/axi4_slave_monitor.sv(224) @ 355000: uvm_test_top.env.slave_agent.mon [axi4_slave_monitor] AR received: ID=0x5 ADDR=0xe62b045e LEN=9
# UVM_INFO ../src/mst/axi4_master_monitor.sv(246) @ 355000: uvm_test_top.env.master_agent.mon [axi4_master_monitor] AR observed: ID=0x5 ADDR=0xe62b045e LEN=9
# UVM_INFO ../src/slv/axi4_slave_driver.sv(212) @ 385000: uvm_test_top.env.slave_agent.drv [axi4_slave_driver] AW received: ID=0x2 ADDR=0x4f1d924b LEN=7 LOCK=AXI4_LOCK_EXCLUSIVE
# UVM_INFO ../src/slv/axi4_slave_driver.sv(358) @ 385000: uvm_test_top.env.slave_agent.drv [axi4_slave_driver] AR received: ID=0x5 ADDR=0xee9b3145 LEN=12 LOCK=AXI4_LOCK_EXCLUSIVE
# UVM_INFO ../src/mst/axi4_master_monitor.sv(124) @ 385000: uvm_test_top.env.master_agent.mon [axi4_master_monitor] AW observed: ID=0x2 ADDR=0x4f1d924b LEN=7
# UVM_INFO ../src/mst/axi4_master_monitor.sv(246) @ 385000: uvm_test_top.env.master_agent.mon [axi4_master_monitor] AR observed: ID=0x5 ADDR=0xee9b3145 LEN=12
# UVM_INFO ../src/slv/axi4_slave_monitor.sv(116) @ 385000: uvm_test_top.env.slave_agent.mon [axi4_slave_monitor] AW received: ID=0x2 ADDR=0x4f1d924b LEN=7
# UVM_INFO ../src/slv/axi4_slave_monitor.sv(224) @ 385000: uvm_test_top.env.slave_agent.mon [axi4_slave_monitor] AR received: ID=0x5 ADDR=0xee9b3145 LEN=12
# UVM_INFO ../src/slv/axi4_slave_driver.sv(212) @ 415000: uvm_test_top.env.slave_agent.drv [axi4_slave_driver] AW received: ID=0xe ADDR=0xdeaf891b LEN=2 LOCK=AXI4_LOCK_NORMAL
# UVM_INFO ../src/slv/axi4_slave_monitor.sv(116) @ 415000: uvm_test_top.env.slave_agent.mon [axi4_slave_monitor] AW received: ID=0xe ADDR=0xdeaf891b LEN=2
# UVM_INFO ../src/mst/axi4_master_monitor.sv(124) @ 415000: uvm_test_top.env.master_agent.mon [axi4_master_monitor] AW observed: ID=0xe ADDR=0xdeaf891b LEN=2
# UVM_INFO ../src/slv/axi4_slave_driver.sv(212) @ 445000: uvm_test_top.env.slave_agent.drv [axi4_slave_driver] AW received: ID=0xa ADDR=0xbeff9e51 LEN=0 LOCK=AXI4_LOCK_EXCLUSIVE
# UVM_INFO ../src/mst/axi4_master_monitor.sv(124) @ 445000: uvm_test_top.env.master_agent.mon [axi4_master_monitor] AW observed: ID=0xa ADDR=0xbeff9e51 LEN=0
# UVM_INFO ../src/slv/axi4_slave_monitor.sv(116) @ 445000: uvm_test_top.env.slave_agent.mon [axi4_slave_monitor] AW received: ID=0xa ADDR=0xbeff9e51 LEN=0
# UVM_INFO ../src/mst/axi4_master_driver.sv(348) @ 475000: uvm_test_top.env.master_agent.drv [axi4_master_driver] Master driver received all R beats for ID=0x1
# UVM_INFO ../src/slv/axi4_slave_driver.sv(212) @ 475000: uvm_test_top.env.slave_agent.drv [axi4_slave_driver] AW received: ID=0x7 ADDR=0x7a71fcc2 LEN=2 LOCK=AXI4_LOCK_NORMAL
# UVM_INFO ../src/slv/axi4_slave_driver.sv(464) @ 475000: uvm_test_top.env.slave_agent.drv [axi4_slave_driver] Read complete: ID=0x1 ADDR=0x4f1d924b RESP=AXI4_RESP_EXOKAY  8 beats sent
# UVM_INFO ../src/slv/axi4_slave_monitor.sv(287) @ 475000: uvm_test_top.env.slave_agent.mon [axi4_slave_monitor] Read data sent: ID=0x1 ADDR=0x4f1d924b 8 beats
# UVM_INFO ../src/env/axi4_scoreboard.sv(108) @ 475000: uvm_test_top.env.scb [axi4_scoreboard] Slave AXI4_READ received: ID=0x1 ADDR=0x4f1d924b LEN=7
# UVM_INFO ../src/slv/axi4_slave_monitor.sv(116) @ 475000: uvm_test_top.env.slave_agent.mon [axi4_slave_monitor] AW received: ID=0x7 ADDR=0x7a71fcc2 LEN=2
# UVM_INFO ../src/mst/axi4_master_monitor.sv(314) @ 475000: uvm_test_top.env.master_agent.mon [axi4_master_monitor] Read complete: ID=0x1 ADDR=0x4f1d924b 8 beats
# UVM_INFO ../src/env/axi4_scoreboard.sv(87) @ 475000: uvm_test_top.env.scb [axi4_scoreboard] Master AXI4_READ received: ID=0x1 ADDR=0x4f1d924b LEN=7
# UVM_INFO ../src/env/axi4_scoreboard.sv(291) @ 475000: uvm_test_top.env.scb [axi4_scoreboard] [READ] MATCH #5: ID=0x1 ADDR=0x4f1d924b LEN=7
# UVM_INFO ../src/mst/axi4_master_monitor.sv(124) @ 475000: uvm_test_top.env.master_agent.mon [axi4_master_monitor] AW observed: ID=0x7 ADDR=0x7a71fcc2 LEN=2
# UVM_INFO ../src/slv/axi4_slave_monitor.sv(167) @ 475000: uvm_test_top.env.slave_agent.mon [axi4_slave_monitor] W data assembled: ID=0x2 ADDR=0x4f1d924b 8 beats
# UVM_INFO ../src/mst/axi4_master_monitor.sv(184) @ 475000: uvm_test_top.env.master_agent.mon [axi4_master_monitor] W data assembled: ID=0x2 ADDR=0x4f1d924b 8 beats
# UVM_INFO ../src/mst/axi4_master_driver.sv(289) @ 505000: uvm_test_top.env.master_agent.drv [axi4_master_driver] Master driver received B response: ID=0x2 RESP=AXI4_RESP_OKAY
# UVM_INFO ../src/slv/axi4_slave_driver.sv(320) @ 505000: uvm_test_top.env.slave_agent.drv [axi4_slave_driver] Write complete: ID=0x2 RESP=AXI4_RESP_OKAY
# UVM_INFO ../src/mst/axi4_master_monitor.sv(210) @ 505000: uvm_test_top.env.master_agent.mon [axi4_master_monitor] Write complete: ID=0x2 ADDR=0x4f1d924b RESP=AXI4_RESP_OKAY
# UVM_INFO ../src/env/axi4_scoreboard.sv(87) @ 505000: uvm_test_top.env.scb [axi4_scoreboard] Master AXI4_WRITE received: ID=0x2 ADDR=0x4f1d924b LEN=7
# UVM_INFO ../src/slv/axi4_slave_monitor.sv(189) @ 505000: uvm_test_top.env.slave_agent.mon [axi4_slave_monitor] Write response sent: ID=0x2 ADDR=0x4f1d924b RESP=AXI4_RESP_OKAY
# UVM_INFO ../src/env/axi4_scoreboard.sv(108) @ 505000: uvm_test_top.env.scb [axi4_scoreboard] Slave AXI4_WRITE received: ID=0x2 ADDR=0x4f1d924b LEN=7
# UVM_INFO ../src/env/axi4_scoreboard.sv(291) @ 505000: uvm_test_top.env.scb [axi4_scoreboard] [WRITE] MATCH #6: ID=0x2 ADDR=0x4f1d924b LEN=7
# UVM_INFO ../src/env/axi4_scoreboard.sv(226) @ 505000: uvm_test_top.env.scb [axi4_scoreboard] [REF_MEM_WRITE_IGNORED] Write ignored for ADDR=0x4f1d924b LOCK=AXI4_LOCK_EXCLUSIVE RESP=AXI4_RESP_OKAY
# UVM_INFO ../src/mst/axi4_master_driver.sv(348) @ 535000: uvm_test_top.env.master_agent.drv [axi4_master_driver] Master driver received all R beats for ID=0xa
# UVM_INFO ../src/slv/axi4_slave_driver.sv(464) @ 535000: uvm_test_top.env.slave_agent.drv [axi4_slave_driver] Read complete: ID=0xa ADDR=0xdeaf891b RESP=AXI4_RESP_EXOKAY  3 beats sent
# UVM_INFO ../src/slv/axi4_slave_monitor.sv(287) @ 535000: uvm_test_top.env.slave_agent.mon [axi4_slave_monitor] Read data sent: ID=0xa ADDR=0xdeaf891b 3 beats
# UVM_INFO ../src/env/axi4_scoreboard.sv(108) @ 535000: uvm_test_top.env.scb [axi4_scoreboard] Slave AXI4_READ received: ID=0xa ADDR=0xdeaf891b LEN=2
# UVM_INFO ../src/mst/axi4_master_monitor.sv(314) @ 535000: uvm_test_top.env.master_agent.mon [axi4_master_monitor] Read complete: ID=0xa ADDR=0xdeaf891b 3 beats
# UVM_INFO ../src/env/axi4_scoreboard.sv(87) @ 535000: uvm_test_top.env.scb [axi4_scoreboard] Master AXI4_READ received: ID=0xa ADDR=0xdeaf891b LEN=2
# UVM_INFO ../src/env/axi4_scoreboard.sv(291) @ 535000: uvm_test_top.env.scb [axi4_scoreboard] [READ] MATCH #7: ID=0xa ADDR=0xdeaf891b LEN=2
# UVM_INFO ../src/slv/axi4_slave_monitor.sv(167) @ 535000: uvm_test_top.env.slave_agent.mon [axi4_slave_monitor] W data assembled: ID=0xe ADDR=0xdeaf891b 3 beats
# UVM_INFO ../src/mst/axi4_master_monitor.sv(184) @ 535000: uvm_test_top.env.master_agent.mon [axi4_master_monitor] W data assembled: ID=0xe ADDR=0xdeaf891b 3 beats
# UVM_INFO ../src/mst/axi4_master_driver.sv(348) @ 555000: uvm_test_top.env.master_agent.drv [axi4_master_driver] Master driver received all R beats for ID=0x8
# UVM_INFO ../src/slv/axi4_slave_driver.sv(464) @ 555000: uvm_test_top.env.slave_agent.drv [axi4_slave_driver] Read complete: ID=0x8 ADDR=0xbeff9e51 RESP=AXI4_RESP_EXOKAY  1 beats sent
# UVM_INFO ../src/slv/axi4_slave_monitor.sv(287) @ 555000: uvm_test_top.env.slave_agent.mon [axi4_slave_monitor] Read data sent: ID=0x8 ADDR=0xbeff9e51 1 beats
# UVM_INFO ../src/env/axi4_scoreboard.sv(108) @ 555000: uvm_test_top.env.scb [axi4_scoreboard] Slave AXI4_READ received: ID=0x8 ADDR=0xbeff9e51 LEN=0
# UVM_INFO ../src/mst/axi4_master_monitor.sv(314) @ 555000: uvm_test_top.env.master_agent.mon [axi4_master_monitor] Read complete: ID=0x8 ADDR=0xbeff9e51 1 beats
# UVM_INFO ../src/env/axi4_scoreboard.sv(87) @ 555000: uvm_test_top.env.scb [axi4_scoreboard] Master AXI4_READ received: ID=0x8 ADDR=0xbeff9e51 LEN=0
# UVM_INFO ../src/env/axi4_scoreboard.sv(291) @ 555000: uvm_test_top.env.scb [axi4_scoreboard] [READ] MATCH #8: ID=0x8 ADDR=0xbeff9e51 LEN=0
# UVM_INFO ../src/slv/axi4_slave_monitor.sv(167) @ 555000: uvm_test_top.env.slave_agent.mon [axi4_slave_monitor] W data assembled: ID=0xa ADDR=0xbeff9e51 1 beats
# UVM_INFO ../src/mst/axi4_master_monitor.sv(184) @ 555000: uvm_test_top.env.master_agent.mon [axi4_master_monitor] W data assembled: ID=0xa ADDR=0xbeff9e51 1 beats
# UVM_INFO ../src/mst/axi4_master_driver.sv(289) @ 565000: uvm_test_top.env.master_agent.drv [axi4_master_driver] Master driver received B response: ID=0xe RESP=AXI4_RESP_OKAY
# UVM_INFO ../src/slv/axi4_slave_driver.sv(320) @ 565000: uvm_test_top.env.slave_agent.drv [axi4_slave_driver] Write complete: ID=0xe RESP=AXI4_RESP_OKAY
# UVM_INFO ../src/mst/axi4_master_monitor.sv(210) @ 565000: uvm_test_top.env.master_agent.mon [axi4_master_monitor] Write complete: ID=0xe ADDR=0xdeaf891b RESP=AXI4_RESP_OKAY
# UVM_INFO ../src/env/axi4_scoreboard.sv(87) @ 565000: uvm_test_top.env.scb [axi4_scoreboard] Master AXI4_WRITE received: ID=0xe ADDR=0xdeaf891b LEN=2
# UVM_INFO ../src/slv/axi4_slave_monitor.sv(189) @ 565000: uvm_test_top.env.slave_agent.mon [axi4_slave_monitor] Write response sent: ID=0xe ADDR=0xdeaf891b RESP=AXI4_RESP_OKAY
# UVM_INFO ../src/env/axi4_scoreboard.sv(108) @ 565000: uvm_test_top.env.scb [axi4_scoreboard] Slave AXI4_WRITE received: ID=0xe ADDR=0xdeaf891b LEN=2
# UVM_INFO ../src/env/axi4_scoreboard.sv(291) @ 565000: uvm_test_top.env.scb [axi4_scoreboard] [WRITE] MATCH #9: ID=0xe ADDR=0xdeaf891b LEN=2
# UVM_INFO ../src/env/axi4_scoreboard.sv(219) @ 565000: uvm_test_top.env.scb [axi4_scoreboard] [REF_MEM_WRITE] Addr=0xdeaf891a Data=0x16
# UVM_INFO ../src/env/axi4_scoreboard.sv(219) @ 565000: uvm_test_top.env.scb [axi4_scoreboard] [REF_MEM_WRITE] Addr=0xdeaf891d Data=0x1a
# UVM_INFO ../src/env/axi4_scoreboard.sv(219) @ 565000: uvm_test_top.env.scb [axi4_scoreboard] [REF_MEM_WRITE] Addr=0xdeaf8923 Data=0x54
# UVM_INFO ../src/mst/axi4_master_driver.sv(289) @ 585000: uvm_test_top.env.master_agent.drv [axi4_master_driver] Master driver received B response: ID=0xa RESP=AXI4_RESP_OKAY
# UVM_INFO ../src/slv/axi4_slave_driver.sv(320) @ 585000: uvm_test_top.env.slave_agent.drv [axi4_slave_driver] Write complete: ID=0xa RESP=AXI4_RESP_OKAY
# UVM_INFO ../src/mst/axi4_master_monitor.sv(210) @ 585000: uvm_test_top.env.master_agent.mon [axi4_master_monitor] Write complete: ID=0xa ADDR=0xbeff9e51 RESP=AXI4_RESP_OKAY
# UVM_INFO ../src/env/axi4_scoreboard.sv(87) @ 585000: uvm_test_top.env.scb [axi4_scoreboard] Master AXI4_WRITE received: ID=0xa ADDR=0xbeff9e51 LEN=0
# UVM_INFO ../src/slv/axi4_slave_monitor.sv(189) @ 585000: uvm_test_top.env.slave_agent.mon [axi4_slave_monitor] Write response sent: ID=0xa ADDR=0xbeff9e51 RESP=AXI4_RESP_OKAY
# UVM_INFO ../src/env/axi4_scoreboard.sv(108) @ 585000: uvm_test_top.env.scb [axi4_scoreboard] Slave AXI4_WRITE received: ID=0xa ADDR=0xbeff9e51 LEN=0
# UVM_INFO ../src/env/axi4_scoreboard.sv(291) @ 585000: uvm_test_top.env.scb [axi4_scoreboard] [WRITE] MATCH #10: ID=0xa ADDR=0xbeff9e51 LEN=0
# UVM_INFO ../src/env/axi4_scoreboard.sv(226) @ 585000: uvm_test_top.env.scb [axi4_scoreboard] [REF_MEM_WRITE_IGNORED] Write ignored for ADDR=0xbeff9e51 LOCK=AXI4_LOCK_EXCLUSIVE RESP=AXI4_RESP_OKAY
# UVM_INFO ../src/test/axi4_wr_rd_test.sv(62) @ 595000: uvm_test_top [axi4_wr_rd_test] 10 write-read-back iterations complete
# UVM_INFO ../src/mst/axi4_master_driver.sv(348) @ 615000: uvm_test_top.env.master_agent.drv [axi4_master_driver] Master driver received all R beats for ID=0x2
# UVM_INFO ../src/slv/axi4_slave_driver.sv(464) @ 615000: uvm_test_top.env.slave_agent.drv [axi4_slave_driver] Read complete: ID=0x2 ADDR=0x7a71fcc2 RESP=AXI4_RESP_OKAY  3 beats sent
# UVM_INFO ../src/slv/axi4_slave_monitor.sv(287) @ 615000: uvm_test_top.env.slave_agent.mon [axi4_slave_monitor] Read data sent: ID=0x2 ADDR=0x7a71fcc2 3 beats
# UVM_INFO ../src/env/axi4_scoreboard.sv(108) @ 615000: uvm_test_top.env.scb [axi4_scoreboard] Slave AXI4_READ received: ID=0x2 ADDR=0x7a71fcc2 LEN=2
# UVM_INFO ../src/mst/axi4_master_monitor.sv(314) @ 615000: uvm_test_top.env.master_agent.mon [axi4_master_monitor] Read complete: ID=0x2 ADDR=0x7a71fcc2 3 beats
# UVM_INFO ../src/env/axi4_scoreboard.sv(87) @ 615000: uvm_test_top.env.scb [axi4_scoreboard] Master AXI4_READ received: ID=0x2 ADDR=0x7a71fcc2 LEN=2
# UVM_INFO ../src/env/axi4_scoreboard.sv(291) @ 615000: uvm_test_top.env.scb [axi4_scoreboard] [READ] MATCH #11: ID=0x2 ADDR=0x7a71fcc2 LEN=2
# UVM_INFO ../src/slv/axi4_slave_monitor.sv(167) @ 615000: uvm_test_top.env.slave_agent.mon [axi4_slave_monitor] W data assembled: ID=0x7 ADDR=0x7a71fcc2 3 beats
# UVM_INFO ../src/mst/axi4_master_monitor.sv(184) @ 615000: uvm_test_top.env.master_agent.mon [axi4_master_monitor] W data assembled: ID=0x7 ADDR=0x7a71fcc2 3 beats
# UVM_INFO ../src/mst/axi4_master_driver.sv(289) @ 645000: uvm_test_top.env.master_agent.drv [axi4_master_driver] Master driver received B response: ID=0x7 RESP=AXI4_RESP_OKAY
# UVM_INFO ../src/slv/axi4_slave_driver.sv(320) @ 645000: uvm_test_top.env.slave_agent.drv [axi4_slave_driver] Write complete: ID=0x7 RESP=AXI4_RESP_OKAY
# UVM_INFO ../src/mst/axi4_master_monitor.sv(210) @ 645000: uvm_test_top.env.master_agent.mon [axi4_master_monitor] Write complete: ID=0x7 ADDR=0x7a71fcc2 RESP=AXI4_RESP_OKAY
# UVM_INFO ../src/env/axi4_scoreboard.sv(87) @ 645000: uvm_test_top.env.scb [axi4_scoreboard] Master AXI4_WRITE received: ID=0x7 ADDR=0x7a71fcc2 LEN=2
# UVM_INFO ../src/slv/axi4_slave_monitor.sv(189) @ 645000: uvm_test_top.env.slave_agent.mon [axi4_slave_monitor] Write response sent: ID=0x7 ADDR=0x7a71fcc2 RESP=AXI4_RESP_OKAY
# UVM_INFO ../src/env/axi4_scoreboard.sv(108) @ 645000: uvm_test_top.env.scb [axi4_scoreboard] Slave AXI4_WRITE received: ID=0x7 ADDR=0x7a71fcc2 LEN=2
# UVM_INFO ../src/env/axi4_scoreboard.sv(291) @ 645000: uvm_test_top.env.scb [axi4_scoreboard] [WRITE] MATCH #12: ID=0x7 ADDR=0x7a71fcc2 LEN=2
# UVM_INFO ../src/env/axi4_scoreboard.sv(219) @ 645000: uvm_test_top.env.scb [axi4_scoreboard] [REF_MEM_WRITE] Addr=0x7a71fcc0 Data=0xf4
# UVM_INFO ../src/env/axi4_scoreboard.sv(219) @ 645000: uvm_test_top.env.scb [axi4_scoreboard] [REF_MEM_WRITE] Addr=0x7a71fcc1 Data=0x52
# UVM_INFO ../src/env/axi4_scoreboard.sv(219) @ 645000: uvm_test_top.env.scb [axi4_scoreboard] [REF_MEM_WRITE] Addr=0x7a71fcc3 Data=0x92
# UVM_INFO ../src/env/axi4_scoreboard.sv(219) @ 645000: uvm_test_top.env.scb [axi4_scoreboard] [REF_MEM_WRITE] Addr=0x7a71fcc4 Data=0x1d
# UVM_INFO ../src/env/axi4_scoreboard.sv(219) @ 645000: uvm_test_top.env.scb [axi4_scoreboard] [REF_MEM_WRITE] Addr=0x7a71fcc5 Data=0x82
# UVM_INFO ../src/env/axi4_scoreboard.sv(219) @ 645000: uvm_test_top.env.scb [axi4_scoreboard] [REF_MEM_WRITE] Addr=0x7a71fcc7 Data=0xd2
# UVM_INFO ../src/env/axi4_scoreboard.sv(219) @ 645000: uvm_test_top.env.scb [axi4_scoreboard] [REF_MEM_WRITE] Addr=0x7a71fcc8 Data=0x76
# UVM_INFO ../src/env/axi4_scoreboard.sv(219) @ 645000: uvm_test_top.env.scb [axi4_scoreboard] [REF_MEM_WRITE] Addr=0x7a71fcca Data=0x61
# UVM_INFO ../src/slv/axi4_slave_driver.sv(212) @ 695000: uvm_test_top.env.slave_agent.drv [axi4_slave_driver] AW received: ID=0x4 ADDR=0x259c4984 LEN=5 LOCK=AXI4_LOCK_EXCLUSIVE
# UVM_INFO ../src/slv/axi4_slave_monitor.sv(116) @ 695000: uvm_test_top.env.slave_agent.mon [axi4_slave_monitor] AW received: ID=0x4 ADDR=0x259c4984 LEN=5
# UVM_INFO ../src/mst/axi4_master_monitor.sv(124) @ 695000: uvm_test_top.env.master_agent.mon [axi4_master_monitor] AW observed: ID=0x4 ADDR=0x259c4984 LEN=5
# UVM_INFO ../src/mst/axi4_master_driver.sv(348) @ 735000: uvm_test_top.env.master_agent.drv [axi4_master_driver] Master driver received all R beats for ID=0x7
# UVM_INFO ../src/slv/axi4_slave_driver.sv(464) @ 735000: uvm_test_top.env.slave_agent.drv [axi4_slave_driver] Read complete: ID=0x7 ADDR=0x259c4984 RESP=AXI4_RESP_OKAY  6 beats sent
# UVM_INFO ../src/slv/axi4_slave_monitor.sv(287) @ 735000: uvm_test_top.env.slave_agent.mon [axi4_slave_monitor] Read data sent: ID=0x7 ADDR=0x259c4984 6 beats
# UVM_INFO ../src/env/axi4_scoreboard.sv(108) @ 735000: uvm_test_top.env.scb [axi4_scoreboard] Slave AXI4_READ received: ID=0x7 ADDR=0x259c4984 LEN=5
# UVM_INFO ../src/mst/axi4_master_monitor.sv(314) @ 735000: uvm_test_top.env.master_agent.mon [axi4_master_monitor] Read complete: ID=0x7 ADDR=0x259c4984 6 beats
# UVM_INFO ../src/env/axi4_scoreboard.sv(87) @ 735000: uvm_test_top.env.scb [axi4_scoreboard] Master AXI4_READ received: ID=0x7 ADDR=0x259c4984 LEN=5
# UVM_INFO ../src/env/axi4_scoreboard.sv(291) @ 735000: uvm_test_top.env.scb [axi4_scoreboard] [READ] MATCH #13: ID=0x7 ADDR=0x259c4984 LEN=5
# UVM_INFO ../src/slv/axi4_slave_monitor.sv(167) @ 735000: uvm_test_top.env.slave_agent.mon [axi4_slave_monitor] W data assembled: ID=0x4 ADDR=0x259c4984 6 beats
# UVM_INFO ../src/mst/axi4_master_monitor.sv(184) @ 735000: uvm_test_top.env.master_agent.mon [axi4_master_monitor] W data assembled: ID=0x4 ADDR=0x259c4984 6 beats
# UVM_INFO ../src/mst/axi4_master_driver.sv(289) @ 765000: uvm_test_top.env.master_agent.drv [axi4_master_driver] Master driver received B response: ID=0x4 RESP=AXI4_RESP_OKAY
# UVM_INFO ../src/slv/axi4_slave_driver.sv(320) @ 765000: uvm_test_top.env.slave_agent.drv [axi4_slave_driver] Write complete: ID=0x4 RESP=AXI4_RESP_OKAY
# UVM_INFO ../src/mst/axi4_master_monitor.sv(210) @ 765000: uvm_test_top.env.master_agent.mon [axi4_master_monitor] Write complete: ID=0x4 ADDR=0x259c4984 RESP=AXI4_RESP_OKAY
# UVM_INFO ../src/env/axi4_scoreboard.sv(87) @ 765000: uvm_test_top.env.scb [axi4_scoreboard] Master AXI4_WRITE received: ID=0x4 ADDR=0x259c4984 LEN=5
# UVM_INFO ../src/slv/axi4_slave_monitor.sv(189) @ 765000: uvm_test_top.env.slave_agent.mon [axi4_slave_monitor] Write response sent: ID=0x4 ADDR=0x259c4984 RESP=AXI4_RESP_OKAY
# UVM_INFO ../src/env/axi4_scoreboard.sv(108) @ 765000: uvm_test_top.env.scb [axi4_scoreboard] Slave AXI4_WRITE received: ID=0x4 ADDR=0x259c4984 LEN=5
# UVM_INFO ../src/env/axi4_scoreboard.sv(291) @ 765000: uvm_test_top.env.scb [axi4_scoreboard] [WRITE] MATCH #14: ID=0x4 ADDR=0x259c4984 LEN=5
# UVM_INFO ../src/env/axi4_scoreboard.sv(226) @ 765000: uvm_test_top.env.scb [axi4_scoreboard] [REF_MEM_WRITE_IGNORED] Write ignored for ADDR=0x259c4984 LOCK=AXI4_LOCK_EXCLUSIVE RESP=AXI4_RESP_OKAY
# UVM_INFO ../src/slv/axi4_slave_driver.sv(212) @ 795000: uvm_test_top.env.slave_agent.drv [axi4_slave_driver] AW received: ID=0x1 ADDR=0x4dd21883 LEN=11 LOCK=AXI4_LOCK_EXCLUSIVE
# UVM_INFO ../src/slv/axi4_slave_monitor.sv(116) @ 795000: uvm_test_top.env.slave_agent.mon [axi4_slave_monitor] AW received: ID=0x1 ADDR=0x4dd21883 LEN=11
# UVM_INFO ../src/mst/axi4_master_monitor.sv(124) @ 795000: uvm_test_top.env.master_agent.mon [axi4_master_monitor] AW observed: ID=0x1 ADDR=0x4dd21883 LEN=11
# UVM_INFO ../src/slv/axi4_slave_driver.sv(212) @ 825000: uvm_test_top.env.slave_agent.drv [axi4_slave_driver] AW received: ID=0xf ADDR=0xe62b045e LEN=9 LOCK=AXI4_LOCK_EXCLUSIVE
# UVM_INFO ../src/mst/axi4_master_monitor.sv(124) @ 825000: uvm_test_top.env.master_agent.mon [axi4_master_monitor] AW observed: ID=0xf ADDR=0xe62b045e LEN=9
# UVM_INFO ../src/slv/axi4_slave_monitor.sv(116) @ 825000: uvm_test_top.env.slave_agent.mon [axi4_slave_monitor] AW received: ID=0xf ADDR=0xe62b045e LEN=9
# UVM_INFO ../src/mst/axi4_master_driver.sv(348) @ 975000: uvm_test_top.env.master_agent.drv [axi4_master_driver] Master driver received all R beats for ID=0xe
# UVM_INFO ../src/slv/axi4_slave_driver.sv(464) @ 975000: uvm_test_top.env.slave_agent.drv [axi4_slave_driver] Read complete: ID=0xe ADDR=0x4dd21883 RESP=AXI4_RESP_OKAY  12 beats sent
# UVM_INFO ../src/slv/axi4_slave_monitor.sv(287) @ 975000: uvm_test_top.env.slave_agent.mon [axi4_slave_monitor] Read data sent: ID=0xe ADDR=0x4dd21883 12 beats
# UVM_INFO ../src/env/axi4_scoreboard.sv(108) @ 975000: uvm_test_top.env.scb [axi4_scoreboard] Slave AXI4_READ received: ID=0xe ADDR=0x4dd21883 LEN=11
# UVM_INFO ../src/mst/axi4_master_monitor.sv(314) @ 975000: uvm_test_top.env.master_agent.mon [axi4_master_monitor] Read complete: ID=0xe ADDR=0x4dd21883 12 beats
# UVM_INFO ../src/env/axi4_scoreboard.sv(87) @ 975000: uvm_test_top.env.scb [axi4_scoreboard] Master AXI4_READ received: ID=0xe ADDR=0x4dd21883 LEN=11
# UVM_INFO ../src/env/axi4_scoreboard.sv(291) @ 975000: uvm_test_top.env.scb [axi4_scoreboard] [READ] MATCH #15: ID=0xe ADDR=0x4dd21883 LEN=11
# UVM_INFO ../src/slv/axi4_slave_monitor.sv(167) @ 975000: uvm_test_top.env.slave_agent.mon [axi4_slave_monitor] W data assembled: ID=0x1 ADDR=0x4dd21883 12 beats
# UVM_INFO ../src/mst/axi4_master_monitor.sv(184) @ 975000: uvm_test_top.env.master_agent.mon [axi4_master_monitor] W data assembled: ID=0x1 ADDR=0x4dd21883 12 beats
# UVM_INFO ../src/mst/axi4_master_driver.sv(289) @ 1005000: uvm_test_top.env.master_agent.drv [axi4_master_driver] Master driver received B response: ID=0x1 RESP=AXI4_RESP_OKAY
# UVM_INFO ../src/slv/axi4_slave_driver.sv(320) @ 1005000: uvm_test_top.env.slave_agent.drv [axi4_slave_driver] Write complete: ID=0x1 RESP=AXI4_RESP_OKAY
# UVM_INFO ../src/mst/axi4_master_monitor.sv(210) @ 1005000: uvm_test_top.env.master_agent.mon [axi4_master_monitor] Write complete: ID=0x1 ADDR=0x4dd21883 RESP=AXI4_RESP_OKAY
# UVM_INFO ../src/env/axi4_scoreboard.sv(87) @ 1005000: uvm_test_top.env.scb [axi4_scoreboard] Master AXI4_WRITE received: ID=0x1 ADDR=0x4dd21883 LEN=11
# UVM_INFO ../src/slv/axi4_slave_monitor.sv(189) @ 1005000: uvm_test_top.env.slave_agent.mon [axi4_slave_monitor] Write response sent: ID=0x1 ADDR=0x4dd21883 RESP=AXI4_RESP_OKAY
# UVM_INFO ../src/env/axi4_scoreboard.sv(108) @ 1005000: uvm_test_top.env.scb [axi4_scoreboard] Slave AXI4_WRITE received: ID=0x1 ADDR=0x4dd21883 LEN=11
# UVM_INFO ../src/env/axi4_scoreboard.sv(291) @ 1005000: uvm_test_top.env.scb [axi4_scoreboard] [WRITE] MATCH #16: ID=0x1 ADDR=0x4dd21883 LEN=11
# UVM_INFO ../src/env/axi4_scoreboard.sv(226) @ 1005000: uvm_test_top.env.scb [axi4_scoreboard] [REF_MEM_WRITE_IGNORED] Write ignored for ADDR=0x4dd21883 LOCK=AXI4_LOCK_EXCLUSIVE RESP=AXI4_RESP_OKAY
# UVM_INFO ../src/mst/axi4_master_driver.sv(348) @ 1175000: uvm_test_top.env.master_agent.drv [axi4_master_driver] Master driver received all R beats for ID=0x5
# UVM_INFO ../src/slv/axi4_slave_driver.sv(464) @ 1175000: uvm_test_top.env.slave_agent.drv [axi4_slave_driver] Read complete: ID=0x5 ADDR=0xe62b045e RESP=AXI4_RESP_SLVERR  10 beats sent
# UVM_INFO ../src/slv/axi4_slave_monitor.sv(287) @ 1175000: uvm_test_top.env.slave_agent.mon [axi4_slave_monitor] Read data sent: ID=0x5 ADDR=0xe62b045e 10 beats
# UVM_INFO ../src/env/axi4_scoreboard.sv(108) @ 1175000: uvm_test_top.env.scb [axi4_scoreboard] Slave AXI4_READ received: ID=0x5 ADDR=0xe62b045e LEN=9
# UVM_INFO ../src/mst/axi4_master_monitor.sv(314) @ 1175000: uvm_test_top.env.master_agent.mon [axi4_master_monitor] Read complete: ID=0x5 ADDR=0xe62b045e 10 beats
# UVM_INFO ../src/env/axi4_scoreboard.sv(87) @ 1175000: uvm_test_top.env.scb [axi4_scoreboard] Master AXI4_READ received: ID=0x5 ADDR=0xe62b045e LEN=9
# UVM_INFO ../src/env/axi4_scoreboard.sv(291) @ 1175000: uvm_test_top.env.scb [axi4_scoreboard] [READ] MATCH #17: ID=0x5 ADDR=0xe62b045e LEN=9
# UVM_INFO ../src/slv/axi4_slave_monitor.sv(167) @ 1175000: uvm_test_top.env.slave_agent.mon [axi4_slave_monitor] W data assembled: ID=0xf ADDR=0xe62b045e 10 beats
# UVM_INFO ../src/mst/axi4_master_monitor.sv(184) @ 1175000: uvm_test_top.env.master_agent.mon [axi4_master_monitor] W data assembled: ID=0xf ADDR=0xe62b045e 10 beats
# UVM_INFO ../src/mst/axi4_master_driver.sv(289) @ 1205000: uvm_test_top.env.master_agent.drv [axi4_master_driver] Master driver received B response: ID=0xf RESP=AXI4_RESP_SLVERR
# UVM_INFO ../src/slv/axi4_slave_driver.sv(320) @ 1205000: uvm_test_top.env.slave_agent.drv [axi4_slave_driver] Write complete: ID=0xf RESP=AXI4_RESP_SLVERR
# UVM_INFO ../src/mst/axi4_master_monitor.sv(210) @ 1205000: uvm_test_top.env.master_agent.mon [axi4_master_monitor] Write complete: ID=0xf ADDR=0xe62b045e RESP=AXI4_RESP_SLVERR
# UVM_INFO ../src/env/axi4_scoreboard.sv(87) @ 1205000: uvm_test_top.env.scb [axi4_scoreboard] Master AXI4_WRITE received: ID=0xf ADDR=0xe62b045e LEN=9
# UVM_INFO ../src/slv/axi4_slave_monitor.sv(189) @ 1205000: uvm_test_top.env.slave_agent.mon [axi4_slave_monitor] Write response sent: ID=0xf ADDR=0xe62b045e RESP=AXI4_RESP_SLVERR
# UVM_INFO ../src/env/axi4_scoreboard.sv(108) @ 1205000: uvm_test_top.env.scb [axi4_scoreboard] Slave AXI4_WRITE received: ID=0xf ADDR=0xe62b045e LEN=9
# UVM_INFO ../src/env/axi4_scoreboard.sv(291) @ 1205000: uvm_test_top.env.scb [axi4_scoreboard] [WRITE] MATCH #18: ID=0xf ADDR=0xe62b045e LEN=9
# UVM_INFO ../src/env/axi4_scoreboard.sv(226) @ 1205000: uvm_test_top.env.scb [axi4_scoreboard] [REF_MEM_WRITE_IGNORED] Write ignored for ADDR=0xe62b045e LOCK=AXI4_LOCK_EXCLUSIVE RESP=AXI4_RESP_SLVERR
# UVM_INFO ../src/slv/axi4_slave_driver.sv(212) @ 1245000: uvm_test_top.env.slave_agent.drv [axi4_slave_driver] AW received: ID=0xa ADDR=0xee9b3145 LEN=12 LOCK=AXI4_LOCK_NORMAL
# UVM_INFO ../src/mst/axi4_master_monitor.sv(124) @ 1245000: uvm_test_top.env.master_agent.mon [axi4_master_monitor] AW observed: ID=0xa ADDR=0xee9b3145 LEN=12
# UVM_INFO ../src/slv/axi4_slave_monitor.sv(116) @ 1245000: uvm_test_top.env.slave_agent.mon [axi4_slave_monitor] AW received: ID=0xa ADDR=0xee9b3145 LEN=12
# UVM_INFO ../src/mst/axi4_master_driver.sv(348) @ 1435000: uvm_test_top.env.master_agent.drv [axi4_master_driver] Master driver received all R beats for ID=0x5
# UVM_INFO ../src/slv/axi4_slave_driver.sv(464) @ 1435000: uvm_test_top.env.slave_agent.drv [axi4_slave_driver] Read complete: ID=0x5 ADDR=0xee9b3145 RESP=AXI4_RESP_SLVERR  13 beats sent
# UVM_INFO ../src/slv/axi4_slave_monitor.sv(287) @ 1435000: uvm_test_top.env.slave_agent.mon [axi4_slave_monitor] Read data sent: ID=0x5 ADDR=0xee9b3145 13 beats
# UVM_INFO ../src/env/axi4_scoreboard.sv(108) @ 1435000: uvm_test_top.env.scb [axi4_scoreboard] Slave AXI4_READ received: ID=0x5 ADDR=0xee9b3145 LEN=12
# UVM_INFO ../src/mst/axi4_master_monitor.sv(314) @ 1435000: uvm_test_top.env.master_agent.mon [axi4_master_monitor] Read complete: ID=0x5 ADDR=0xee9b3145 13 beats
# UVM_INFO ../src/env/axi4_scoreboard.sv(87) @ 1435000: uvm_test_top.env.scb [axi4_scoreboard] Master AXI4_READ received: ID=0x5 ADDR=0xee9b3145 LEN=12
# UVM_INFO ../src/env/axi4_scoreboard.sv(291) @ 1435000: uvm_test_top.env.scb [axi4_scoreboard] [READ] MATCH #19: ID=0x5 ADDR=0xee9b3145 LEN=12
# UVM_INFO ../src/slv/axi4_slave_monitor.sv(167) @ 1435000: uvm_test_top.env.slave_agent.mon [axi4_slave_monitor] W data assembled: ID=0xa ADDR=0xee9b3145 13 beats
# UVM_INFO ../src/mst/axi4_master_monitor.sv(184) @ 1435000: uvm_test_top.env.master_agent.mon [axi4_master_monitor] W data assembled: ID=0xa ADDR=0xee9b3145 13 beats
# UVM_INFO ../src/mst/axi4_master_driver.sv(289) @ 1465000: uvm_test_top.env.master_agent.drv [axi4_master_driver] Master driver received B response: ID=0xa RESP=AXI4_RESP_SLVERR
# UVM_INFO ../src/slv/axi4_slave_driver.sv(320) @ 1465000: uvm_test_top.env.slave_agent.drv [axi4_slave_driver] Write complete: ID=0xa RESP=AXI4_RESP_SLVERR
# UVM_INFO ../src/mst/axi4_master_monitor.sv(210) @ 1465000: uvm_test_top.env.master_agent.mon [axi4_master_monitor] Write complete: ID=0xa ADDR=0xee9b3145 RESP=AXI4_RESP_SLVERR
# UVM_INFO ../src/env/axi4_scoreboard.sv(87) @ 1465000: uvm_test_top.env.scb [axi4_scoreboard] Master AXI4_WRITE received: ID=0xa ADDR=0xee9b3145 LEN=12
# UVM_INFO ../src/slv/axi4_slave_monitor.sv(189) @ 1465000: uvm_test_top.env.slave_agent.mon [axi4_slave_monitor] Write response sent: ID=0xa ADDR=0xee9b3145 RESP=AXI4_RESP_SLVERR
# UVM_INFO ../src/env/axi4_scoreboard.sv(108) @ 1465000: uvm_test_top.env.scb [axi4_scoreboard] Slave AXI4_WRITE received: ID=0xa ADDR=0xee9b3145 LEN=12
# UVM_INFO ../src/env/axi4_scoreboard.sv(291) @ 1465000: uvm_test_top.env.scb [axi4_scoreboard] [WRITE] MATCH #20: ID=0xa ADDR=0xee9b3145 LEN=12
# UVM_INFO ../src/env/axi4_scoreboard.sv(226) @ 1465000: uvm_test_top.env.scb [axi4_scoreboard] [REF_MEM_WRITE_IGNORED] Write ignored for ADDR=0xee9b3145 LOCK=AXI4_LOCK_NORMAL RESP=AXI4_RESP_SLVERR
# UVM_INFO verilog_src/uvm-1.1d/src/base/uvm_objection.svh(1268) @ 1465000: reporter [TEST_DONE] 'run' phase is ready to proceed to the 'extract' phase
# UVM_INFO ../src/env/axi4_scoreboard.sv(360) @ 1465000: uvm_test_top.env.scb [axi4_scoreboard] 
# ========================================
#          SCOREBOARD SUMMARY
# ========================================
#   Master transactions : 20
#   Slave transactions  : 20
#   Matches             : 20
#   Mismatches          : 0
#   Unmatched master WR : 0
#   Unmatched master RD : 0
#   Unmatched slave  WR : 0
#   Unmatched slave  RD : 0
# ========================================
#   RESULT : PASS
# ========================================
# UVM_INFO ../src/test/axi4_base_test.sv(91) @ 1465000: uvm_test_top [axi4_wr_rd_test] 
# === TEST PASSED ===
# 
# 
# --- UVM Report Summary ---
# 
# ** Report counts by severity
# UVM_INFO :  321
# UVM_WARNING :    0
# UVM_ERROR :    0
# UVM_FATAL :    0
# ** Report counts by id
# [Questa UVM]     3
# [RNTST]     1
# [TB_TOP]     2
# [TEST_DONE]     1
# [TOP_TB]     1
# [UVMTOP]     1
# [axi4_master_agent]     1
# [axi4_master_driver]    41
# [axi4_master_monitor]    51
# [axi4_scoreboard]    88
# [axi4_slave_agent]     1
# [axi4_slave_driver]    41
# [axi4_slave_monitor]    51
# [axi4_vip_env]     5
# [axi4_wr_rd_test]    13
# [axi4_write_read_back_seq]    20
# ** Note: $finish    : /cadtools/mentor/Questa_10.6b/questasim/linux_x86_64/../verilog_src/uvm-1.1d/src/base/uvm_root.svh(430)
#    Time: 1465 ns  Iteration: 59  Instance: /tb_top
# Saving coverage database on exit...
# End time: 09:31:37 on Jun 11,2026, Elapsed time: 0:00:43
# Errors: 0, Warnings: 0
