# vsim -c -coverage -sv_seed 30148085 "+UVM_TESTNAME=axi4_wr_rd_test" "+UVM_VERBOSITY=UVM_HIGH" "+DUMP_VCD" -l ./report/logs/axi4_wr_rd_test_run_1_seed_30148085.log -do "coverage save -onexit ./report/coverage/axi4_wr_rd_test_run_1_seed_30148085.ucdb; run -all; quit -f" opt_tb_top 
# Start time: 12:31:36 on Jun 05,2026
# //  Questa Sim-64
# //  Version 10.6b linux_x86_64 May 25 2017
# //
# //  Copyright 1991-2017 Mentor Graphics Corporation
# //  All Rights Reserved.
# //
# //  QuestaSim and its associated documentation contain trade
# //  secrets and commercial or financial information that are the property of
# //  Mentor Graphics Corporation and are privileged, confidential,
# //  and exempt from disclosure under the Freedom of Information Act,
# //  5 U.S.C. Section 552. Furthermore, this information
# //  is prohibited from disclosure under the Trade Secrets Act,
# //  18 U.S.C. Section 1905.
# //
# Loading sv_std.std
# Loading work.axi4_if(fast)
# Loading mtiUvm.uvm_pkg
# Loading work.axi4_pkg(fast)
# Loading work.axi4_test_pkg(fast)
# Loading work.tb_top(fast)
# Loading work.axi4_if(fast)
# Loading work.axi4_sva(fast)
# Loading mtiUvm.questa_uvm_pkg(fast)
# Loading /cadtools/mentor/Questa_10.6b/questasim/uvm-1.1d/linux_x86_64/uvm_dpi.so
# coverage save -onexit ./report/coverage/axi4_wr_rd_test_run_1_seed_30148085.ucdb
#  run -all
# ----------------------------------------------------------------
# UVM-1.1d
# (C) 2007-2013 Mentor Graphics Corporation
# (C) 2007-2013 Cadence Design Systems, Inc.
# (C) 2006-2013 Synopsys, Inc.
# (C) 2011-2013 Cypress Semiconductor Corp.
# ----------------------------------------------------------------
# 
#   ***********       IMPORTANT RELEASE NOTES         ************
# 
#   You are using a version of the UVM library that has been compiled
#   with `UVM_NO_DEPRECATED undefined.
#   See http://www.eda.org/svdb/view.php?id=3313 for more details.
# 
#   You are using a version of the UVM library that has been compiled
#   with `UVM_OBJECT_MUST_HAVE_CONSTRUCTOR undefined.
#   See http://www.eda.org/svdb/view.php?id=3770 for more details.
# 
#       (Specify +UVM_NO_RELNOTES to turn off this notice)
# 
# UVM_INFO verilog_src/questa_uvm_pkg-1.2/src/questa_uvm_pkg.sv(215) @ 0: reporter [Questa UVM] QUESTA_UVM-1.2.3
# UVM_INFO verilog_src/questa_uvm_pkg-1.2/src/questa_uvm_pkg.sv(217) @ 0: reporter [Questa UVM]  questa_uvm::init(+struct)
# UVM_INFO ../src/tb_top.sv(128) @ 0: reporter [TB_TOP] Virtual interface set in config_db
# UVM_INFO @ 0: reporter [RNTST] Running test axi4_wr_rd_test...
# UVM_INFO ../src/tb_top.sv(142) @ 0: reporter [TB_TOP] Waveform VCD dumping enabled (axi4_vip.vcd)
# UVM_INFO ../src/env/axi4_vip_env.sv(83) @ 0: uvm_test_top.env [axi4_vip_env] slave_vif not set - reusing master_vif (passthrough mode)
# UVM_INFO ../src/env/axi4_vip_env.sv(93) @ 0: uvm_test_top.env [axi4_vip_env] Scoreboard created
# UVM_INFO ../src/env/axi4_vip_env.sv(100) @ 0: uvm_test_top.env [axi4_vip_env] Coverage collectors created
# UVM_INFO ../src/mst/axi4_master_agent.sv(69) @ 0: uvm_test_top.env.master_agent [axi4_master_agent] ACTIVE mode - driver + sequencer created
# UVM_INFO ../src/slv/axi4_slave_agent.sv(82) @ 0: uvm_test_top.env.slave_agent [axi4_slave_agent] ACTIVE mode — ready_delay=[0:0] resp_delay=[0:0]
# UVM_INFO ../src/env/axi4_vip_env.sv(116) @ 0: uvm_test_top.env [axi4_vip_env] Scoreboard connected: master_mon.ap -> scb, slave_mon.ap -> scb
# UVM_INFO ../src/env/axi4_vip_env.sv(124) @ 0: uvm_test_top.env [axi4_vip_env] Coverage connected: master_mon.ap -> master_cov, slave_mon.ap -> slave_cov
# UVM_INFO @ 0: reporter [UVMTOP] UVM testbench topology:
# ---------------------------------------------------------------
# Name                       Type                     Size  Value
# ---------------------------------------------------------------
# uvm_test_top               axi4_wr_rd_test          -     @473 
#   env                      axi4_vip_env             -     @488 
#     master_agent           axi4_master_agent        -     @503 
#       drv                  axi4_master_driver       -     @567 
#         rsp_port           uvm_analysis_port        -     @582 
#         seq_item_port      uvm_seq_item_pull_port   -     @574 
#       mon                  axi4_master_monitor      -     @559 
#         ap                 uvm_analysis_port        -     @700 
#       sqr                  axi4_master_sequencer    -     @590 
#         rsp_export         uvm_analysis_export      -     @597 
#         seq_item_export    uvm_seq_item_pull_imp    -     @691 
#         arbitration_queue  array                    0     -    
#         lock_queue         array                    0     -    
#         num_last_reqs      integral                 32    'd1  
#         num_last_rsps      integral                 32    'd1  
#     master_cov             axi4_coverage            -     @524 
#       analysis_imp         uvm_analysis_imp         -     @531 
#     scb                    axi4_scoreboard          -     @517 
#       master_export        uvm_analysis_imp_master  -     @714 
#       slave_export         uvm_analysis_imp_slave   -     @722 
#     slave_agent            axi4_slave_agent         -     @510 
#       drv                  axi4_slave_driver        -     @753 
#         rsp_port           uvm_analysis_port        -     @768 
#         seq_item_port      uvm_seq_item_pull_port   -     @760 
#       mon                  axi4_slave_monitor       -     @735 
#         ap                 uvm_analysis_port        -     @890 
#       sqr                  axi4_slave_sequencer     -     @776 
#         rsp_export         uvm_analysis_export      -     @783 
#         seq_item_export    uvm_seq_item_pull_imp    -     @877 
#         arbitration_queue  array                    0     -    
#         lock_queue         array                    0     -    
#         num_last_reqs      integral                 32    'd1  
#         num_last_rsps      integral                 32    'd1  
#     slave_cov              axi4_coverage            -     @539 
#       analysis_imp         uvm_analysis_imp         -     @546 
# ---------------------------------------------------------------
# 
# UVM_INFO verilog_src/questa_uvm_pkg-1.2/src/questa_uvm_pkg.sv(277) @ 0: reporter [Questa UVM] End Of Elaboration
# UVM_INFO ../src/test/axi4_wr_rd_test.sv(37) @ 0: uvm_test_top [axi4_wr_rd_test] Starting 10 write-read-back iterations
# UVM_INFO ../src/test/axi4_wr_rd_test.sv(52) @ 0: uvm_test_top [axi4_wr_rd_test] [1/10] ADDR=0x3631e061 LEN=2 BURST=AXI4_BURST_INCR
# UVM_INFO ../src/tb_top.sv(49) @ 95000: reporter [TOP_TB] Reset de-asserted
# UVM_INFO ../src/slv/axi4_slave_driver.sv(70) @ 95000: uvm_test_top.env.slave_agent.drv [axi4_slave_driver] Reset deasserted - slave driver active
# UVM_INFO ../src/mst/axi4_master_driver.sv(46) @ 95000: uvm_test_top.env.master_agent.drv [axi4_master_driver] Reset deasserted - master driver active
# UVM_INFO ../src/mst/axi4_master_monitor.sv(77) @ 95000: uvm_test_top.env.master_agent.mon [axi4_master_monitor] Reset deasserted — monitor active
# UVM_INFO ../src/slv/axi4_slave_monitor.sv(71) @ 95000: uvm_test_top.env.slave_agent.mon [axi4_slave_monitor] Reset deasserted — monitor active
# UVM_INFO ../src/mst/axi4_master_driver.sv(55) @ 95000: uvm_test_top.env.master_agent.drv [axi4_master_driver] Driving AXI4_WRITE  ID=0x0  ADDR=0x3631e061  LEN=2
# UVM_INFO ../src/mst/axi4_master_driver.sv(106) @ 95000: uvm_test_top.env.master_agent.drv [axi4_master_driver] Write order: W -> AW (W first)
# UVM_INFO ../src/slv/axi4_slave_driver.sv(165) @ 135000: uvm_test_top.env.slave_agent.drv [axi4_slave_driver] AW received: ID=0x0 ADDR=0x3631e061 LEN=2 LOCK=AXI4_LOCK_EXCLUSIVE
# UVM_INFO ../src/slv/axi4_slave_monitor.sv(116) @ 135000: uvm_test_top.env.slave_agent.mon [axi4_slave_monitor] AW received: ID=0x0 ADDR=0x3631e061 LEN=2
# UVM_INFO ../src/mst/axi4_master_monitor.sv(124) @ 135000: uvm_test_top.env.master_agent.mon [axi4_master_monitor] AW observed: ID=0x0 ADDR=0x3631e061 LEN=2
# UVM_INFO ../src/mst/axi4_master_monitor.sv(184) @ 145000: uvm_test_top.env.master_agent.mon [axi4_master_monitor] W data assembled: ID=0x0 ADDR=0x3631e061 3 beats
# UVM_INFO ../src/slv/axi4_slave_monitor.sv(167) @ 145000: uvm_test_top.env.slave_agent.mon [axi4_slave_monitor] W data assembled: ID=0x0 ADDR=0x3631e061 3 beats
# UVM_INFO ../src/mst/axi4_master_driver.sv(197) @ 175000: uvm_test_top.env.master_agent.drv [axi4_master_driver] Write response: AXI4_RESP_OKAY
# UVM_INFO ../src/slv/axi4_slave_driver.sv(263) @ 175000: uvm_test_top.env.slave_agent.drv [axi4_slave_driver] Write complete: ID=0x0 ADDR=0x3631e061 RESP=AXI4_RESP_OKAY  3 beats processed
# UVM_INFO ../src/slv/axi4_slave_monitor.sv(189) @ 175000: uvm_test_top.env.slave_agent.mon [axi4_slave_monitor] Write response sent: ID=0x0 ADDR=0x3631e061 RESP=AXI4_RESP_OKAY
# UVM_INFO ../src/env/axi4_scoreboard.sv(103) @ 175000: uvm_test_top.env.scb [axi4_scoreboard] Slave AXI4_WRITE received: ID=0x0 ADDR=0x3631e061 LEN=2
# UVM_INFO ../src/mst/axi4_master_monitor.sv(210) @ 175000: uvm_test_top.env.master_agent.mon [axi4_master_monitor] Write complete: ID=0x0 ADDR=0x3631e061 RESP=AXI4_RESP_OKAY
# UVM_INFO ../src/env/axi4_scoreboard.sv(82) @ 175000: uvm_test_top.env.scb [axi4_scoreboard] Master AXI4_WRITE received: ID=0x0 ADDR=0x3631e061 LEN=2
# UVM_INFO ../src/env/axi4_scoreboard.sv(154) @ 175000: uvm_test_top.env.scb [axi4_scoreboard] [WRITE] MATCH #1: ID=0x0 ADDR=0x3631e061 LEN=2
# UVM_INFO ../src/seq/axi4_write_read_back_seq.sv(60) @ 175000: uvm_test_top.env.master_agent.sqr@@wr_rd_seq_0 [axi4_write_read_back_seq] Write phase: ADDR=0x3631e061 LEN=2 SIZE=AXI4_SIZE_4B BURST=AXI4_BURST_INCR
# UVM_INFO ../src/mst/axi4_master_driver.sv(55) @ 175000: uvm_test_top.env.master_agent.drv [axi4_master_driver] Driving AXI4_READ  ID=0x2  ADDR=0x3631e061  LEN=2
# UVM_INFO ../src/slv/axi4_slave_driver.sv(302) @ 205000: uvm_test_top.env.slave_agent.drv [axi4_slave_driver] AR received: ID=0x2 ADDR=0x3631e061 LEN=2 LOCK=AXI4_LOCK_EXCLUSIVE
# UVM_INFO ../src/mst/axi4_master_monitor.sv(246) @ 205000: uvm_test_top.env.master_agent.mon [axi4_master_monitor] AR observed: ID=0x2 ADDR=0x3631e061 LEN=2
# UVM_INFO ../src/slv/axi4_slave_monitor.sv(224) @ 205000: uvm_test_top.env.slave_agent.mon [axi4_slave_monitor] AR received: ID=0x2 ADDR=0x3631e061 LEN=2
# UVM_INFO ../src/mst/axi4_master_driver.sv(254) @ 265000: uvm_test_top.env.master_agent.drv [axi4_master_driver] Read complete: 3 beats received
# UVM_INFO ../src/slv/axi4_slave_driver.sv(356) @ 265000: uvm_test_top.env.slave_agent.drv [axi4_slave_driver] Read complete: ID=0x2 ADDR=0x3631e061 RESP=AXI4_RESP_EXOKAY  3 beats sent
# UVM_INFO ../src/mst/axi4_master_monitor.sv(314) @ 265000: uvm_test_top.env.master_agent.mon [axi4_master_monitor] Read complete: ID=0x2 ADDR=0x3631e061 3 beats
# UVM_INFO ../src/env/axi4_scoreboard.sv(82) @ 265000: uvm_test_top.env.scb [axi4_scoreboard] Master AXI4_READ received: ID=0x2 ADDR=0x3631e061 LEN=2
# UVM_INFO ../src/slv/axi4_slave_monitor.sv(287) @ 265000: uvm_test_top.env.slave_agent.mon [axi4_slave_monitor] Read data sent: ID=0x2 ADDR=0x3631e061 3 beats
# UVM_INFO ../src/env/axi4_scoreboard.sv(103) @ 265000: uvm_test_top.env.scb [axi4_scoreboard] Slave AXI4_READ received: ID=0x2 ADDR=0x3631e061 LEN=2
# UVM_INFO ../src/env/axi4_scoreboard.sv(154) @ 265000: uvm_test_top.env.scb [axi4_scoreboard] [READ] MATCH #2: ID=0x2 ADDR=0x3631e061 LEN=2
# UVM_INFO ../src/seq/axi4_write_read_back_seq.sv(80) @ 265000: uvm_test_top.env.master_agent.sqr@@wr_rd_seq_0 [axi4_write_read_back_seq] Read-back phase: ADDR=0x3631e061 LEN=2 - data integrity check via scoreboard
# UVM_INFO ../src/test/axi4_wr_rd_test.sv(52) @ 265000: uvm_test_top [axi4_wr_rd_test] [2/10] ADDR=0x1a8b4ed2 LEN=14 BURST=AXI4_BURST_INCR
# UVM_INFO ../src/mst/axi4_master_driver.sv(55) @ 265000: uvm_test_top.env.master_agent.drv [axi4_master_driver] Driving AXI4_WRITE  ID=0xf  ADDR=0x1a8b4ed2  LEN=14
# UVM_INFO ../src/mst/axi4_master_driver.sv(101) @ 265000: uvm_test_top.env.master_agent.drv [axi4_master_driver] Write order: AW -> W (sequential)
# UVM_INFO ../src/slv/axi4_slave_driver.sv(165) @ 295000: uvm_test_top.env.slave_agent.drv [axi4_slave_driver] AW received: ID=0xf ADDR=0x1a8b4ed2 LEN=14 LOCK=AXI4_LOCK_NORMAL
# UVM_INFO ../src/slv/axi4_slave_monitor.sv(116) @ 295000: uvm_test_top.env.slave_agent.mon [axi4_slave_monitor] AW received: ID=0xf ADDR=0x1a8b4ed2 LEN=14
# UVM_INFO ../src/mst/axi4_master_monitor.sv(124) @ 295000: uvm_test_top.env.master_agent.mon [axi4_master_monitor] AW observed: ID=0xf ADDR=0x1a8b4ed2 LEN=14
# UVM_INFO ../src/slv/axi4_slave_monitor.sv(167) @ 595000: uvm_test_top.env.slave_agent.mon [axi4_slave_monitor] W data assembled: ID=0xf ADDR=0x1a8b4ed2 15 beats
# UVM_INFO ../src/mst/axi4_master_monitor.sv(184) @ 595000: uvm_test_top.env.master_agent.mon [axi4_master_monitor] W data assembled: ID=0xf ADDR=0x1a8b4ed2 15 beats
# UVM_INFO ../src/mst/axi4_master_driver.sv(197) @ 625000: uvm_test_top.env.master_agent.drv [axi4_master_driver] Write response: AXI4_RESP_OKAY
# UVM_INFO ../src/slv/axi4_slave_driver.sv(263) @ 625000: uvm_test_top.env.slave_agent.drv [axi4_slave_driver] Write complete: ID=0xf ADDR=0x1a8b4ed2 RESP=AXI4_RESP_OKAY  15 beats processed
# UVM_INFO ../src/mst/axi4_master_monitor.sv(210) @ 625000: uvm_test_top.env.master_agent.mon [axi4_master_monitor] Write complete: ID=0xf ADDR=0x1a8b4ed2 RESP=AXI4_RESP_OKAY
# UVM_INFO ../src/env/axi4_scoreboard.sv(82) @ 625000: uvm_test_top.env.scb [axi4_scoreboard] Master AXI4_WRITE received: ID=0xf ADDR=0x1a8b4ed2 LEN=14
# UVM_INFO ../src/slv/axi4_slave_monitor.sv(189) @ 625000: uvm_test_top.env.slave_agent.mon [axi4_slave_monitor] Write response sent: ID=0xf ADDR=0x1a8b4ed2 RESP=AXI4_RESP_OKAY
# UVM_INFO ../src/env/axi4_scoreboard.sv(103) @ 625000: uvm_test_top.env.scb [axi4_scoreboard] Slave AXI4_WRITE received: ID=0xf ADDR=0x1a8b4ed2 LEN=14
# UVM_INFO ../src/env/axi4_scoreboard.sv(154) @ 625000: uvm_test_top.env.scb [axi4_scoreboard] [WRITE] MATCH #3: ID=0xf ADDR=0x1a8b4ed2 LEN=14
# UVM_INFO ../src/seq/axi4_write_read_back_seq.sv(60) @ 625000: uvm_test_top.env.master_agent.sqr@@wr_rd_seq_1 [axi4_write_read_back_seq] Write phase: ADDR=0x1a8b4ed2 LEN=14 SIZE=AXI4_SIZE_4B BURST=AXI4_BURST_INCR
# UVM_INFO ../src/mst/axi4_master_driver.sv(55) @ 625000: uvm_test_top.env.master_agent.drv [axi4_master_driver] Driving AXI4_READ  ID=0xe  ADDR=0x1a8b4ed2  LEN=14
# UVM_INFO ../src/slv/axi4_slave_driver.sv(302) @ 655000: uvm_test_top.env.slave_agent.drv [axi4_slave_driver] AR received: ID=0xe ADDR=0x1a8b4ed2 LEN=14 LOCK=AXI4_LOCK_NORMAL
# UVM_INFO ../src/slv/axi4_slave_monitor.sv(224) @ 655000: uvm_test_top.env.slave_agent.mon [axi4_slave_monitor] AR received: ID=0xe ADDR=0x1a8b4ed2 LEN=14
# UVM_INFO ../src/mst/axi4_master_monitor.sv(246) @ 655000: uvm_test_top.env.master_agent.mon [axi4_master_monitor] AR observed: ID=0xe ADDR=0x1a8b4ed2 LEN=14
# UVM_INFO ../src/mst/axi4_master_driver.sv(254) @ 955000: uvm_test_top.env.master_agent.drv [axi4_master_driver] Read complete: 15 beats received
# UVM_INFO ../src/slv/axi4_slave_driver.sv(356) @ 955000: uvm_test_top.env.slave_agent.drv [axi4_slave_driver] Read complete: ID=0xe ADDR=0x1a8b4ed2 RESP=AXI4_RESP_OKAY  15 beats sent
# UVM_INFO ../src/slv/axi4_slave_monitor.sv(287) @ 955000: uvm_test_top.env.slave_agent.mon [axi4_slave_monitor] Read data sent: ID=0xe ADDR=0x1a8b4ed2 15 beats
# UVM_INFO ../src/env/axi4_scoreboard.sv(103) @ 955000: uvm_test_top.env.scb [axi4_scoreboard] Slave AXI4_READ received: ID=0xe ADDR=0x1a8b4ed2 LEN=14
# UVM_INFO ../src/mst/axi4_master_monitor.sv(314) @ 955000: uvm_test_top.env.master_agent.mon [axi4_master_monitor] Read complete: ID=0xe ADDR=0x1a8b4ed2 15 beats
# UVM_INFO ../src/env/axi4_scoreboard.sv(82) @ 955000: uvm_test_top.env.scb [axi4_scoreboard] Master AXI4_READ received: ID=0xe ADDR=0x1a8b4ed2 LEN=14
# UVM_INFO ../src/env/axi4_scoreboard.sv(154) @ 955000: uvm_test_top.env.scb [axi4_scoreboard] [READ] MATCH #4: ID=0xe ADDR=0x1a8b4ed2 LEN=14
# UVM_INFO ../src/seq/axi4_write_read_back_seq.sv(80) @ 955000: uvm_test_top.env.master_agent.sqr@@wr_rd_seq_1 [axi4_write_read_back_seq] Read-back phase: ADDR=0x1a8b4ed2 LEN=14 - data integrity check via scoreboard
# UVM_INFO ../src/test/axi4_wr_rd_test.sv(52) @ 955000: uvm_test_top [axi4_wr_rd_test] [3/10] ADDR=0x9fb41a4c LEN=5 BURST=AXI4_BURST_INCR
# UVM_INFO ../src/mst/axi4_master_driver.sv(55) @ 955000: uvm_test_top.env.master_agent.drv [axi4_master_driver] Driving AXI4_WRITE  ID=0xb  ADDR=0x9fb41a4c  LEN=5
# UVM_INFO ../src/mst/axi4_master_driver.sv(106) @ 955000: uvm_test_top.env.master_agent.drv [axi4_master_driver] Write order: W -> AW (W first)
# UVM_INFO ../src/slv/axi4_slave_driver.sv(165) @ 1025000: uvm_test_top.env.slave_agent.drv [axi4_slave_driver] AW received: ID=0xb ADDR=0x9fb41a4c LEN=5 LOCK=AXI4_LOCK_NORMAL
# UVM_INFO ../src/mst/axi4_master_monitor.sv(124) @ 1025000: uvm_test_top.env.master_agent.mon [axi4_master_monitor] AW observed: ID=0xb ADDR=0x9fb41a4c LEN=5
# UVM_INFO ../src/slv/axi4_slave_monitor.sv(116) @ 1025000: uvm_test_top.env.slave_agent.mon [axi4_slave_monitor] AW received: ID=0xb ADDR=0x9fb41a4c LEN=5
# UVM_INFO ../src/slv/axi4_slave_monitor.sv(167) @ 1075000: uvm_test_top.env.slave_agent.mon [axi4_slave_monitor] W data assembled: ID=0xb ADDR=0x9fb41a4c 6 beats
# UVM_INFO ../src/mst/axi4_master_monitor.sv(184) @ 1075000: uvm_test_top.env.master_agent.mon [axi4_master_monitor] W data assembled: ID=0xb ADDR=0x9fb41a4c 6 beats
# UVM_INFO ../src/mst/axi4_master_driver.sv(197) @ 1105000: uvm_test_top.env.master_agent.drv [axi4_master_driver] Write response: AXI4_RESP_OKAY
# UVM_INFO ../src/slv/axi4_slave_driver.sv(263) @ 1105000: uvm_test_top.env.slave_agent.drv [axi4_slave_driver] Write complete: ID=0xb ADDR=0x9fb41a4c RESP=AXI4_RESP_OKAY  6 beats processed
# UVM_INFO ../src/mst/axi4_master_monitor.sv(210) @ 1105000: uvm_test_top.env.master_agent.mon [axi4_master_monitor] Write complete: ID=0xb ADDR=0x9fb41a4c RESP=AXI4_RESP_OKAY
# UVM_INFO ../src/env/axi4_scoreboard.sv(82) @ 1105000: uvm_test_top.env.scb [axi4_scoreboard] Master AXI4_WRITE received: ID=0xb ADDR=0x9fb41a4c LEN=5
# UVM_INFO ../src/slv/axi4_slave_monitor.sv(189) @ 1105000: uvm_test_top.env.slave_agent.mon [axi4_slave_monitor] Write response sent: ID=0xb ADDR=0x9fb41a4c RESP=AXI4_RESP_OKAY
# UVM_INFO ../src/env/axi4_scoreboard.sv(103) @ 1105000: uvm_test_top.env.scb [axi4_scoreboard] Slave AXI4_WRITE received: ID=0xb ADDR=0x9fb41a4c LEN=5
# UVM_INFO ../src/env/axi4_scoreboard.sv(154) @ 1105000: uvm_test_top.env.scb [axi4_scoreboard] [WRITE] MATCH #5: ID=0xb ADDR=0x9fb41a4c LEN=5
# UVM_INFO ../src/seq/axi4_write_read_back_seq.sv(60) @ 1105000: uvm_test_top.env.master_agent.sqr@@wr_rd_seq_2 [axi4_write_read_back_seq] Write phase: ADDR=0x9fb41a4c LEN=5 SIZE=AXI4_SIZE_4B BURST=AXI4_BURST_INCR
# UVM_INFO ../src/mst/axi4_master_driver.sv(55) @ 1105000: uvm_test_top.env.master_agent.drv [axi4_master_driver] Driving AXI4_READ  ID=0x5  ADDR=0x9fb41a4c  LEN=5
# UVM_INFO ../src/slv/axi4_slave_driver.sv(302) @ 1135000: uvm_test_top.env.slave_agent.drv [axi4_slave_driver] AR received: ID=0x5 ADDR=0x9fb41a4c LEN=5 LOCK=AXI4_LOCK_EXCLUSIVE
# UVM_INFO ../src/slv/axi4_slave_monitor.sv(224) @ 1135000: uvm_test_top.env.slave_agent.mon [axi4_slave_monitor] AR received: ID=0x5 ADDR=0x9fb41a4c LEN=5
# UVM_INFO ../src/mst/axi4_master_monitor.sv(246) @ 1135000: uvm_test_top.env.master_agent.mon [axi4_master_monitor] AR observed: ID=0x5 ADDR=0x9fb41a4c LEN=5
# UVM_INFO ../src/mst/axi4_master_driver.sv(254) @ 1255000: uvm_test_top.env.master_agent.drv [axi4_master_driver] Read complete: 6 beats received
# UVM_INFO ../src/slv/axi4_slave_driver.sv(356) @ 1255000: uvm_test_top.env.slave_agent.drv [axi4_slave_driver] Read complete: ID=0x5 ADDR=0x9fb41a4c RESP=AXI4_RESP_EXOKAY  6 beats sent
# UVM_INFO ../src/slv/axi4_slave_monitor.sv(287) @ 1255000: uvm_test_top.env.slave_agent.mon [axi4_slave_monitor] Read data sent: ID=0x5 ADDR=0x9fb41a4c 6 beats
# UVM_INFO ../src/env/axi4_scoreboard.sv(103) @ 1255000: uvm_test_top.env.scb [axi4_scoreboard] Slave AXI4_READ received: ID=0x5 ADDR=0x9fb41a4c LEN=5
# UVM_INFO ../src/mst/axi4_master_monitor.sv(314) @ 1255000: uvm_test_top.env.master_agent.mon [axi4_master_monitor] Read complete: ID=0x5 ADDR=0x9fb41a4c 6 beats
# UVM_INFO ../src/env/axi4_scoreboard.sv(82) @ 1255000: uvm_test_top.env.scb [axi4_scoreboard] Master AXI4_READ received: ID=0x5 ADDR=0x9fb41a4c LEN=5
# UVM_INFO ../src/env/axi4_scoreboard.sv(154) @ 1255000: uvm_test_top.env.scb [axi4_scoreboard] [READ] MATCH #6: ID=0x5 ADDR=0x9fb41a4c LEN=5
# UVM_INFO ../src/seq/axi4_write_read_back_seq.sv(80) @ 1255000: uvm_test_top.env.master_agent.sqr@@wr_rd_seq_2 [axi4_write_read_back_seq] Read-back phase: ADDR=0x9fb41a4c LEN=5 - data integrity check via scoreboard
# UVM_INFO ../src/test/axi4_wr_rd_test.sv(52) @ 1255000: uvm_test_top [axi4_wr_rd_test] [4/10] ADDR=0xdd07f1ff LEN=12 BURST=AXI4_BURST_INCR
# UVM_INFO ../src/mst/axi4_master_driver.sv(55) @ 1255000: uvm_test_top.env.master_agent.drv [axi4_master_driver] Driving AXI4_WRITE  ID=0x9  ADDR=0xdd07f1ff  LEN=12
# UVM_INFO ../src/mst/axi4_master_driver.sv(101) @ 1255000: uvm_test_top.env.master_agent.drv [axi4_master_driver] Write order: AW -> W (sequential)
# UVM_INFO ../src/slv/axi4_slave_driver.sv(165) @ 1285000: uvm_test_top.env.slave_agent.drv [axi4_slave_driver] AW received: ID=0x9 ADDR=0xdd07f1ff LEN=12 LOCK=AXI4_LOCK_EXCLUSIVE
# UVM_INFO ../src/mst/axi4_master_monitor.sv(124) @ 1285000: uvm_test_top.env.master_agent.mon [axi4_master_monitor] AW observed: ID=0x9 ADDR=0xdd07f1ff LEN=12
# UVM_INFO ../src/slv/axi4_slave_monitor.sv(116) @ 1285000: uvm_test_top.env.slave_agent.mon [axi4_slave_monitor] AW received: ID=0x9 ADDR=0xdd07f1ff LEN=12
# UVM_INFO ../src/mst/axi4_master_monitor.sv(184) @ 1545000: uvm_test_top.env.master_agent.mon [axi4_master_monitor] W data assembled: ID=0x9 ADDR=0xdd07f1ff 13 beats
# UVM_INFO ../src/slv/axi4_slave_monitor.sv(167) @ 1545000: uvm_test_top.env.slave_agent.mon [axi4_slave_monitor] W data assembled: ID=0x9 ADDR=0xdd07f1ff 13 beats
# UVM_INFO ../src/mst/axi4_master_driver.sv(197) @ 1575000: uvm_test_top.env.master_agent.drv [axi4_master_driver] Write response: AXI4_RESP_OKAY
# UVM_INFO ../src/slv/axi4_slave_driver.sv(263) @ 1575000: uvm_test_top.env.slave_agent.drv [axi4_slave_driver] Write complete: ID=0x9 ADDR=0xdd07f1ff RESP=AXI4_RESP_OKAY  13 beats processed
# UVM_INFO ../src/slv/axi4_slave_monitor.sv(189) @ 1575000: uvm_test_top.env.slave_agent.mon [axi4_slave_monitor] Write response sent: ID=0x9 ADDR=0xdd07f1ff RESP=AXI4_RESP_OKAY
# UVM_INFO ../src/env/axi4_scoreboard.sv(103) @ 1575000: uvm_test_top.env.scb [axi4_scoreboard] Slave AXI4_WRITE received: ID=0x9 ADDR=0xdd07f1ff LEN=12
# UVM_INFO ../src/mst/axi4_master_monitor.sv(210) @ 1575000: uvm_test_top.env.master_agent.mon [axi4_master_monitor] Write complete: ID=0x9 ADDR=0xdd07f1ff RESP=AXI4_RESP_OKAY
# UVM_INFO ../src/env/axi4_scoreboard.sv(82) @ 1575000: uvm_test_top.env.scb [axi4_scoreboard] Master AXI4_WRITE received: ID=0x9 ADDR=0xdd07f1ff LEN=12
# UVM_INFO ../src/env/axi4_scoreboard.sv(154) @ 1575000: uvm_test_top.env.scb [axi4_scoreboard] [WRITE] MATCH #7: ID=0x9 ADDR=0xdd07f1ff LEN=12
# UVM_INFO ../src/seq/axi4_write_read_back_seq.sv(60) @ 1575000: uvm_test_top.env.master_agent.sqr@@wr_rd_seq_3 [axi4_write_read_back_seq] Write phase: ADDR=0xdd07f1ff LEN=12 SIZE=AXI4_SIZE_4B BURST=AXI4_BURST_INCR
# UVM_INFO ../src/mst/axi4_master_driver.sv(55) @ 1575000: uvm_test_top.env.master_agent.drv [axi4_master_driver] Driving AXI4_READ  ID=0xf  ADDR=0xdd07f1ff  LEN=12
# UVM_INFO ../src/slv/axi4_slave_driver.sv(302) @ 1605000: uvm_test_top.env.slave_agent.drv [axi4_slave_driver] AR received: ID=0xf ADDR=0xdd07f1ff LEN=12 LOCK=AXI4_LOCK_NORMAL
# UVM_INFO ../src/mst/axi4_master_monitor.sv(246) @ 1605000: uvm_test_top.env.master_agent.mon [axi4_master_monitor] AR observed: ID=0xf ADDR=0xdd07f1ff LEN=12
# UVM_INFO ../src/slv/axi4_slave_monitor.sv(224) @ 1605000: uvm_test_top.env.slave_agent.mon [axi4_slave_monitor] AR received: ID=0xf ADDR=0xdd07f1ff LEN=12
# UVM_INFO ../src/mst/axi4_master_driver.sv(254) @ 1865000: uvm_test_top.env.master_agent.drv [axi4_master_driver] Read complete: 13 beats received
# UVM_INFO ../src/slv/axi4_slave_driver.sv(356) @ 1865000: uvm_test_top.env.slave_agent.drv [axi4_slave_driver] Read complete: ID=0xf ADDR=0xdd07f1ff RESP=AXI4_RESP_OKAY  13 beats sent
# UVM_INFO ../src/mst/axi4_master_monitor.sv(314) @ 1865000: uvm_test_top.env.master_agent.mon [axi4_master_monitor] Read complete: ID=0xf ADDR=0xdd07f1ff 13 beats
# UVM_INFO ../src/env/axi4_scoreboard.sv(82) @ 1865000: uvm_test_top.env.scb [axi4_scoreboard] Master AXI4_READ received: ID=0xf ADDR=0xdd07f1ff LEN=12
# UVM_INFO ../src/slv/axi4_slave_monitor.sv(287) @ 1865000: uvm_test_top.env.slave_agent.mon [axi4_slave_monitor] Read data sent: ID=0xf ADDR=0xdd07f1ff 13 beats
# UVM_INFO ../src/env/axi4_scoreboard.sv(103) @ 1865000: uvm_test_top.env.scb [axi4_scoreboard] Slave AXI4_READ received: ID=0xf ADDR=0xdd07f1ff LEN=12
# UVM_INFO ../src/env/axi4_scoreboard.sv(154) @ 1865000: uvm_test_top.env.scb [axi4_scoreboard] [READ] MATCH #8: ID=0xf ADDR=0xdd07f1ff LEN=12
# UVM_INFO ../src/seq/axi4_write_read_back_seq.sv(80) @ 1865000: uvm_test_top.env.master_agent.sqr@@wr_rd_seq_3 [axi4_write_read_back_seq] Read-back phase: ADDR=0xdd07f1ff LEN=12 - data integrity check via scoreboard
# UVM_INFO ../src/test/axi4_wr_rd_test.sv(52) @ 1865000: uvm_test_top [axi4_wr_rd_test] [5/10] ADDR=0x382867c0 LEN=12 BURST=AXI4_BURST_INCR
# UVM_INFO ../src/mst/axi4_master_driver.sv(55) @ 1865000: uvm_test_top.env.master_agent.drv [axi4_master_driver] Driving AXI4_WRITE  ID=0x1  ADDR=0x382867c0  LEN=12
# UVM_INFO ../src/mst/axi4_master_driver.sv(94) @ 1865000: uvm_test_top.env.master_agent.drv [axi4_master_driver] Write order: AW || W (parallel)
# UVM_INFO ../src/slv/axi4_slave_driver.sv(165) @ 1895000: uvm_test_top.env.slave_agent.drv [axi4_slave_driver] AW received: ID=0x1 ADDR=0x382867c0 LEN=12 LOCK=AXI4_LOCK_EXCLUSIVE
# UVM_INFO ../src/slv/axi4_slave_monitor.sv(116) @ 1895000: uvm_test_top.env.slave_agent.mon [axi4_slave_monitor] AW received: ID=0x1 ADDR=0x382867c0 LEN=12
# UVM_INFO ../src/mst/axi4_master_monitor.sv(124) @ 1895000: uvm_test_top.env.master_agent.mon [axi4_master_monitor] AW observed: ID=0x1 ADDR=0x382867c0 LEN=12
# UVM_INFO ../src/mst/axi4_master_monitor.sv(184) @ 2125000: uvm_test_top.env.master_agent.mon [axi4_master_monitor] W data assembled: ID=0x1 ADDR=0x382867c0 13 beats
# UVM_INFO ../src/slv/axi4_slave_monitor.sv(167) @ 2125000: uvm_test_top.env.slave_agent.mon [axi4_slave_monitor] W data assembled: ID=0x1 ADDR=0x382867c0 13 beats
# UVM_INFO ../src/mst/axi4_master_driver.sv(197) @ 2155000: uvm_test_top.env.master_agent.drv [axi4_master_driver] Write response: AXI4_RESP_OKAY
# UVM_INFO ../src/slv/axi4_slave_driver.sv(263) @ 2155000: uvm_test_top.env.slave_agent.drv [axi4_slave_driver] Write complete: ID=0x1 ADDR=0x382867c0 RESP=AXI4_RESP_OKAY  13 beats processed
# UVM_INFO ../src/slv/axi4_slave_monitor.sv(189) @ 2155000: uvm_test_top.env.slave_agent.mon [axi4_slave_monitor] Write response sent: ID=0x1 ADDR=0x382867c0 RESP=AXI4_RESP_OKAY
# UVM_INFO ../src/env/axi4_scoreboard.sv(103) @ 2155000: uvm_test_top.env.scb [axi4_scoreboard] Slave AXI4_WRITE received: ID=0x1 ADDR=0x382867c0 LEN=12
# UVM_INFO ../src/mst/axi4_master_monitor.sv(210) @ 2155000: uvm_test_top.env.master_agent.mon [axi4_master_monitor] Write complete: ID=0x1 ADDR=0x382867c0 RESP=AXI4_RESP_OKAY
# UVM_INFO ../src/env/axi4_scoreboard.sv(82) @ 2155000: uvm_test_top.env.scb [axi4_scoreboard] Master AXI4_WRITE received: ID=0x1 ADDR=0x382867c0 LEN=12
# UVM_INFO ../src/env/axi4_scoreboard.sv(154) @ 2155000: uvm_test_top.env.scb [axi4_scoreboard] [WRITE] MATCH #9: ID=0x1 ADDR=0x382867c0 LEN=12
# UVM_INFO ../src/seq/axi4_write_read_back_seq.sv(60) @ 2155000: uvm_test_top.env.master_agent.sqr@@wr_rd_seq_4 [axi4_write_read_back_seq] Write phase: ADDR=0x382867c0 LEN=12 SIZE=AXI4_SIZE_4B BURST=AXI4_BURST_INCR
# UVM_INFO ../src/mst/axi4_master_driver.sv(55) @ 2155000: uvm_test_top.env.master_agent.drv [axi4_master_driver] Driving AXI4_READ  ID=0x2  ADDR=0x382867c0  LEN=12
# UVM_INFO ../src/slv/axi4_slave_driver.sv(302) @ 2185000: uvm_test_top.env.slave_agent.drv [axi4_slave_driver] AR received: ID=0x2 ADDR=0x382867c0 LEN=12 LOCK=AXI4_LOCK_EXCLUSIVE
# UVM_INFO ../src/mst/axi4_master_monitor.sv(246) @ 2185000: uvm_test_top.env.master_agent.mon [axi4_master_monitor] AR observed: ID=0x2 ADDR=0x382867c0 LEN=12
# UVM_INFO ../src/slv/axi4_slave_monitor.sv(224) @ 2185000: uvm_test_top.env.slave_agent.mon [axi4_slave_monitor] AR received: ID=0x2 ADDR=0x382867c0 LEN=12
# UVM_INFO ../src/mst/axi4_master_driver.sv(254) @ 2445000: uvm_test_top.env.master_agent.drv [axi4_master_driver] Read complete: 13 beats received
# UVM_INFO ../src/slv/axi4_slave_driver.sv(356) @ 2445000: uvm_test_top.env.slave_agent.drv [axi4_slave_driver] Read complete: ID=0x2 ADDR=0x382867c0 RESP=AXI4_RESP_EXOKAY  13 beats sent
# UVM_INFO ../src/mst/axi4_master_monitor.sv(314) @ 2445000: uvm_test_top.env.master_agent.mon [axi4_master_monitor] Read complete: ID=0x2 ADDR=0x382867c0 13 beats
# UVM_INFO ../src/env/axi4_scoreboard.sv(82) @ 2445000: uvm_test_top.env.scb [axi4_scoreboard] Master AXI4_READ received: ID=0x2 ADDR=0x382867c0 LEN=12
# UVM_INFO ../src/slv/axi4_slave_monitor.sv(287) @ 2445000: uvm_test_top.env.slave_agent.mon [axi4_slave_monitor] Read data sent: ID=0x2 ADDR=0x382867c0 13 beats
# UVM_INFO ../src/env/axi4_scoreboard.sv(103) @ 2445000: uvm_test_top.env.scb [axi4_scoreboard] Slave AXI4_READ received: ID=0x2 ADDR=0x382867c0 LEN=12
# UVM_INFO ../src/env/axi4_scoreboard.sv(154) @ 2445000: uvm_test_top.env.scb [axi4_scoreboard] [READ] MATCH #10: ID=0x2 ADDR=0x382867c0 LEN=12
# UVM_INFO ../src/seq/axi4_write_read_back_seq.sv(80) @ 2445000: uvm_test_top.env.master_agent.sqr@@wr_rd_seq_4 [axi4_write_read_back_seq] Read-back phase: ADDR=0x382867c0 LEN=12 - data integrity check via scoreboard
# UVM_INFO ../src/test/axi4_wr_rd_test.sv(52) @ 2445000: uvm_test_top [axi4_wr_rd_test] [6/10] ADDR=0x6729f63a LEN=8 BURST=AXI4_BURST_INCR
# UVM_INFO ../src/mst/axi4_master_driver.sv(55) @ 2445000: uvm_test_top.env.master_agent.drv [axi4_master_driver] Driving AXI4_WRITE  ID=0x0  ADDR=0x6729f63a  LEN=8
# UVM_INFO ../src/mst/axi4_master_driver.sv(94) @ 2445000: uvm_test_top.env.master_agent.drv [axi4_master_driver] Write order: AW || W (parallel)
# UVM_INFO ../src/slv/axi4_slave_driver.sv(165) @ 2475000: uvm_test_top.env.slave_agent.drv [axi4_slave_driver] AW received: ID=0x0 ADDR=0x6729f63a LEN=8 LOCK=AXI4_LOCK_EXCLUSIVE
# UVM_INFO ../src/slv/axi4_slave_monitor.sv(116) @ 2475000: uvm_test_top.env.slave_agent.mon [axi4_slave_monitor] AW received: ID=0x0 ADDR=0x6729f63a LEN=8
# UVM_INFO ../src/mst/axi4_master_monitor.sv(124) @ 2475000: uvm_test_top.env.master_agent.mon [axi4_master_monitor] AW observed: ID=0x0 ADDR=0x6729f63a LEN=8
# UVM_INFO ../src/mst/axi4_master_monitor.sv(184) @ 2625000: uvm_test_top.env.master_agent.mon [axi4_master_monitor] W data assembled: ID=0x0 ADDR=0x6729f63a 9 beats
# UVM_INFO ../src/slv/axi4_slave_monitor.sv(167) @ 2625000: uvm_test_top.env.slave_agent.mon [axi4_slave_monitor] W data assembled: ID=0x0 ADDR=0x6729f63a 9 beats
# UVM_INFO ../src/mst/axi4_master_driver.sv(197) @ 2655000: uvm_test_top.env.master_agent.drv [axi4_master_driver] Write response: AXI4_RESP_OKAY
# UVM_INFO ../src/slv/axi4_slave_driver.sv(263) @ 2655000: uvm_test_top.env.slave_agent.drv [axi4_slave_driver] Write complete: ID=0x0 ADDR=0x6729f63a RESP=AXI4_RESP_OKAY  9 beats processed
# UVM_INFO ../src/slv/axi4_slave_monitor.sv(189) @ 2655000: uvm_test_top.env.slave_agent.mon [axi4_slave_monitor] Write response sent: ID=0x0 ADDR=0x6729f63a RESP=AXI4_RESP_OKAY
# UVM_INFO ../src/env/axi4_scoreboard.sv(103) @ 2655000: uvm_test_top.env.scb [axi4_scoreboard] Slave AXI4_WRITE received: ID=0x0 ADDR=0x6729f63a LEN=8
# UVM_INFO ../src/mst/axi4_master_monitor.sv(210) @ 2655000: uvm_test_top.env.master_agent.mon [axi4_master_monitor] Write complete: ID=0x0 ADDR=0x6729f63a RESP=AXI4_RESP_OKAY
# UVM_INFO ../src/env/axi4_scoreboard.sv(82) @ 2655000: uvm_test_top.env.scb [axi4_scoreboard] Master AXI4_WRITE received: ID=0x0 ADDR=0x6729f63a LEN=8
# UVM_INFO ../src/env/axi4_scoreboard.sv(154) @ 2655000: uvm_test_top.env.scb [axi4_scoreboard] [WRITE] MATCH #11: ID=0x0 ADDR=0x6729f63a LEN=8
# UVM_INFO ../src/seq/axi4_write_read_back_seq.sv(60) @ 2655000: uvm_test_top.env.master_agent.sqr@@wr_rd_seq_5 [axi4_write_read_back_seq] Write phase: ADDR=0x6729f63a LEN=8 SIZE=AXI4_SIZE_4B BURST=AXI4_BURST_INCR
# UVM_INFO ../src/mst/axi4_master_driver.sv(55) @ 2655000: uvm_test_top.env.master_agent.drv [axi4_master_driver] Driving AXI4_READ  ID=0xf  ADDR=0x6729f63a  LEN=8
# UVM_INFO ../src/slv/axi4_slave_driver.sv(302) @ 2685000: uvm_test_top.env.slave_agent.drv [axi4_slave_driver] AR received: ID=0xf ADDR=0x6729f63a LEN=8 LOCK=AXI4_LOCK_EXCLUSIVE
# UVM_INFO ../src/mst/axi4_master_monitor.sv(246) @ 2685000: uvm_test_top.env.master_agent.mon [axi4_master_monitor] AR observed: ID=0xf ADDR=0x6729f63a LEN=8
# UVM_INFO ../src/slv/axi4_slave_monitor.sv(224) @ 2685000: uvm_test_top.env.slave_agent.mon [axi4_slave_monitor] AR received: ID=0xf ADDR=0x6729f63a LEN=8
# UVM_INFO ../src/mst/axi4_master_driver.sv(254) @ 2865000: uvm_test_top.env.master_agent.drv [axi4_master_driver] Read complete: 9 beats received
# UVM_INFO ../src/slv/axi4_slave_driver.sv(356) @ 2865000: uvm_test_top.env.slave_agent.drv [axi4_slave_driver] Read complete: ID=0xf ADDR=0x6729f63a RESP=AXI4_RESP_EXOKAY  9 beats sent
# UVM_INFO ../src/mst/axi4_master_monitor.sv(314) @ 2865000: uvm_test_top.env.master_agent.mon [axi4_master_monitor] Read complete: ID=0xf ADDR=0x6729f63a 9 beats
# UVM_INFO ../src/env/axi4_scoreboard.sv(82) @ 2865000: uvm_test_top.env.scb [axi4_scoreboard] Master AXI4_READ received: ID=0xf ADDR=0x6729f63a LEN=8
# UVM_INFO ../src/slv/axi4_slave_monitor.sv(287) @ 2865000: uvm_test_top.env.slave_agent.mon [axi4_slave_monitor] Read data sent: ID=0xf ADDR=0x6729f63a 9 beats
# UVM_INFO ../src/env/axi4_scoreboard.sv(103) @ 2865000: uvm_test_top.env.scb [axi4_scoreboard] Slave AXI4_READ received: ID=0xf ADDR=0x6729f63a LEN=8
# UVM_INFO ../src/env/axi4_scoreboard.sv(154) @ 2865000: uvm_test_top.env.scb [axi4_scoreboard] [READ] MATCH #12: ID=0xf ADDR=0x6729f63a LEN=8
# UVM_INFO ../src/seq/axi4_write_read_back_seq.sv(80) @ 2865000: uvm_test_top.env.master_agent.sqr@@wr_rd_seq_5 [axi4_write_read_back_seq] Read-back phase: ADDR=0x6729f63a LEN=8 - data integrity check via scoreboard
# UVM_INFO ../src/test/axi4_wr_rd_test.sv(52) @ 2865000: uvm_test_top [axi4_wr_rd_test] [7/10] ADDR=0x790e1760 LEN=7 BURST=AXI4_BURST_INCR
# UVM_INFO ../src/mst/axi4_master_driver.sv(55) @ 2865000: uvm_test_top.env.master_agent.drv [axi4_master_driver] Driving AXI4_WRITE  ID=0x0  ADDR=0x790e1760  LEN=7
# UVM_INFO ../src/mst/axi4_master_driver.sv(94) @ 2865000: uvm_test_top.env.master_agent.drv [axi4_master_driver] Write order: AW || W (parallel)
# UVM_INFO ../src/slv/axi4_slave_driver.sv(165) @ 2895000: uvm_test_top.env.slave_agent.drv [axi4_slave_driver] AW received: ID=0x0 ADDR=0x790e1760 LEN=7 LOCK=AXI4_LOCK_EXCLUSIVE
# UVM_INFO ../src/slv/axi4_slave_monitor.sv(116) @ 2895000: uvm_test_top.env.slave_agent.mon [axi4_slave_monitor] AW received: ID=0x0 ADDR=0x790e1760 LEN=7
# UVM_INFO ../src/mst/axi4_master_monitor.sv(124) @ 2895000: uvm_test_top.env.master_agent.mon [axi4_master_monitor] AW observed: ID=0x0 ADDR=0x790e1760 LEN=7
# UVM_INFO ../src/mst/axi4_master_monitor.sv(184) @ 3025000: uvm_test_top.env.master_agent.mon [axi4_master_monitor] W data assembled: ID=0x0 ADDR=0x790e1760 8 beats
# UVM_INFO ../src/slv/axi4_slave_monitor.sv(167) @ 3025000: uvm_test_top.env.slave_agent.mon [axi4_slave_monitor] W data assembled: ID=0x0 ADDR=0x790e1760 8 beats
# UVM_INFO ../src/mst/axi4_master_driver.sv(197) @ 3055000: uvm_test_top.env.master_agent.drv [axi4_master_driver] Write response: AXI4_RESP_OKAY
# UVM_INFO ../src/slv/axi4_slave_driver.sv(263) @ 3055000: uvm_test_top.env.slave_agent.drv [axi4_slave_driver] Write complete: ID=0x0 ADDR=0x790e1760 RESP=AXI4_RESP_OKAY  8 beats processed
# UVM_INFO ../src/slv/axi4_slave_monitor.sv(189) @ 3055000: uvm_test_top.env.slave_agent.mon [axi4_slave_monitor] Write response sent: ID=0x0 ADDR=0x790e1760 RESP=AXI4_RESP_OKAY
# UVM_INFO ../src/env/axi4_scoreboard.sv(103) @ 3055000: uvm_test_top.env.scb [axi4_scoreboard] Slave AXI4_WRITE received: ID=0x0 ADDR=0x790e1760 LEN=7
# UVM_INFO ../src/mst/axi4_master_monitor.sv(210) @ 3055000: uvm_test_top.env.master_agent.mon [axi4_master_monitor] Write complete: ID=0x0 ADDR=0x790e1760 RESP=AXI4_RESP_OKAY
# UVM_INFO ../src/env/axi4_scoreboard.sv(82) @ 3055000: uvm_test_top.env.scb [axi4_scoreboard] Master AXI4_WRITE received: ID=0x0 ADDR=0x790e1760 LEN=7
# UVM_INFO ../src/env/axi4_scoreboard.sv(154) @ 3055000: uvm_test_top.env.scb [axi4_scoreboard] [WRITE] MATCH #13: ID=0x0 ADDR=0x790e1760 LEN=7
# UVM_INFO ../src/seq/axi4_write_read_back_seq.sv(60) @ 3055000: uvm_test_top.env.master_agent.sqr@@wr_rd_seq_6 [axi4_write_read_back_seq] Write phase: ADDR=0x790e1760 LEN=7 SIZE=AXI4_SIZE_4B BURST=AXI4_BURST_INCR
# UVM_INFO ../src/mst/axi4_master_driver.sv(55) @ 3055000: uvm_test_top.env.master_agent.drv [axi4_master_driver] Driving AXI4_READ  ID=0x3  ADDR=0x790e1760  LEN=7
# UVM_INFO ../src/slv/axi4_slave_driver.sv(302) @ 3085000: uvm_test_top.env.slave_agent.drv [axi4_slave_driver] AR received: ID=0x3 ADDR=0x790e1760 LEN=7 LOCK=AXI4_LOCK_EXCLUSIVE
# UVM_INFO ../src/mst/axi4_master_monitor.sv(246) @ 3085000: uvm_test_top.env.master_agent.mon [axi4_master_monitor] AR observed: ID=0x3 ADDR=0x790e1760 LEN=7
# UVM_INFO ../src/slv/axi4_slave_monitor.sv(224) @ 3085000: uvm_test_top.env.slave_agent.mon [axi4_slave_monitor] AR received: ID=0x3 ADDR=0x790e1760 LEN=7
# UVM_INFO ../src/mst/axi4_master_driver.sv(254) @ 3245000: uvm_test_top.env.master_agent.drv [axi4_master_driver] Read complete: 8 beats received
# UVM_INFO ../src/slv/axi4_slave_driver.sv(356) @ 3245000: uvm_test_top.env.slave_agent.drv [axi4_slave_driver] Read complete: ID=0x3 ADDR=0x790e1760 RESP=AXI4_RESP_EXOKAY  8 beats sent
# UVM_INFO ../src/mst/axi4_master_monitor.sv(314) @ 3245000: uvm_test_top.env.master_agent.mon [axi4_master_monitor] Read complete: ID=0x3 ADDR=0x790e1760 8 beats
# UVM_INFO ../src/env/axi4_scoreboard.sv(82) @ 3245000: uvm_test_top.env.scb [axi4_scoreboard] Master AXI4_READ received: ID=0x3 ADDR=0x790e1760 LEN=7
# UVM_INFO ../src/slv/axi4_slave_monitor.sv(287) @ 3245000: uvm_test_top.env.slave_agent.mon [axi4_slave_monitor] Read data sent: ID=0x3 ADDR=0x790e1760 8 beats
# UVM_INFO ../src/env/axi4_scoreboard.sv(103) @ 3245000: uvm_test_top.env.scb [axi4_scoreboard] Slave AXI4_READ received: ID=0x3 ADDR=0x790e1760 LEN=7
# UVM_INFO ../src/env/axi4_scoreboard.sv(154) @ 3245000: uvm_test_top.env.scb [axi4_scoreboard] [READ] MATCH #14: ID=0x3 ADDR=0x790e1760 LEN=7
# UVM_INFO ../src/seq/axi4_write_read_back_seq.sv(80) @ 3245000: uvm_test_top.env.master_agent.sqr@@wr_rd_seq_6 [axi4_write_read_back_seq] Read-back phase: ADDR=0x790e1760 LEN=7 - data integrity check via scoreboard
# UVM_INFO ../src/test/axi4_wr_rd_test.sv(52) @ 3245000: uvm_test_top [axi4_wr_rd_test] [8/10] ADDR=0xe8e200c9 LEN=5 BURST=AXI4_BURST_INCR
# UVM_INFO ../src/mst/axi4_master_driver.sv(55) @ 3245000: uvm_test_top.env.master_agent.drv [axi4_master_driver] Driving AXI4_WRITE  ID=0x9  ADDR=0xe8e200c9  LEN=5
# UVM_INFO ../src/mst/axi4_master_driver.sv(101) @ 3245000: uvm_test_top.env.master_agent.drv [axi4_master_driver] Write order: AW -> W (sequential)
# UVM_INFO ../src/slv/axi4_slave_driver.sv(165) @ 3275000: uvm_test_top.env.slave_agent.drv [axi4_slave_driver] AW received: ID=0x9 ADDR=0xe8e200c9 LEN=5 LOCK=AXI4_LOCK_EXCLUSIVE
# UVM_INFO ../src/slv/axi4_slave_monitor.sv(116) @ 3275000: uvm_test_top.env.slave_agent.mon [axi4_slave_monitor] AW received: ID=0x9 ADDR=0xe8e200c9 LEN=5
# UVM_INFO ../src/mst/axi4_master_monitor.sv(124) @ 3275000: uvm_test_top.env.master_agent.mon [axi4_master_monitor] AW observed: ID=0x9 ADDR=0xe8e200c9 LEN=5
# UVM_INFO ../src/slv/axi4_slave_monitor.sv(167) @ 3395000: uvm_test_top.env.slave_agent.mon [axi4_slave_monitor] W data assembled: ID=0x9 ADDR=0xe8e200c9 6 beats
# UVM_INFO ../src/mst/axi4_master_monitor.sv(184) @ 3395000: uvm_test_top.env.master_agent.mon [axi4_master_monitor] W data assembled: ID=0x9 ADDR=0xe8e200c9 6 beats
# UVM_INFO ../src/mst/axi4_master_driver.sv(197) @ 3425000: uvm_test_top.env.master_agent.drv [axi4_master_driver] Write response: AXI4_RESP_SLVERR
# UVM_INFO ../src/slv/axi4_slave_driver.sv(263) @ 3425000: uvm_test_top.env.slave_agent.drv [axi4_slave_driver] Write complete: ID=0x9 ADDR=0xe8e200c9 RESP=AXI4_RESP_SLVERR  6 beats processed
# UVM_INFO ../src/mst/axi4_master_monitor.sv(210) @ 3425000: uvm_test_top.env.master_agent.mon [axi4_master_monitor] Write complete: ID=0x9 ADDR=0xe8e200c9 RESP=AXI4_RESP_SLVERR
# UVM_INFO ../src/env/axi4_scoreboard.sv(82) @ 3425000: uvm_test_top.env.scb [axi4_scoreboard] Master AXI4_WRITE received: ID=0x9 ADDR=0xe8e200c9 LEN=5
# UVM_INFO ../src/slv/axi4_slave_monitor.sv(189) @ 3425000: uvm_test_top.env.slave_agent.mon [axi4_slave_monitor] Write response sent: ID=0x9 ADDR=0xe8e200c9 RESP=AXI4_RESP_SLVERR
# UVM_INFO ../src/env/axi4_scoreboard.sv(103) @ 3425000: uvm_test_top.env.scb [axi4_scoreboard] Slave AXI4_WRITE received: ID=0x9 ADDR=0xe8e200c9 LEN=5
# UVM_INFO ../src/env/axi4_scoreboard.sv(154) @ 3425000: uvm_test_top.env.scb [axi4_scoreboard] [WRITE] MATCH #15: ID=0x9 ADDR=0xe8e200c9 LEN=5
# UVM_INFO ../src/seq/axi4_write_read_back_seq.sv(60) @ 3425000: uvm_test_top.env.master_agent.sqr@@wr_rd_seq_7 [axi4_write_read_back_seq] Write phase: ADDR=0xe8e200c9 LEN=5 SIZE=AXI4_SIZE_4B BURST=AXI4_BURST_INCR
# UVM_INFO ../src/mst/axi4_master_driver.sv(55) @ 3425000: uvm_test_top.env.master_agent.drv [axi4_master_driver] Driving AXI4_READ  ID=0xe  ADDR=0xe8e200c9  LEN=5
# UVM_INFO ../src/slv/axi4_slave_driver.sv(302) @ 3455000: uvm_test_top.env.slave_agent.drv [axi4_slave_driver] AR received: ID=0xe ADDR=0xe8e200c9 LEN=5 LOCK=AXI4_LOCK_EXCLUSIVE
# UVM_INFO ../src/slv/axi4_slave_monitor.sv(224) @ 3455000: uvm_test_top.env.slave_agent.mon [axi4_slave_monitor] AR received: ID=0xe ADDR=0xe8e200c9 LEN=5
# UVM_INFO ../src/mst/axi4_master_monitor.sv(246) @ 3455000: uvm_test_top.env.master_agent.mon [axi4_master_monitor] AR observed: ID=0xe ADDR=0xe8e200c9 LEN=5
# UVM_INFO ../src/mst/axi4_master_driver.sv(254) @ 3575000: uvm_test_top.env.master_agent.drv [axi4_master_driver] Read complete: 6 beats received
# UVM_INFO ../src/slv/axi4_slave_driver.sv(356) @ 3575000: uvm_test_top.env.slave_agent.drv [axi4_slave_driver] Read complete: ID=0xe ADDR=0xe8e200c9 RESP=AXI4_RESP_SLVERR  6 beats sent
# UVM_INFO ../src/slv/axi4_slave_monitor.sv(287) @ 3575000: uvm_test_top.env.slave_agent.mon [axi4_slave_monitor] Read data sent: ID=0xe ADDR=0xe8e200c9 6 beats
# UVM_INFO ../src/env/axi4_scoreboard.sv(103) @ 3575000: uvm_test_top.env.scb [axi4_scoreboard] Slave AXI4_READ received: ID=0xe ADDR=0xe8e200c9 LEN=5
# UVM_INFO ../src/mst/axi4_master_monitor.sv(314) @ 3575000: uvm_test_top.env.master_agent.mon [axi4_master_monitor] Read complete: ID=0xe ADDR=0xe8e200c9 6 beats
# UVM_INFO ../src/env/axi4_scoreboard.sv(82) @ 3575000: uvm_test_top.env.scb [axi4_scoreboard] Master AXI4_READ received: ID=0xe ADDR=0xe8e200c9 LEN=5
# UVM_INFO ../src/env/axi4_scoreboard.sv(154) @ 3575000: uvm_test_top.env.scb [axi4_scoreboard] [READ] MATCH #16: ID=0xe ADDR=0xe8e200c9 LEN=5
# UVM_INFO ../src/seq/axi4_write_read_back_seq.sv(80) @ 3575000: uvm_test_top.env.master_agent.sqr@@wr_rd_seq_7 [axi4_write_read_back_seq] Read-back phase: ADDR=0xe8e200c9 LEN=5 - data integrity check via scoreboard
# UVM_INFO ../src/test/axi4_wr_rd_test.sv(52) @ 3575000: uvm_test_top [axi4_wr_rd_test] [9/10] ADDR=0xc4fdbe94 LEN=10 BURST=AXI4_BURST_INCR
# UVM_INFO ../src/mst/axi4_master_driver.sv(55) @ 3575000: uvm_test_top.env.master_agent.drv [axi4_master_driver] Driving AXI4_WRITE  ID=0xe  ADDR=0xc4fdbe94  LEN=10
# UVM_INFO ../src/mst/axi4_master_driver.sv(106) @ 3575000: uvm_test_top.env.master_agent.drv [axi4_master_driver] Write order: W -> AW (W first)
# UVM_INFO ../src/slv/axi4_slave_driver.sv(165) @ 3625000: uvm_test_top.env.slave_agent.drv [axi4_slave_driver] AW received: ID=0xe ADDR=0xc4fdbe94 LEN=10 LOCK=AXI4_LOCK_EXCLUSIVE
# UVM_INFO ../src/mst/axi4_master_monitor.sv(124) @ 3625000: uvm_test_top.env.master_agent.mon [axi4_master_monitor] AW observed: ID=0xe ADDR=0xc4fdbe94 LEN=10
# UVM_INFO ../src/slv/axi4_slave_monitor.sv(116) @ 3625000: uvm_test_top.env.slave_agent.mon [axi4_slave_monitor] AW received: ID=0xe ADDR=0xc4fdbe94 LEN=10
# UVM_INFO ../src/slv/axi4_slave_monitor.sv(167) @ 3795000: uvm_test_top.env.slave_agent.mon [axi4_slave_monitor] W data assembled: ID=0xe ADDR=0xc4fdbe94 11 beats
# UVM_INFO ../src/mst/axi4_master_monitor.sv(184) @ 3795000: uvm_test_top.env.master_agent.mon [axi4_master_monitor] W data assembled: ID=0xe ADDR=0xc4fdbe94 11 beats
# UVM_INFO ../src/mst/axi4_master_driver.sv(197) @ 3825000: uvm_test_top.env.master_agent.drv [axi4_master_driver] Write response: AXI4_RESP_OKAY
# UVM_INFO ../src/slv/axi4_slave_driver.sv(263) @ 3825000: uvm_test_top.env.slave_agent.drv [axi4_slave_driver] Write complete: ID=0xe ADDR=0xc4fdbe94 RESP=AXI4_RESP_OKAY  11 beats processed
# UVM_INFO ../src/mst/axi4_master_monitor.sv(210) @ 3825000: uvm_test_top.env.master_agent.mon [axi4_master_monitor] Write complete: ID=0xe ADDR=0xc4fdbe94 RESP=AXI4_RESP_OKAY
# UVM_INFO ../src/env/axi4_scoreboard.sv(82) @ 3825000: uvm_test_top.env.scb [axi4_scoreboard] Master AXI4_WRITE received: ID=0xe ADDR=0xc4fdbe94 LEN=10
# UVM_INFO ../src/slv/axi4_slave_monitor.sv(189) @ 3825000: uvm_test_top.env.slave_agent.mon [axi4_slave_monitor] Write response sent: ID=0xe ADDR=0xc4fdbe94 RESP=AXI4_RESP_OKAY
# UVM_INFO ../src/env/axi4_scoreboard.sv(103) @ 3825000: uvm_test_top.env.scb [axi4_scoreboard] Slave AXI4_WRITE received: ID=0xe ADDR=0xc4fdbe94 LEN=10
# UVM_INFO ../src/env/axi4_scoreboard.sv(154) @ 3825000: uvm_test_top.env.scb [axi4_scoreboard] [WRITE] MATCH #17: ID=0xe ADDR=0xc4fdbe94 LEN=10
# UVM_INFO ../src/seq/axi4_write_read_back_seq.sv(60) @ 3825000: uvm_test_top.env.master_agent.sqr@@wr_rd_seq_8 [axi4_write_read_back_seq] Write phase: ADDR=0xc4fdbe94 LEN=10 SIZE=AXI4_SIZE_4B BURST=AXI4_BURST_INCR
# UVM_INFO ../src/mst/axi4_master_driver.sv(55) @ 3825000: uvm_test_top.env.master_agent.drv [axi4_master_driver] Driving AXI4_READ  ID=0x0  ADDR=0xc4fdbe94  LEN=10
# UVM_INFO ../src/slv/axi4_slave_driver.sv(302) @ 3855000: uvm_test_top.env.slave_agent.drv [axi4_slave_driver] AR received: ID=0x0 ADDR=0xc4fdbe94 LEN=10 LOCK=AXI4_LOCK_NORMAL
# UVM_INFO ../src/slv/axi4_slave_monitor.sv(224) @ 3855000: uvm_test_top.env.slave_agent.mon [axi4_slave_monitor] AR received: ID=0x0 ADDR=0xc4fdbe94 LEN=10
# UVM_INFO ../src/mst/axi4_master_monitor.sv(246) @ 3855000: uvm_test_top.env.master_agent.mon [axi4_master_monitor] AR observed: ID=0x0 ADDR=0xc4fdbe94 LEN=10
# UVM_INFO ../src/mst/axi4_master_driver.sv(254) @ 4075000: uvm_test_top.env.master_agent.drv [axi4_master_driver] Read complete: 11 beats received
# UVM_INFO ../src/slv/axi4_slave_driver.sv(356) @ 4075000: uvm_test_top.env.slave_agent.drv [axi4_slave_driver] Read complete: ID=0x0 ADDR=0xc4fdbe94 RESP=AXI4_RESP_OKAY  11 beats sent
# UVM_INFO ../src/slv/axi4_slave_monitor.sv(287) @ 4075000: uvm_test_top.env.slave_agent.mon [axi4_slave_monitor] Read data sent: ID=0x0 ADDR=0xc4fdbe94 11 beats
# UVM_INFO ../src/env/axi4_scoreboard.sv(103) @ 4075000: uvm_test_top.env.scb [axi4_scoreboard] Slave AXI4_READ received: ID=0x0 ADDR=0xc4fdbe94 LEN=10
# UVM_INFO ../src/mst/axi4_master_monitor.sv(314) @ 4075000: uvm_test_top.env.master_agent.mon [axi4_master_monitor] Read complete: ID=0x0 ADDR=0xc4fdbe94 11 beats
# UVM_INFO ../src/env/axi4_scoreboard.sv(82) @ 4075000: uvm_test_top.env.scb [axi4_scoreboard] Master AXI4_READ received: ID=0x0 ADDR=0xc4fdbe94 LEN=10
# UVM_INFO ../src/env/axi4_scoreboard.sv(154) @ 4075000: uvm_test_top.env.scb [axi4_scoreboard] [READ] MATCH #18: ID=0x0 ADDR=0xc4fdbe94 LEN=10
# UVM_INFO ../src/seq/axi4_write_read_back_seq.sv(80) @ 4075000: uvm_test_top.env.master_agent.sqr@@wr_rd_seq_8 [axi4_write_read_back_seq] Read-back phase: ADDR=0xc4fdbe94 LEN=10 - data integrity check via scoreboard
# UVM_INFO ../src/test/axi4_wr_rd_test.sv(52) @ 4075000: uvm_test_top [axi4_wr_rd_test] [10/10] ADDR=0x6c9e5352 LEN=9 BURST=AXI4_BURST_INCR
# UVM_INFO ../src/mst/axi4_master_driver.sv(55) @ 4075000: uvm_test_top.env.master_agent.drv [axi4_master_driver] Driving AXI4_WRITE  ID=0x4  ADDR=0x6c9e5352  LEN=9
# UVM_INFO ../src/mst/axi4_master_driver.sv(101) @ 4075000: uvm_test_top.env.master_agent.drv [axi4_master_driver] Write order: AW -> W (sequential)
# UVM_INFO ../src/slv/axi4_slave_driver.sv(165) @ 4105000: uvm_test_top.env.slave_agent.drv [axi4_slave_driver] AW received: ID=0x4 ADDR=0x6c9e5352 LEN=9 LOCK=AXI4_LOCK_EXCLUSIVE
# UVM_INFO ../src/mst/axi4_master_monitor.sv(124) @ 4105000: uvm_test_top.env.master_agent.mon [axi4_master_monitor] AW observed: ID=0x4 ADDR=0x6c9e5352 LEN=9
# UVM_INFO ../src/slv/axi4_slave_monitor.sv(116) @ 4105000: uvm_test_top.env.slave_agent.mon [axi4_slave_monitor] AW received: ID=0x4 ADDR=0x6c9e5352 LEN=9
# UVM_INFO ../src/mst/axi4_master_monitor.sv(184) @ 4305000: uvm_test_top.env.master_agent.mon [axi4_master_monitor] W data assembled: ID=0x4 ADDR=0x6c9e5352 10 beats
# UVM_INFO ../src/slv/axi4_slave_monitor.sv(167) @ 4305000: uvm_test_top.env.slave_agent.mon [axi4_slave_monitor] W data assembled: ID=0x4 ADDR=0x6c9e5352 10 beats
# UVM_INFO ../src/mst/axi4_master_driver.sv(197) @ 4335000: uvm_test_top.env.master_agent.drv [axi4_master_driver] Write response: AXI4_RESP_OKAY
# UVM_INFO ../src/slv/axi4_slave_driver.sv(263) @ 4335000: uvm_test_top.env.slave_agent.drv [axi4_slave_driver] Write complete: ID=0x4 ADDR=0x6c9e5352 RESP=AXI4_RESP_OKAY  10 beats processed
# UVM_INFO ../src/slv/axi4_slave_monitor.sv(189) @ 4335000: uvm_test_top.env.slave_agent.mon [axi4_slave_monitor] Write response sent: ID=0x4 ADDR=0x6c9e5352 RESP=AXI4_RESP_OKAY
# UVM_INFO ../src/env/axi4_scoreboard.sv(103) @ 4335000: uvm_test_top.env.scb [axi4_scoreboard] Slave AXI4_WRITE received: ID=0x4 ADDR=0x6c9e5352 LEN=9
# UVM_INFO ../src/mst/axi4_master_monitor.sv(210) @ 4335000: uvm_test_top.env.master_agent.mon [axi4_master_monitor] Write complete: ID=0x4 ADDR=0x6c9e5352 RESP=AXI4_RESP_OKAY
# UVM_INFO ../src/env/axi4_scoreboard.sv(82) @ 4335000: uvm_test_top.env.scb [axi4_scoreboard] Master AXI4_WRITE received: ID=0x4 ADDR=0x6c9e5352 LEN=9
# UVM_INFO ../src/env/axi4_scoreboard.sv(154) @ 4335000: uvm_test_top.env.scb [axi4_scoreboard] [WRITE] MATCH #19: ID=0x4 ADDR=0x6c9e5352 LEN=9
# UVM_INFO ../src/seq/axi4_write_read_back_seq.sv(60) @ 4335000: uvm_test_top.env.master_agent.sqr@@wr_rd_seq_9 [axi4_write_read_back_seq] Write phase: ADDR=0x6c9e5352 LEN=9 SIZE=AXI4_SIZE_4B BURST=AXI4_BURST_INCR
# UVM_INFO ../src/mst/axi4_master_driver.sv(55) @ 4335000: uvm_test_top.env.master_agent.drv [axi4_master_driver] Driving AXI4_READ  ID=0x6  ADDR=0x6c9e5352  LEN=9
# UVM_INFO ../src/slv/axi4_slave_driver.sv(302) @ 4365000: uvm_test_top.env.slave_agent.drv [axi4_slave_driver] AR received: ID=0x6 ADDR=0x6c9e5352 LEN=9 LOCK=AXI4_LOCK_NORMAL
# UVM_INFO ../src/mst/axi4_master_monitor.sv(246) @ 4365000: uvm_test_top.env.master_agent.mon [axi4_master_monitor] AR observed: ID=0x6 ADDR=0x6c9e5352 LEN=9
# UVM_INFO ../src/slv/axi4_slave_monitor.sv(224) @ 4365000: uvm_test_top.env.slave_agent.mon [axi4_slave_monitor] AR received: ID=0x6 ADDR=0x6c9e5352 LEN=9
# UVM_INFO ../src/mst/axi4_master_driver.sv(254) @ 4565000: uvm_test_top.env.master_agent.drv [axi4_master_driver] Read complete: 10 beats received
# UVM_INFO ../src/slv/axi4_slave_driver.sv(356) @ 4565000: uvm_test_top.env.slave_agent.drv [axi4_slave_driver] Read complete: ID=0x6 ADDR=0x6c9e5352 RESP=AXI4_RESP_OKAY  10 beats sent
# UVM_INFO ../src/mst/axi4_master_monitor.sv(314) @ 4565000: uvm_test_top.env.master_agent.mon [axi4_master_monitor] Read complete: ID=0x6 ADDR=0x6c9e5352 10 beats
# UVM_INFO ../src/env/axi4_scoreboard.sv(82) @ 4565000: uvm_test_top.env.scb [axi4_scoreboard] Master AXI4_READ received: ID=0x6 ADDR=0x6c9e5352 LEN=9
# UVM_INFO ../src/slv/axi4_slave_monitor.sv(287) @ 4565000: uvm_test_top.env.slave_agent.mon [axi4_slave_monitor] Read data sent: ID=0x6 ADDR=0x6c9e5352 10 beats
# UVM_INFO ../src/env/axi4_scoreboard.sv(103) @ 4565000: uvm_test_top.env.scb [axi4_scoreboard] Slave AXI4_READ received: ID=0x6 ADDR=0x6c9e5352 LEN=9
# UVM_INFO ../src/env/axi4_scoreboard.sv(154) @ 4565000: uvm_test_top.env.scb [axi4_scoreboard] [READ] MATCH #20: ID=0x6 ADDR=0x6c9e5352 LEN=9
# UVM_INFO ../src/seq/axi4_write_read_back_seq.sv(80) @ 4565000: uvm_test_top.env.master_agent.sqr@@wr_rd_seq_9 [axi4_write_read_back_seq] Read-back phase: ADDR=0x6c9e5352 LEN=9 - data integrity check via scoreboard
# UVM_INFO ../src/test/axi4_wr_rd_test.sv(62) @ 5065000: uvm_test_top [axi4_wr_rd_test] 10 write-read-back iterations complete
# UVM_INFO verilog_src/uvm-1.1d/src/base/uvm_objection.svh(1268) @ 5065000: reporter [TEST_DONE] 'run' phase is ready to proceed to the 'extract' phase
# UVM_INFO ../src/env/axi4_scoreboard.sv(218) @ 5065000: uvm_test_top.env.scb [axi4_scoreboard] 
# ========================================
#          SCOREBOARD SUMMARY
# ========================================
#   Master transactions : 20
#   Slave transactions  : 20
#   Matches             : 20
#   Mismatches          : 0
#   Unmatched master WR : 0
#   Unmatched master RD : 0
#   Unmatched slave  WR : 0
#   Unmatched slave  RD : 0
# ========================================
#   RESULT : PASS
# ========================================
# UVM_INFO ../src/test/axi4_base_test.sv(91) @ 5065000: uvm_test_top [axi4_wr_rd_test] 
# === TEST PASSED ===
# 
# 
# --- UVM Report Summary ---
# 
# ** Report counts by severity
# UVM_INFO :  304
# UVM_WARNING :    0
# UVM_ERROR :    0
# UVM_FATAL :    0
# ** Report counts by id
# [Questa UVM]     3
# [RNTST]     1
# [TB_TOP]     2
# [TEST_DONE]     1
# [TOP_TB]     1
# [UVMTOP]     1
# [axi4_master_agent]     1
# [axi4_master_driver]    51
# [axi4_master_monitor]    51
# [axi4_scoreboard]    61
# [axi4_slave_agent]     1
# [axi4_slave_driver]    41
# [axi4_slave_monitor]    51
# [axi4_vip_env]     5
# [axi4_wr_rd_test]    13
# [axi4_write_read_back_seq]    20
# ** Note: $finish    : /cadtools/mentor/Questa_10.6b/questasim/linux_x86_64/../verilog_src/uvm-1.1d/src/base/uvm_root.svh(430)
#    Time: 5065 ns  Iteration: 55  Instance: /tb_top
# Saving coverage database on exit...
# End time: 12:32:24 on Jun 05,2026, Elapsed time: 0:00:48
# Errors: 0, Warnings: 0
