# vsim -c -coverage -sv_seed 23635510 "+UVM_TESTNAME=axi4_wr_rd_test" "+UVM_VERBOSITY=UVM_HIGH" "+DUMP_VCD" -l ./report/logs/axi4_wr_rd_test_run_10_seed_23635510.log -do "coverage save -onexit ./report/coverage/axi4_wr_rd_test_run_10_seed_23635510.ucdb; run -all; quit -f" opt_tb_top 
# Start time: 09:04:33 on Jun 04,2026
# //  Questa Sim-64
# //  Version 10.6b linux_x86_64 May 25 2017
# //
# //  Copyright 1991-2017 Mentor Graphics Corporation
# //  All Rights Reserved.
# //
# //  QuestaSim and its associated documentation contain trade
# //  secrets and commercial or financial information that are the property of
# //  Mentor Graphics Corporation and are privileged, confidential,
# //  and exempt from disclosure under the Freedom of Information Act,
# //  5 U.S.C. Section 552. Furthermore, this information
# //  is prohibited from disclosure under the Trade Secrets Act,
# //  18 U.S.C. Section 1905.
# //
# Loading sv_std.std
# Loading work.axi4_if(fast)
# Loading mtiUvm.uvm_pkg
# Loading work.axi4_pkg(fast)
# Loading work.axi4_test_pkg(fast)
# Loading work.tb_top(fast)
# Loading work.axi4_if(fast)
# Loading work.axi4_sva(fast)
# Loading mtiUvm.questa_uvm_pkg(fast)
# Loading /cadtools/mentor/Questa_10.6b/questasim/uvm-1.1d/linux_x86_64/uvm_dpi.so
# coverage save -onexit ./report/coverage/axi4_wr_rd_test_run_10_seed_23635510.ucdb
#  run -all
# ----------------------------------------------------------------
# UVM-1.1d
# (C) 2007-2013 Mentor Graphics Corporation
# (C) 2007-2013 Cadence Design Systems, Inc.
# (C) 2006-2013 Synopsys, Inc.
# (C) 2011-2013 Cypress Semiconductor Corp.
# ----------------------------------------------------------------
# 
#   ***********       IMPORTANT RELEASE NOTES         ************
# 
#   You are using a version of the UVM library that has been compiled
#   with `UVM_NO_DEPRECATED undefined.
#   See http://www.eda.org/svdb/view.php?id=3313 for more details.
# 
#   You are using a version of the UVM library that has been compiled
#   with `UVM_OBJECT_MUST_HAVE_CONSTRUCTOR undefined.
#   See http://www.eda.org/svdb/view.php?id=3770 for more details.
# 
#       (Specify +UVM_NO_RELNOTES to turn off this notice)
# 
# UVM_INFO verilog_src/questa_uvm_pkg-1.2/src/questa_uvm_pkg.sv(215) @ 0: reporter [Questa UVM] QUESTA_UVM-1.2.3
# UVM_INFO verilog_src/questa_uvm_pkg-1.2/src/questa_uvm_pkg.sv(217) @ 0: reporter [Questa UVM]  questa_uvm::init(+struct)
# UVM_INFO ../src/tb_top.sv(128) @ 0: reporter [TB_TOP] Virtual interface set in config_db
# UVM_INFO @ 0: reporter [RNTST] Running test axi4_wr_rd_test...
# UVM_INFO ../src/tb_top.sv(142) @ 0: reporter [TB_TOP] Waveform VCD dumping enabled (axi4_vip.vcd)
# UVM_INFO ../src/env/axi4_vip_env.sv(83) @ 0: uvm_test_top.env [axi4_vip_env] slave_vif not set - reusing master_vif (passthrough mode)
# UVM_INFO ../src/env/axi4_vip_env.sv(93) @ 0: uvm_test_top.env [axi4_vip_env] Scoreboard created
# UVM_INFO ../src/env/axi4_vip_env.sv(100) @ 0: uvm_test_top.env [axi4_vip_env] Coverage collectors created
# UVM_INFO ../src/mst/axi4_master_agent.sv(69) @ 0: uvm_test_top.env.master_agent [axi4_master_agent] ACTIVE mode - driver + sequencer created
# UVM_INFO ../src/slv/axi4_slave_agent.sv(82) @ 0: uvm_test_top.env.slave_agent [axi4_slave_agent] ACTIVE mode — ready_delay=[0:0] resp_delay=[0:0]
# UVM_INFO ../src/env/axi4_vip_env.sv(117) @ 0: uvm_test_top.env [axi4_vip_env] Scoreboard connected: master_mon.ap -> scb, slave_mon.ap -> scb
# UVM_INFO ../src/env/axi4_vip_env.sv(126) @ 0: uvm_test_top.env [axi4_vip_env] Coverage connected: master_mon.ap -> master_cov, slave_mon.ap -> slave_cov
# UVM_INFO @ 0: reporter [UVMTOP] UVM testbench topology:
# ---------------------------------------------------------------
# Name                       Type                     Size  Value
# ---------------------------------------------------------------
# uvm_test_top               axi4_wr_rd_test          -     @473 
#   env                      axi4_vip_env             -     @488 
#     master_agent           axi4_master_agent        -     @503 
#       drv                  axi4_master_driver       -     @567 
#         rsp_port           uvm_analysis_port        -     @582 
#         seq_item_port      uvm_seq_item_pull_port   -     @574 
#       mon                  axi4_master_monitor      -     @559 
#         ap                 uvm_analysis_port        -     @700 
#       sqr                  axi4_master_sequencer    -     @590 
#         rsp_export         uvm_analysis_export      -     @597 
#         seq_item_export    uvm_seq_item_pull_imp    -     @691 
#         arbitration_queue  array                    0     -    
#         lock_queue         array                    0     -    
#         num_last_reqs      integral                 32    'd1  
#         num_last_rsps      integral                 32    'd1  
#     master_cov             axi4_coverage            -     @524 
#       analysis_imp         uvm_analysis_imp         -     @531 
#     scb                    axi4_scoreboard          -     @517 
#       master_export        uvm_analysis_imp_master  -     @714 
#       slave_export         uvm_analysis_imp_slave   -     @722 
#     slave_agent            axi4_slave_agent         -     @510 
#       drv                  axi4_slave_driver        -     @753 
#         rsp_port           uvm_analysis_port        -     @768 
#         seq_item_port      uvm_seq_item_pull_port   -     @760 
#       mon                  axi4_slave_monitor       -     @735 
#         ap                 uvm_analysis_port        -     @890 
#       sqr                  axi4_slave_sequencer     -     @776 
#         rsp_export         uvm_analysis_export      -     @783 
#         seq_item_export    uvm_seq_item_pull_imp    -     @877 
#         arbitration_queue  array                    0     -    
#         lock_queue         array                    0     -    
#         num_last_reqs      integral                 32    'd1  
#         num_last_rsps      integral                 32    'd1  
#     slave_cov              axi4_coverage            -     @539 
#       analysis_imp         uvm_analysis_imp         -     @546 
# ---------------------------------------------------------------
# 
# UVM_INFO verilog_src/questa_uvm_pkg-1.2/src/questa_uvm_pkg.sv(277) @ 0: reporter [Questa UVM] End Of Elaboration
# UVM_INFO ../src/test/axi4_wr_rd_test.sv(37) @ 0: uvm_test_top [axi4_wr_rd_test] Starting 10 write-read-back iterations
# UVM_INFO ../src/test/axi4_wr_rd_test.sv(52) @ 0: uvm_test_top [axi4_wr_rd_test] [1/10] ADDR=0x256950e5 LEN=0 BURST=AXI4_BURST_INCR
# UVM_INFO ../src/tb_top.sv(49) @ 95000: reporter [TOP_TB] Reset de-asserted
# UVM_INFO ../src/slv/axi4_slave_driver.sv(66) @ 95000: uvm_test_top.env.slave_agent.drv [axi4_slave_driver] Reset deasserted - slave driver active
# UVM_INFO ../src/mst/axi4_master_driver.sv(46) @ 95000: uvm_test_top.env.master_agent.drv [axi4_master_driver] Reset deasserted - master driver active
# UVM_INFO ../src/mst/axi4_master_monitor.sv(77) @ 95000: uvm_test_top.env.master_agent.mon [axi4_master_monitor] Reset deasserted — monitor active
# UVM_INFO ../src/slv/axi4_slave_monitor.sv(71) @ 95000: uvm_test_top.env.slave_agent.mon [axi4_slave_monitor] Reset deasserted — monitor active
# UVM_INFO ../src/mst/axi4_master_driver.sv(55) @ 95000: uvm_test_top.env.master_agent.drv [axi4_master_driver] Driving AXI4_WRITE  ID=0x9  ADDR=0x256950e5  LEN=0
# UVM_INFO ../src/mst/axi4_master_driver.sv(94) @ 95000: uvm_test_top.env.master_agent.drv [axi4_master_driver] Write order: AW || W (parallel)
# UVM_INFO ../src/slv/axi4_slave_driver.sv(159) @ 115000: uvm_test_top.env.slave_agent.drv [axi4_slave_driver] AW received: ID=0x9 ADDR=0x256950e5 LEN=0
# UVM_INFO ../src/slv/axi4_slave_monitor.sv(116) @ 115000: uvm_test_top.env.slave_agent.mon [axi4_slave_monitor] AW received: ID=0x9 ADDR=0x256950e5 LEN=0
# UVM_INFO ../src/mst/axi4_master_monitor.sv(124) @ 115000: uvm_test_top.env.master_agent.mon [axi4_master_monitor] AW observed: ID=0x9 ADDR=0x256950e5 LEN=0
# UVM_INFO ../src/slv/axi4_slave_monitor.sv(167) @ 115000: uvm_test_top.env.slave_agent.mon [axi4_slave_monitor] W data assembled: ID=0x9 ADDR=0x256950e5 1 beats
# UVM_INFO ../src/mst/axi4_master_monitor.sv(184) @ 115000: uvm_test_top.env.master_agent.mon [axi4_master_monitor] W data assembled: ID=0x9 ADDR=0x256950e5 1 beats
# UVM_INFO ../src/mst/axi4_master_driver.sv(197) @ 135000: uvm_test_top.env.master_agent.drv [axi4_master_driver] Write response: AXI4_RESP_OKAY
# UVM_INFO ../src/slv/axi4_slave_driver.sv(223) @ 135000: uvm_test_top.env.slave_agent.drv [axi4_slave_driver] Write complete: ID=0x9  1 beats stored
# UVM_INFO ../src/slv/axi4_slave_monitor.sv(189) @ 135000: uvm_test_top.env.slave_agent.mon [axi4_slave_monitor] Write response sent: ID=0x9 ADDR=0x256950e5 RESP=AXI4_RESP_OKAY
# UVM_INFO ../src/env/axi4_scoreboard.sv(103) @ 135000: uvm_test_top.env.scb [axi4_scoreboard] Slave AXI4_WRITE received: ID=0x9 ADDR=0x256950e5 LEN=0
# UVM_INFO ../src/mst/axi4_master_monitor.sv(210) @ 135000: uvm_test_top.env.master_agent.mon [axi4_master_monitor] Write complete: ID=0x9 ADDR=0x256950e5 RESP=AXI4_RESP_OKAY
# UVM_INFO ../src/env/axi4_scoreboard.sv(82) @ 135000: uvm_test_top.env.scb [axi4_scoreboard] Master AXI4_WRITE received: ID=0x9 ADDR=0x256950e5 LEN=0
# UVM_INFO ../src/env/axi4_scoreboard.sv(154) @ 135000: uvm_test_top.env.scb [axi4_scoreboard] [WRITE] MATCH #1: ID=0x9 ADDR=0x256950e5 LEN=0
# UVM_INFO ../src/seq/axi4_write_read_back_seq.sv(60) @ 135000: uvm_test_top.env.master_agent.sqr@@wr_rd_seq_0 [axi4_write_read_back_seq] Write phase: ADDR=0x256950e5 LEN=0 SIZE=AXI4_SIZE_4B BURST=AXI4_BURST_INCR
# UVM_INFO ../src/mst/axi4_master_driver.sv(55) @ 135000: uvm_test_top.env.master_agent.drv [axi4_master_driver] Driving AXI4_READ  ID=0xb  ADDR=0x256950e5  LEN=0
# UVM_INFO ../src/slv/axi4_slave_driver.sv(259) @ 165000: uvm_test_top.env.slave_agent.drv [axi4_slave_driver] AR received: ID=0xb ADDR=0x256950e5 LEN=0
# UVM_INFO ../src/mst/axi4_master_monitor.sv(246) @ 165000: uvm_test_top.env.master_agent.mon [axi4_master_monitor] AR observed: ID=0xb ADDR=0x256950e5 LEN=0
# UVM_INFO ../src/slv/axi4_slave_monitor.sv(224) @ 165000: uvm_test_top.env.slave_agent.mon [axi4_slave_monitor] AR received: ID=0xb ADDR=0x256950e5 LEN=0
# UVM_INFO ../src/mst/axi4_master_driver.sv(254) @ 185000: uvm_test_top.env.master_agent.drv [axi4_master_driver] Read complete: 1 beats received
# UVM_INFO ../src/slv/axi4_slave_driver.sv(293) @ 185000: uvm_test_top.env.slave_agent.drv [axi4_slave_driver] Read complete: ID=0xb  1 beats sent
# UVM_INFO ../src/mst/axi4_master_monitor.sv(314) @ 185000: uvm_test_top.env.master_agent.mon [axi4_master_monitor] Read complete: ID=0xb ADDR=0x256950e5 1 beats
# UVM_INFO ../src/env/axi4_scoreboard.sv(82) @ 185000: uvm_test_top.env.scb [axi4_scoreboard] Master AXI4_READ received: ID=0xb ADDR=0x256950e5 LEN=0
# UVM_INFO ../src/slv/axi4_slave_monitor.sv(287) @ 185000: uvm_test_top.env.slave_agent.mon [axi4_slave_monitor] Read data sent: ID=0xb ADDR=0x256950e5 1 beats
# UVM_INFO ../src/env/axi4_scoreboard.sv(103) @ 185000: uvm_test_top.env.scb [axi4_scoreboard] Slave AXI4_READ received: ID=0xb ADDR=0x256950e5 LEN=0
# UVM_INFO ../src/env/axi4_scoreboard.sv(154) @ 185000: uvm_test_top.env.scb [axi4_scoreboard] [READ] MATCH #2: ID=0xb ADDR=0x256950e5 LEN=0
# UVM_INFO ../src/seq/axi4_write_read_back_seq.sv(80) @ 185000: uvm_test_top.env.master_agent.sqr@@wr_rd_seq_0 [axi4_write_read_back_seq] Read-back phase: ADDR=0x256950e5 LEN=0 - data integrity check via scoreboard
# UVM_INFO ../src/test/axi4_wr_rd_test.sv(52) @ 185000: uvm_test_top [axi4_wr_rd_test] [2/10] ADDR=0x34b97287 LEN=10 BURST=AXI4_BURST_INCR
# UVM_INFO ../src/mst/axi4_master_driver.sv(55) @ 185000: uvm_test_top.env.master_agent.drv [axi4_master_driver] Driving AXI4_WRITE  ID=0xe  ADDR=0x34b97287  LEN=10
# UVM_INFO ../src/mst/axi4_master_driver.sv(106) @ 185000: uvm_test_top.env.master_agent.drv [axi4_master_driver] Write order: W -> AW (W first)
# ** Error: [SVA] WLAST not asserted on final W beat (beat=1, AWLEN=0)
#    Time: 205 ns Started: 205 ns  Scope: tb_top.u_axi4_sva.WLAST_CORRECT File: ../src/sva/axi4_sva.sv Line: 440
# UVM_INFO ../src/slv/axi4_slave_driver.sv(159) @ 265000: uvm_test_top.env.slave_agent.drv [axi4_slave_driver] AW received: ID=0xe ADDR=0x34b97287 LEN=10
# UVM_INFO ../src/mst/axi4_master_monitor.sv(124) @ 265000: uvm_test_top.env.master_agent.mon [axi4_master_monitor] AW observed: ID=0xe ADDR=0x34b97287 LEN=10
# UVM_INFO ../src/slv/axi4_slave_monitor.sv(116) @ 265000: uvm_test_top.env.slave_agent.mon [axi4_slave_monitor] AW received: ID=0xe ADDR=0x34b97287 LEN=10
# UVM_INFO ../src/mst/axi4_master_monitor.sv(184) @ 405000: uvm_test_top.env.master_agent.mon [axi4_master_monitor] W data assembled: ID=0xe ADDR=0x34b97287 11 beats
# UVM_INFO ../src/slv/axi4_slave_monitor.sv(167) @ 405000: uvm_test_top.env.slave_agent.mon [axi4_slave_monitor] W data assembled: ID=0xe ADDR=0x34b97287 11 beats
# UVM_INFO ../src/mst/axi4_master_driver.sv(197) @ 435000: uvm_test_top.env.master_agent.drv [axi4_master_driver] Write response: AXI4_RESP_OKAY
# UVM_INFO ../src/slv/axi4_slave_driver.sv(223) @ 435000: uvm_test_top.env.slave_agent.drv [axi4_slave_driver] Write complete: ID=0xe  11 beats stored
# UVM_INFO ../src/slv/axi4_slave_monitor.sv(189) @ 435000: uvm_test_top.env.slave_agent.mon [axi4_slave_monitor] Write response sent: ID=0xe ADDR=0x34b97287 RESP=AXI4_RESP_OKAY
# UVM_INFO ../src/env/axi4_scoreboard.sv(103) @ 435000: uvm_test_top.env.scb [axi4_scoreboard] Slave AXI4_WRITE received: ID=0xe ADDR=0x34b97287 LEN=10
# UVM_INFO ../src/mst/axi4_master_monitor.sv(210) @ 435000: uvm_test_top.env.master_agent.mon [axi4_master_monitor] Write complete: ID=0xe ADDR=0x34b97287 RESP=AXI4_RESP_OKAY
# UVM_INFO ../src/env/axi4_scoreboard.sv(82) @ 435000: uvm_test_top.env.scb [axi4_scoreboard] Master AXI4_WRITE received: ID=0xe ADDR=0x34b97287 LEN=10
# UVM_INFO ../src/env/axi4_scoreboard.sv(154) @ 435000: uvm_test_top.env.scb [axi4_scoreboard] [WRITE] MATCH #3: ID=0xe ADDR=0x34b97287 LEN=10
# UVM_INFO ../src/seq/axi4_write_read_back_seq.sv(60) @ 435000: uvm_test_top.env.master_agent.sqr@@wr_rd_seq_1 [axi4_write_read_back_seq] Write phase: ADDR=0x34b97287 LEN=10 SIZE=AXI4_SIZE_4B BURST=AXI4_BURST_INCR
# UVM_INFO ../src/mst/axi4_master_driver.sv(55) @ 435000: uvm_test_top.env.master_agent.drv [axi4_master_driver] Driving AXI4_READ  ID=0xc  ADDR=0x34b97287  LEN=10
# UVM_INFO ../src/slv/axi4_slave_driver.sv(259) @ 465000: uvm_test_top.env.slave_agent.drv [axi4_slave_driver] AR received: ID=0xc ADDR=0x34b97287 LEN=10
# UVM_INFO ../src/mst/axi4_master_monitor.sv(246) @ 465000: uvm_test_top.env.master_agent.mon [axi4_master_monitor] AR observed: ID=0xc ADDR=0x34b97287 LEN=10
# UVM_INFO ../src/slv/axi4_slave_monitor.sv(224) @ 465000: uvm_test_top.env.slave_agent.mon [axi4_slave_monitor] AR received: ID=0xc ADDR=0x34b97287 LEN=10
# UVM_INFO ../src/mst/axi4_master_driver.sv(254) @ 685000: uvm_test_top.env.master_agent.drv [axi4_master_driver] Read complete: 11 beats received
# UVM_INFO ../src/slv/axi4_slave_driver.sv(293) @ 685000: uvm_test_top.env.slave_agent.drv [axi4_slave_driver] Read complete: ID=0xc  11 beats sent
# UVM_INFO ../src/mst/axi4_master_monitor.sv(314) @ 685000: uvm_test_top.env.master_agent.mon [axi4_master_monitor] Read complete: ID=0xc ADDR=0x34b97287 11 beats
# UVM_INFO ../src/env/axi4_scoreboard.sv(82) @ 685000: uvm_test_top.env.scb [axi4_scoreboard] Master AXI4_READ received: ID=0xc ADDR=0x34b97287 LEN=10
# UVM_INFO ../src/slv/axi4_slave_monitor.sv(287) @ 685000: uvm_test_top.env.slave_agent.mon [axi4_slave_monitor] Read data sent: ID=0xc ADDR=0x34b97287 11 beats
# UVM_INFO ../src/env/axi4_scoreboard.sv(103) @ 685000: uvm_test_top.env.scb [axi4_scoreboard] Slave AXI4_READ received: ID=0xc ADDR=0x34b97287 LEN=10
# UVM_INFO ../src/env/axi4_scoreboard.sv(154) @ 685000: uvm_test_top.env.scb [axi4_scoreboard] [READ] MATCH #4: ID=0xc ADDR=0x34b97287 LEN=10
# UVM_INFO ../src/seq/axi4_write_read_back_seq.sv(80) @ 685000: uvm_test_top.env.master_agent.sqr@@wr_rd_seq_1 [axi4_write_read_back_seq] Read-back phase: ADDR=0x34b97287 LEN=10 - data integrity check via scoreboard
# UVM_INFO ../src/test/axi4_wr_rd_test.sv(52) @ 685000: uvm_test_top [axi4_wr_rd_test] [3/10] ADDR=0xd59c3c1e LEN=13 BURST=AXI4_BURST_INCR
# UVM_INFO ../src/mst/axi4_master_driver.sv(55) @ 685000: uvm_test_top.env.master_agent.drv [axi4_master_driver] Driving AXI4_WRITE  ID=0x2  ADDR=0xd59c3c1e  LEN=13
# UVM_INFO ../src/mst/axi4_master_driver.sv(94) @ 685000: uvm_test_top.env.master_agent.drv [axi4_master_driver] Write order: AW || W (parallel)
# UVM_INFO ../src/slv/axi4_slave_driver.sv(159) @ 715000: uvm_test_top.env.slave_agent.drv [axi4_slave_driver] AW received: ID=0x2 ADDR=0xd59c3c1e LEN=13
# UVM_INFO ../src/slv/axi4_slave_monitor.sv(116) @ 715000: uvm_test_top.env.slave_agent.mon [axi4_slave_monitor] AW received: ID=0x2 ADDR=0xd59c3c1e LEN=13
# UVM_INFO ../src/mst/axi4_master_monitor.sv(124) @ 715000: uvm_test_top.env.master_agent.mon [axi4_master_monitor] AW observed: ID=0x2 ADDR=0xd59c3c1e LEN=13
# UVM_INFO ../src/mst/axi4_master_monitor.sv(184) @ 965000: uvm_test_top.env.master_agent.mon [axi4_master_monitor] W data assembled: ID=0x2 ADDR=0xd59c3c1e 14 beats
# UVM_INFO ../src/slv/axi4_slave_monitor.sv(167) @ 965000: uvm_test_top.env.slave_agent.mon [axi4_slave_monitor] W data assembled: ID=0x2 ADDR=0xd59c3c1e 14 beats
# UVM_INFO ../src/mst/axi4_master_driver.sv(197) @ 995000: uvm_test_top.env.master_agent.drv [axi4_master_driver] Write response: AXI4_RESP_OKAY
# UVM_INFO ../src/slv/axi4_slave_driver.sv(223) @ 995000: uvm_test_top.env.slave_agent.drv [axi4_slave_driver] Write complete: ID=0x2  14 beats stored
# UVM_INFO ../src/slv/axi4_slave_monitor.sv(189) @ 995000: uvm_test_top.env.slave_agent.mon [axi4_slave_monitor] Write response sent: ID=0x2 ADDR=0xd59c3c1e RESP=AXI4_RESP_OKAY
# UVM_INFO ../src/env/axi4_scoreboard.sv(103) @ 995000: uvm_test_top.env.scb [axi4_scoreboard] Slave AXI4_WRITE received: ID=0x2 ADDR=0xd59c3c1e LEN=13
# UVM_INFO ../src/mst/axi4_master_monitor.sv(210) @ 995000: uvm_test_top.env.master_agent.mon [axi4_master_monitor] Write complete: ID=0x2 ADDR=0xd59c3c1e RESP=AXI4_RESP_OKAY
# UVM_INFO ../src/env/axi4_scoreboard.sv(82) @ 995000: uvm_test_top.env.scb [axi4_scoreboard] Master AXI4_WRITE received: ID=0x2 ADDR=0xd59c3c1e LEN=13
# UVM_INFO ../src/env/axi4_scoreboard.sv(154) @ 995000: uvm_test_top.env.scb [axi4_scoreboard] [WRITE] MATCH #5: ID=0x2 ADDR=0xd59c3c1e LEN=13
# UVM_INFO ../src/seq/axi4_write_read_back_seq.sv(60) @ 995000: uvm_test_top.env.master_agent.sqr@@wr_rd_seq_2 [axi4_write_read_back_seq] Write phase: ADDR=0xd59c3c1e LEN=13 SIZE=AXI4_SIZE_4B BURST=AXI4_BURST_INCR
# UVM_INFO ../src/mst/axi4_master_driver.sv(55) @ 995000: uvm_test_top.env.master_agent.drv [axi4_master_driver] Driving AXI4_READ  ID=0xa  ADDR=0xd59c3c1e  LEN=13
# UVM_INFO ../src/slv/axi4_slave_driver.sv(259) @ 1025000: uvm_test_top.env.slave_agent.drv [axi4_slave_driver] AR received: ID=0xa ADDR=0xd59c3c1e LEN=13
# UVM_INFO ../src/mst/axi4_master_monitor.sv(246) @ 1025000: uvm_test_top.env.master_agent.mon [axi4_master_monitor] AR observed: ID=0xa ADDR=0xd59c3c1e LEN=13
# UVM_INFO ../src/slv/axi4_slave_monitor.sv(224) @ 1025000: uvm_test_top.env.slave_agent.mon [axi4_slave_monitor] AR received: ID=0xa ADDR=0xd59c3c1e LEN=13
# UVM_INFO ../src/mst/axi4_master_driver.sv(254) @ 1305000: uvm_test_top.env.master_agent.drv [axi4_master_driver] Read complete: 14 beats received
# UVM_INFO ../src/slv/axi4_slave_driver.sv(293) @ 1305000: uvm_test_top.env.slave_agent.drv [axi4_slave_driver] Read complete: ID=0xa  14 beats sent
# UVM_INFO ../src/mst/axi4_master_monitor.sv(314) @ 1305000: uvm_test_top.env.master_agent.mon [axi4_master_monitor] Read complete: ID=0xa ADDR=0xd59c3c1e 14 beats
# UVM_INFO ../src/env/axi4_scoreboard.sv(82) @ 1305000: uvm_test_top.env.scb [axi4_scoreboard] Master AXI4_READ received: ID=0xa ADDR=0xd59c3c1e LEN=13
# UVM_INFO ../src/slv/axi4_slave_monitor.sv(287) @ 1305000: uvm_test_top.env.slave_agent.mon [axi4_slave_monitor] Read data sent: ID=0xa ADDR=0xd59c3c1e 14 beats
# UVM_INFO ../src/env/axi4_scoreboard.sv(103) @ 1305000: uvm_test_top.env.scb [axi4_scoreboard] Slave AXI4_READ received: ID=0xa ADDR=0xd59c3c1e LEN=13
# UVM_INFO ../src/env/axi4_scoreboard.sv(154) @ 1305000: uvm_test_top.env.scb [axi4_scoreboard] [READ] MATCH #6: ID=0xa ADDR=0xd59c3c1e LEN=13
# UVM_INFO ../src/seq/axi4_write_read_back_seq.sv(80) @ 1305000: uvm_test_top.env.master_agent.sqr@@wr_rd_seq_2 [axi4_write_read_back_seq] Read-back phase: ADDR=0xd59c3c1e LEN=13 - data integrity check via scoreboard
# UVM_INFO ../src/test/axi4_wr_rd_test.sv(52) @ 1305000: uvm_test_top [axi4_wr_rd_test] [4/10] ADDR=0xcc762000 LEN=11 BURST=AXI4_BURST_INCR
# UVM_INFO ../src/mst/axi4_master_driver.sv(55) @ 1305000: uvm_test_top.env.master_agent.drv [axi4_master_driver] Driving AXI4_WRITE  ID=0xc  ADDR=0xcc762000  LEN=11
# UVM_INFO ../src/mst/axi4_master_driver.sv(94) @ 1305000: uvm_test_top.env.master_agent.drv [axi4_master_driver] Write order: AW || W (parallel)
# UVM_INFO ../src/slv/axi4_slave_driver.sv(159) @ 1335000: uvm_test_top.env.slave_agent.drv [axi4_slave_driver] AW received: ID=0xc ADDR=0xcc762000 LEN=11
# UVM_INFO ../src/slv/axi4_slave_monitor.sv(116) @ 1335000: uvm_test_top.env.slave_agent.mon [axi4_slave_monitor] AW received: ID=0xc ADDR=0xcc762000 LEN=11
# UVM_INFO ../src/mst/axi4_master_monitor.sv(124) @ 1335000: uvm_test_top.env.master_agent.mon [axi4_master_monitor] AW observed: ID=0xc ADDR=0xcc762000 LEN=11
# UVM_INFO ../src/mst/axi4_master_monitor.sv(184) @ 1545000: uvm_test_top.env.master_agent.mon [axi4_master_monitor] W data assembled: ID=0xc ADDR=0xcc762000 12 beats
# UVM_INFO ../src/slv/axi4_slave_monitor.sv(167) @ 1545000: uvm_test_top.env.slave_agent.mon [axi4_slave_monitor] W data assembled: ID=0xc ADDR=0xcc762000 12 beats
# UVM_INFO ../src/mst/axi4_master_driver.sv(197) @ 1575000: uvm_test_top.env.master_agent.drv [axi4_master_driver] Write response: AXI4_RESP_OKAY
# UVM_INFO ../src/slv/axi4_slave_driver.sv(223) @ 1575000: uvm_test_top.env.slave_agent.drv [axi4_slave_driver] Write complete: ID=0xc  12 beats stored
# UVM_INFO ../src/slv/axi4_slave_monitor.sv(189) @ 1575000: uvm_test_top.env.slave_agent.mon [axi4_slave_monitor] Write response sent: ID=0xc ADDR=0xcc762000 RESP=AXI4_RESP_OKAY
# UVM_INFO ../src/env/axi4_scoreboard.sv(103) @ 1575000: uvm_test_top.env.scb [axi4_scoreboard] Slave AXI4_WRITE received: ID=0xc ADDR=0xcc762000 LEN=11
# UVM_INFO ../src/mst/axi4_master_monitor.sv(210) @ 1575000: uvm_test_top.env.master_agent.mon [axi4_master_monitor] Write complete: ID=0xc ADDR=0xcc762000 RESP=AXI4_RESP_OKAY
# UVM_INFO ../src/env/axi4_scoreboard.sv(82) @ 1575000: uvm_test_top.env.scb [axi4_scoreboard] Master AXI4_WRITE received: ID=0xc ADDR=0xcc762000 LEN=11
# UVM_INFO ../src/env/axi4_scoreboard.sv(154) @ 1575000: uvm_test_top.env.scb [axi4_scoreboard] [WRITE] MATCH #7: ID=0xc ADDR=0xcc762000 LEN=11
# UVM_INFO ../src/seq/axi4_write_read_back_seq.sv(60) @ 1575000: uvm_test_top.env.master_agent.sqr@@wr_rd_seq_3 [axi4_write_read_back_seq] Write phase: ADDR=0xcc762000 LEN=11 SIZE=AXI4_SIZE_4B BURST=AXI4_BURST_INCR
# UVM_INFO ../src/mst/axi4_master_driver.sv(55) @ 1575000: uvm_test_top.env.master_agent.drv [axi4_master_driver] Driving AXI4_READ  ID=0x6  ADDR=0xcc762000  LEN=11
# UVM_INFO ../src/slv/axi4_slave_driver.sv(259) @ 1605000: uvm_test_top.env.slave_agent.drv [axi4_slave_driver] AR received: ID=0x6 ADDR=0xcc762000 LEN=11
# UVM_INFO ../src/mst/axi4_master_monitor.sv(246) @ 1605000: uvm_test_top.env.master_agent.mon [axi4_master_monitor] AR observed: ID=0x6 ADDR=0xcc762000 LEN=11
# UVM_INFO ../src/slv/axi4_slave_monitor.sv(224) @ 1605000: uvm_test_top.env.slave_agent.mon [axi4_slave_monitor] AR received: ID=0x6 ADDR=0xcc762000 LEN=11
# UVM_INFO ../src/mst/axi4_master_driver.sv(254) @ 1845000: uvm_test_top.env.master_agent.drv [axi4_master_driver] Read complete: 12 beats received
# UVM_INFO ../src/slv/axi4_slave_driver.sv(293) @ 1845000: uvm_test_top.env.slave_agent.drv [axi4_slave_driver] Read complete: ID=0x6  12 beats sent
# UVM_INFO ../src/mst/axi4_master_monitor.sv(314) @ 1845000: uvm_test_top.env.master_agent.mon [axi4_master_monitor] Read complete: ID=0x6 ADDR=0xcc762000 12 beats
# UVM_INFO ../src/env/axi4_scoreboard.sv(82) @ 1845000: uvm_test_top.env.scb [axi4_scoreboard] Master AXI4_READ received: ID=0x6 ADDR=0xcc762000 LEN=11
# UVM_INFO ../src/slv/axi4_slave_monitor.sv(287) @ 1845000: uvm_test_top.env.slave_agent.mon [axi4_slave_monitor] Read data sent: ID=0x6 ADDR=0xcc762000 12 beats
# UVM_INFO ../src/env/axi4_scoreboard.sv(103) @ 1845000: uvm_test_top.env.scb [axi4_scoreboard] Slave AXI4_READ received: ID=0x6 ADDR=0xcc762000 LEN=11
# UVM_INFO ../src/env/axi4_scoreboard.sv(154) @ 1845000: uvm_test_top.env.scb [axi4_scoreboard] [READ] MATCH #8: ID=0x6 ADDR=0xcc762000 LEN=11
# UVM_INFO ../src/seq/axi4_write_read_back_seq.sv(80) @ 1845000: uvm_test_top.env.master_agent.sqr@@wr_rd_seq_3 [axi4_write_read_back_seq] Read-back phase: ADDR=0xcc762000 LEN=11 - data integrity check via scoreboard
# UVM_INFO ../src/test/axi4_wr_rd_test.sv(52) @ 1845000: uvm_test_top [axi4_wr_rd_test] [5/10] ADDR=0xac10c96e LEN=12 BURST=AXI4_BURST_INCR
# UVM_INFO ../src/mst/axi4_master_driver.sv(55) @ 1845000: uvm_test_top.env.master_agent.drv [axi4_master_driver] Driving AXI4_WRITE  ID=0x2  ADDR=0xac10c96e  LEN=12
# UVM_INFO ../src/mst/axi4_master_driver.sv(106) @ 1845000: uvm_test_top.env.master_agent.drv [axi4_master_driver] Write order: W -> AW (W first)
# UVM_INFO ../src/slv/axi4_slave_driver.sv(159) @ 1925000: uvm_test_top.env.slave_agent.drv [axi4_slave_driver] AW received: ID=0x2 ADDR=0xac10c96e LEN=12
# UVM_INFO ../src/mst/axi4_master_monitor.sv(124) @ 1925000: uvm_test_top.env.master_agent.mon [axi4_master_monitor] AW observed: ID=0x2 ADDR=0xac10c96e LEN=12
# UVM_INFO ../src/slv/axi4_slave_monitor.sv(116) @ 1925000: uvm_test_top.env.slave_agent.mon [axi4_slave_monitor] AW received: ID=0x2 ADDR=0xac10c96e LEN=12
# UVM_INFO ../src/mst/axi4_master_monitor.sv(184) @ 2105000: uvm_test_top.env.master_agent.mon [axi4_master_monitor] W data assembled: ID=0x2 ADDR=0xac10c96e 13 beats
# UVM_INFO ../src/slv/axi4_slave_monitor.sv(167) @ 2105000: uvm_test_top.env.slave_agent.mon [axi4_slave_monitor] W data assembled: ID=0x2 ADDR=0xac10c96e 13 beats
# UVM_INFO ../src/mst/axi4_master_driver.sv(197) @ 2135000: uvm_test_top.env.master_agent.drv [axi4_master_driver] Write response: AXI4_RESP_OKAY
# UVM_INFO ../src/slv/axi4_slave_driver.sv(223) @ 2135000: uvm_test_top.env.slave_agent.drv [axi4_slave_driver] Write complete: ID=0x2  13 beats stored
# UVM_INFO ../src/slv/axi4_slave_monitor.sv(189) @ 2135000: uvm_test_top.env.slave_agent.mon [axi4_slave_monitor] Write response sent: ID=0x2 ADDR=0xac10c96e RESP=AXI4_RESP_OKAY
# UVM_INFO ../src/env/axi4_scoreboard.sv(103) @ 2135000: uvm_test_top.env.scb [axi4_scoreboard] Slave AXI4_WRITE received: ID=0x2 ADDR=0xac10c96e LEN=12
# UVM_INFO ../src/mst/axi4_master_monitor.sv(210) @ 2135000: uvm_test_top.env.master_agent.mon [axi4_master_monitor] Write complete: ID=0x2 ADDR=0xac10c96e RESP=AXI4_RESP_OKAY
# UVM_INFO ../src/env/axi4_scoreboard.sv(82) @ 2135000: uvm_test_top.env.scb [axi4_scoreboard] Master AXI4_WRITE received: ID=0x2 ADDR=0xac10c96e LEN=12
# UVM_INFO ../src/env/axi4_scoreboard.sv(154) @ 2135000: uvm_test_top.env.scb [axi4_scoreboard] [WRITE] MATCH #9: ID=0x2 ADDR=0xac10c96e LEN=12
# UVM_INFO ../src/seq/axi4_write_read_back_seq.sv(60) @ 2135000: uvm_test_top.env.master_agent.sqr@@wr_rd_seq_4 [axi4_write_read_back_seq] Write phase: ADDR=0xac10c96e LEN=12 SIZE=AXI4_SIZE_4B BURST=AXI4_BURST_INCR
# UVM_INFO ../src/mst/axi4_master_driver.sv(55) @ 2135000: uvm_test_top.env.master_agent.drv [axi4_master_driver] Driving AXI4_READ  ID=0x2  ADDR=0xac10c96e  LEN=12
# UVM_INFO ../src/slv/axi4_slave_driver.sv(259) @ 2165000: uvm_test_top.env.slave_agent.drv [axi4_slave_driver] AR received: ID=0x2 ADDR=0xac10c96e LEN=12
# UVM_INFO ../src/mst/axi4_master_monitor.sv(246) @ 2165000: uvm_test_top.env.master_agent.mon [axi4_master_monitor] AR observed: ID=0x2 ADDR=0xac10c96e LEN=12
# UVM_INFO ../src/slv/axi4_slave_monitor.sv(224) @ 2165000: uvm_test_top.env.slave_agent.mon [axi4_slave_monitor] AR received: ID=0x2 ADDR=0xac10c96e LEN=12
# UVM_INFO ../src/mst/axi4_master_driver.sv(254) @ 2425000: uvm_test_top.env.master_agent.drv [axi4_master_driver] Read complete: 13 beats received
# UVM_INFO ../src/slv/axi4_slave_driver.sv(293) @ 2425000: uvm_test_top.env.slave_agent.drv [axi4_slave_driver] Read complete: ID=0x2  13 beats sent
# UVM_INFO ../src/mst/axi4_master_monitor.sv(314) @ 2425000: uvm_test_top.env.master_agent.mon [axi4_master_monitor] Read complete: ID=0x2 ADDR=0xac10c96e 13 beats
# UVM_INFO ../src/env/axi4_scoreboard.sv(82) @ 2425000: uvm_test_top.env.scb [axi4_scoreboard] Master AXI4_READ received: ID=0x2 ADDR=0xac10c96e LEN=12
# UVM_INFO ../src/slv/axi4_slave_monitor.sv(287) @ 2425000: uvm_test_top.env.slave_agent.mon [axi4_slave_monitor] Read data sent: ID=0x2 ADDR=0xac10c96e 13 beats
# UVM_INFO ../src/env/axi4_scoreboard.sv(103) @ 2425000: uvm_test_top.env.scb [axi4_scoreboard] Slave AXI4_READ received: ID=0x2 ADDR=0xac10c96e LEN=12
# UVM_INFO ../src/env/axi4_scoreboard.sv(154) @ 2425000: uvm_test_top.env.scb [axi4_scoreboard] [READ] MATCH #10: ID=0x2 ADDR=0xac10c96e LEN=12
# UVM_INFO ../src/seq/axi4_write_read_back_seq.sv(80) @ 2425000: uvm_test_top.env.master_agent.sqr@@wr_rd_seq_4 [axi4_write_read_back_seq] Read-back phase: ADDR=0xac10c96e LEN=12 - data integrity check via scoreboard
# UVM_INFO ../src/test/axi4_wr_rd_test.sv(52) @ 2425000: uvm_test_top [axi4_wr_rd_test] [6/10] ADDR=0xc7774867 LEN=5 BURST=AXI4_BURST_INCR
# UVM_INFO ../src/mst/axi4_master_driver.sv(55) @ 2425000: uvm_test_top.env.master_agent.drv [axi4_master_driver] Driving AXI4_WRITE  ID=0x3  ADDR=0xc7774867  LEN=5
# UVM_INFO ../src/mst/axi4_master_driver.sv(106) @ 2425000: uvm_test_top.env.master_agent.drv [axi4_master_driver] Write order: W -> AW (W first)
# UVM_INFO ../src/slv/axi4_slave_driver.sv(159) @ 2485000: uvm_test_top.env.slave_agent.drv [axi4_slave_driver] AW received: ID=0x3 ADDR=0xc7774867 LEN=5
# UVM_INFO ../src/mst/axi4_master_monitor.sv(124) @ 2485000: uvm_test_top.env.master_agent.mon [axi4_master_monitor] AW observed: ID=0x3 ADDR=0xc7774867 LEN=5
# UVM_INFO ../src/slv/axi4_slave_monitor.sv(116) @ 2485000: uvm_test_top.env.slave_agent.mon [axi4_slave_monitor] AW received: ID=0x3 ADDR=0xc7774867 LEN=5
# UVM_INFO ../src/mst/axi4_master_monitor.sv(184) @ 2545000: uvm_test_top.env.master_agent.mon [axi4_master_monitor] W data assembled: ID=0x3 ADDR=0xc7774867 6 beats
# UVM_INFO ../src/slv/axi4_slave_monitor.sv(167) @ 2545000: uvm_test_top.env.slave_agent.mon [axi4_slave_monitor] W data assembled: ID=0x3 ADDR=0xc7774867 6 beats
# UVM_INFO ../src/mst/axi4_master_driver.sv(197) @ 2575000: uvm_test_top.env.master_agent.drv [axi4_master_driver] Write response: AXI4_RESP_OKAY
# UVM_INFO ../src/slv/axi4_slave_driver.sv(223) @ 2575000: uvm_test_top.env.slave_agent.drv [axi4_slave_driver] Write complete: ID=0x3  6 beats stored
# UVM_INFO ../src/slv/axi4_slave_monitor.sv(189) @ 2575000: uvm_test_top.env.slave_agent.mon [axi4_slave_monitor] Write response sent: ID=0x3 ADDR=0xc7774867 RESP=AXI4_RESP_OKAY
# UVM_INFO ../src/env/axi4_scoreboard.sv(103) @ 2575000: uvm_test_top.env.scb [axi4_scoreboard] Slave AXI4_WRITE received: ID=0x3 ADDR=0xc7774867 LEN=5
# UVM_INFO ../src/mst/axi4_master_monitor.sv(210) @ 2575000: uvm_test_top.env.master_agent.mon [axi4_master_monitor] Write complete: ID=0x3 ADDR=0xc7774867 RESP=AXI4_RESP_OKAY
# UVM_INFO ../src/env/axi4_scoreboard.sv(82) @ 2575000: uvm_test_top.env.scb [axi4_scoreboard] Master AXI4_WRITE received: ID=0x3 ADDR=0xc7774867 LEN=5
# UVM_INFO ../src/env/axi4_scoreboard.sv(154) @ 2575000: uvm_test_top.env.scb [axi4_scoreboard] [WRITE] MATCH #11: ID=0x3 ADDR=0xc7774867 LEN=5
# UVM_INFO ../src/seq/axi4_write_read_back_seq.sv(60) @ 2575000: uvm_test_top.env.master_agent.sqr@@wr_rd_seq_5 [axi4_write_read_back_seq] Write phase: ADDR=0xc7774867 LEN=5 SIZE=AXI4_SIZE_4B BURST=AXI4_BURST_INCR
# UVM_INFO ../src/mst/axi4_master_driver.sv(55) @ 2575000: uvm_test_top.env.master_agent.drv [axi4_master_driver] Driving AXI4_READ  ID=0xd  ADDR=0xc7774867  LEN=5
# UVM_INFO ../src/slv/axi4_slave_driver.sv(259) @ 2605000: uvm_test_top.env.slave_agent.drv [axi4_slave_driver] AR received: ID=0xd ADDR=0xc7774867 LEN=5
# UVM_INFO ../src/mst/axi4_master_monitor.sv(246) @ 2605000: uvm_test_top.env.master_agent.mon [axi4_master_monitor] AR observed: ID=0xd ADDR=0xc7774867 LEN=5
# UVM_INFO ../src/slv/axi4_slave_monitor.sv(224) @ 2605000: uvm_test_top.env.slave_agent.mon [axi4_slave_monitor] AR received: ID=0xd ADDR=0xc7774867 LEN=5
# UVM_INFO ../src/mst/axi4_master_driver.sv(254) @ 2725000: uvm_test_top.env.master_agent.drv [axi4_master_driver] Read complete: 6 beats received
# UVM_INFO ../src/slv/axi4_slave_driver.sv(293) @ 2725000: uvm_test_top.env.slave_agent.drv [axi4_slave_driver] Read complete: ID=0xd  6 beats sent
# UVM_INFO ../src/mst/axi4_master_monitor.sv(314) @ 2725000: uvm_test_top.env.master_agent.mon [axi4_master_monitor] Read complete: ID=0xd ADDR=0xc7774867 6 beats
# UVM_INFO ../src/env/axi4_scoreboard.sv(82) @ 2725000: uvm_test_top.env.scb [axi4_scoreboard] Master AXI4_READ received: ID=0xd ADDR=0xc7774867 LEN=5
# UVM_INFO ../src/slv/axi4_slave_monitor.sv(287) @ 2725000: uvm_test_top.env.slave_agent.mon [axi4_slave_monitor] Read data sent: ID=0xd ADDR=0xc7774867 6 beats
# UVM_INFO ../src/env/axi4_scoreboard.sv(103) @ 2725000: uvm_test_top.env.scb [axi4_scoreboard] Slave AXI4_READ received: ID=0xd ADDR=0xc7774867 LEN=5
# UVM_INFO ../src/env/axi4_scoreboard.sv(154) @ 2725000: uvm_test_top.env.scb [axi4_scoreboard] [READ] MATCH #12: ID=0xd ADDR=0xc7774867 LEN=5
# UVM_INFO ../src/seq/axi4_write_read_back_seq.sv(80) @ 2725000: uvm_test_top.env.master_agent.sqr@@wr_rd_seq_5 [axi4_write_read_back_seq] Read-back phase: ADDR=0xc7774867 LEN=5 - data integrity check via scoreboard
# UVM_INFO ../src/test/axi4_wr_rd_test.sv(52) @ 2725000: uvm_test_top [axi4_wr_rd_test] [7/10] ADDR=0x4875b382 LEN=12 BURST=AXI4_BURST_INCR
# UVM_INFO ../src/mst/axi4_master_driver.sv(55) @ 2725000: uvm_test_top.env.master_agent.drv [axi4_master_driver] Driving AXI4_WRITE  ID=0x4  ADDR=0x4875b382  LEN=12
# UVM_INFO ../src/mst/axi4_master_driver.sv(94) @ 2725000: uvm_test_top.env.master_agent.drv [axi4_master_driver] Write order: AW || W (parallel)
# UVM_INFO ../src/slv/axi4_slave_driver.sv(159) @ 2755000: uvm_test_top.env.slave_agent.drv [axi4_slave_driver] AW received: ID=0x4 ADDR=0x4875b382 LEN=12
# UVM_INFO ../src/slv/axi4_slave_monitor.sv(116) @ 2755000: uvm_test_top.env.slave_agent.mon [axi4_slave_monitor] AW received: ID=0x4 ADDR=0x4875b382 LEN=12
# UVM_INFO ../src/mst/axi4_master_monitor.sv(124) @ 2755000: uvm_test_top.env.master_agent.mon [axi4_master_monitor] AW observed: ID=0x4 ADDR=0x4875b382 LEN=12
# UVM_INFO ../src/mst/axi4_master_monitor.sv(184) @ 2985000: uvm_test_top.env.master_agent.mon [axi4_master_monitor] W data assembled: ID=0x4 ADDR=0x4875b382 13 beats
# UVM_INFO ../src/slv/axi4_slave_monitor.sv(167) @ 2985000: uvm_test_top.env.slave_agent.mon [axi4_slave_monitor] W data assembled: ID=0x4 ADDR=0x4875b382 13 beats
# UVM_INFO ../src/mst/axi4_master_driver.sv(197) @ 3015000: uvm_test_top.env.master_agent.drv [axi4_master_driver] Write response: AXI4_RESP_OKAY
# UVM_INFO ../src/slv/axi4_slave_driver.sv(223) @ 3015000: uvm_test_top.env.slave_agent.drv [axi4_slave_driver] Write complete: ID=0x4  13 beats stored
# UVM_INFO ../src/slv/axi4_slave_monitor.sv(189) @ 3015000: uvm_test_top.env.slave_agent.mon [axi4_slave_monitor] Write response sent: ID=0x4 ADDR=0x4875b382 RESP=AXI4_RESP_OKAY
# UVM_INFO ../src/env/axi4_scoreboard.sv(103) @ 3015000: uvm_test_top.env.scb [axi4_scoreboard] Slave AXI4_WRITE received: ID=0x4 ADDR=0x4875b382 LEN=12
# UVM_INFO ../src/mst/axi4_master_monitor.sv(210) @ 3015000: uvm_test_top.env.master_agent.mon [axi4_master_monitor] Write complete: ID=0x4 ADDR=0x4875b382 RESP=AXI4_RESP_OKAY
# UVM_INFO ../src/env/axi4_scoreboard.sv(82) @ 3015000: uvm_test_top.env.scb [axi4_scoreboard] Master AXI4_WRITE received: ID=0x4 ADDR=0x4875b382 LEN=12
# UVM_INFO ../src/env/axi4_scoreboard.sv(154) @ 3015000: uvm_test_top.env.scb [axi4_scoreboard] [WRITE] MATCH #13: ID=0x4 ADDR=0x4875b382 LEN=12
# UVM_INFO ../src/seq/axi4_write_read_back_seq.sv(60) @ 3015000: uvm_test_top.env.master_agent.sqr@@wr_rd_seq_6 [axi4_write_read_back_seq] Write phase: ADDR=0x4875b382 LEN=12 SIZE=AXI4_SIZE_4B BURST=AXI4_BURST_INCR
# UVM_INFO ../src/mst/axi4_master_driver.sv(55) @ 3015000: uvm_test_top.env.master_agent.drv [axi4_master_driver] Driving AXI4_READ  ID=0xf  ADDR=0x4875b382  LEN=12
# UVM_INFO ../src/slv/axi4_slave_driver.sv(259) @ 3045000: uvm_test_top.env.slave_agent.drv [axi4_slave_driver] AR received: ID=0xf ADDR=0x4875b382 LEN=12
# UVM_INFO ../src/mst/axi4_master_monitor.sv(246) @ 3045000: uvm_test_top.env.master_agent.mon [axi4_master_monitor] AR observed: ID=0xf ADDR=0x4875b382 LEN=12
# UVM_INFO ../src/slv/axi4_slave_monitor.sv(224) @ 3045000: uvm_test_top.env.slave_agent.mon [axi4_slave_monitor] AR received: ID=0xf ADDR=0x4875b382 LEN=12
# UVM_INFO ../src/mst/axi4_master_driver.sv(254) @ 3305000: uvm_test_top.env.master_agent.drv [axi4_master_driver] Read complete: 13 beats received
# UVM_INFO ../src/slv/axi4_slave_driver.sv(293) @ 3305000: uvm_test_top.env.slave_agent.drv [axi4_slave_driver] Read complete: ID=0xf  13 beats sent
# UVM_INFO ../src/mst/axi4_master_monitor.sv(314) @ 3305000: uvm_test_top.env.master_agent.mon [axi4_master_monitor] Read complete: ID=0xf ADDR=0x4875b382 13 beats
# UVM_INFO ../src/env/axi4_scoreboard.sv(82) @ 3305000: uvm_test_top.env.scb [axi4_scoreboard] Master AXI4_READ received: ID=0xf ADDR=0x4875b382 LEN=12
# UVM_INFO ../src/slv/axi4_slave_monitor.sv(287) @ 3305000: uvm_test_top.env.slave_agent.mon [axi4_slave_monitor] Read data sent: ID=0xf ADDR=0x4875b382 13 beats
# UVM_INFO ../src/env/axi4_scoreboard.sv(103) @ 3305000: uvm_test_top.env.scb [axi4_scoreboard] Slave AXI4_READ received: ID=0xf ADDR=0x4875b382 LEN=12
# UVM_INFO ../src/env/axi4_scoreboard.sv(154) @ 3305000: uvm_test_top.env.scb [axi4_scoreboard] [READ] MATCH #14: ID=0xf ADDR=0x4875b382 LEN=12
# UVM_INFO ../src/seq/axi4_write_read_back_seq.sv(80) @ 3305000: uvm_test_top.env.master_agent.sqr@@wr_rd_seq_6 [axi4_write_read_back_seq] Read-back phase: ADDR=0x4875b382 LEN=12 - data integrity check via scoreboard
# UVM_INFO ../src/test/axi4_wr_rd_test.sv(52) @ 3305000: uvm_test_top [axi4_wr_rd_test] [8/10] ADDR=0x857696e1 LEN=12 BURST=AXI4_BURST_INCR
# UVM_INFO ../src/mst/axi4_master_driver.sv(55) @ 3305000: uvm_test_top.env.master_agent.drv [axi4_master_driver] Driving AXI4_WRITE  ID=0x1  ADDR=0x857696e1  LEN=12
# UVM_INFO ../src/mst/axi4_master_driver.sv(101) @ 3305000: uvm_test_top.env.master_agent.drv [axi4_master_driver] Write order: AW -> W (sequential)
# UVM_INFO ../src/slv/axi4_slave_driver.sv(159) @ 3335000: uvm_test_top.env.slave_agent.drv [axi4_slave_driver] AW received: ID=0x1 ADDR=0x857696e1 LEN=12
# UVM_INFO ../src/slv/axi4_slave_monitor.sv(116) @ 3335000: uvm_test_top.env.slave_agent.mon [axi4_slave_monitor] AW received: ID=0x1 ADDR=0x857696e1 LEN=12
# UVM_INFO ../src/mst/axi4_master_monitor.sv(124) @ 3335000: uvm_test_top.env.master_agent.mon [axi4_master_monitor] AW observed: ID=0x1 ADDR=0x857696e1 LEN=12
# UVM_INFO ../src/slv/axi4_slave_monitor.sv(167) @ 3595000: uvm_test_top.env.slave_agent.mon [axi4_slave_monitor] W data assembled: ID=0x1 ADDR=0x857696e1 13 beats
# UVM_INFO ../src/mst/axi4_master_monitor.sv(184) @ 3595000: uvm_test_top.env.master_agent.mon [axi4_master_monitor] W data assembled: ID=0x1 ADDR=0x857696e1 13 beats
# UVM_INFO ../src/mst/axi4_master_driver.sv(197) @ 3625000: uvm_test_top.env.master_agent.drv [axi4_master_driver] Write response: AXI4_RESP_OKAY
# UVM_INFO ../src/slv/axi4_slave_driver.sv(223) @ 3625000: uvm_test_top.env.slave_agent.drv [axi4_slave_driver] Write complete: ID=0x1  13 beats stored
# UVM_INFO ../src/mst/axi4_master_monitor.sv(210) @ 3625000: uvm_test_top.env.master_agent.mon [axi4_master_monitor] Write complete: ID=0x1 ADDR=0x857696e1 RESP=AXI4_RESP_OKAY
# UVM_INFO ../src/env/axi4_scoreboard.sv(82) @ 3625000: uvm_test_top.env.scb [axi4_scoreboard] Master AXI4_WRITE received: ID=0x1 ADDR=0x857696e1 LEN=12
# UVM_INFO ../src/slv/axi4_slave_monitor.sv(189) @ 3625000: uvm_test_top.env.slave_agent.mon [axi4_slave_monitor] Write response sent: ID=0x1 ADDR=0x857696e1 RESP=AXI4_RESP_OKAY
# UVM_INFO ../src/env/axi4_scoreboard.sv(103) @ 3625000: uvm_test_top.env.scb [axi4_scoreboard] Slave AXI4_WRITE received: ID=0x1 ADDR=0x857696e1 LEN=12
# UVM_INFO ../src/env/axi4_scoreboard.sv(154) @ 3625000: uvm_test_top.env.scb [axi4_scoreboard] [WRITE] MATCH #15: ID=0x1 ADDR=0x857696e1 LEN=12
# UVM_INFO ../src/seq/axi4_write_read_back_seq.sv(60) @ 3625000: uvm_test_top.env.master_agent.sqr@@wr_rd_seq_7 [axi4_write_read_back_seq] Write phase: ADDR=0x857696e1 LEN=12 SIZE=AXI4_SIZE_4B BURST=AXI4_BURST_INCR
# UVM_INFO ../src/mst/axi4_master_driver.sv(55) @ 3625000: uvm_test_top.env.master_agent.drv [axi4_master_driver] Driving AXI4_READ  ID=0xe  ADDR=0x857696e1  LEN=12
# UVM_INFO ../src/slv/axi4_slave_driver.sv(259) @ 3655000: uvm_test_top.env.slave_agent.drv [axi4_slave_driver] AR received: ID=0xe ADDR=0x857696e1 LEN=12
# UVM_INFO ../src/slv/axi4_slave_monitor.sv(224) @ 3655000: uvm_test_top.env.slave_agent.mon [axi4_slave_monitor] AR received: ID=0xe ADDR=0x857696e1 LEN=12
# UVM_INFO ../src/mst/axi4_master_monitor.sv(246) @ 3655000: uvm_test_top.env.master_agent.mon [axi4_master_monitor] AR observed: ID=0xe ADDR=0x857696e1 LEN=12
# UVM_INFO ../src/mst/axi4_master_driver.sv(254) @ 3915000: uvm_test_top.env.master_agent.drv [axi4_master_driver] Read complete: 13 beats received
# UVM_INFO ../src/slv/axi4_slave_driver.sv(293) @ 3915000: uvm_test_top.env.slave_agent.drv [axi4_slave_driver] Read complete: ID=0xe  13 beats sent
# UVM_INFO ../src/slv/axi4_slave_monitor.sv(287) @ 3915000: uvm_test_top.env.slave_agent.mon [axi4_slave_monitor] Read data sent: ID=0xe ADDR=0x857696e1 13 beats
# UVM_INFO ../src/env/axi4_scoreboard.sv(103) @ 3915000: uvm_test_top.env.scb [axi4_scoreboard] Slave AXI4_READ received: ID=0xe ADDR=0x857696e1 LEN=12
# UVM_INFO ../src/mst/axi4_master_monitor.sv(314) @ 3915000: uvm_test_top.env.master_agent.mon [axi4_master_monitor] Read complete: ID=0xe ADDR=0x857696e1 13 beats
# UVM_INFO ../src/env/axi4_scoreboard.sv(82) @ 3915000: uvm_test_top.env.scb [axi4_scoreboard] Master AXI4_READ received: ID=0xe ADDR=0x857696e1 LEN=12
# UVM_INFO ../src/env/axi4_scoreboard.sv(154) @ 3915000: uvm_test_top.env.scb [axi4_scoreboard] [READ] MATCH #16: ID=0xe ADDR=0x857696e1 LEN=12
# UVM_INFO ../src/seq/axi4_write_read_back_seq.sv(80) @ 3915000: uvm_test_top.env.master_agent.sqr@@wr_rd_seq_7 [axi4_write_read_back_seq] Read-back phase: ADDR=0x857696e1 LEN=12 - data integrity check via scoreboard
# UVM_INFO ../src/test/axi4_wr_rd_test.sv(52) @ 3915000: uvm_test_top [axi4_wr_rd_test] [9/10] ADDR=0x1b0b0aab LEN=14 BURST=AXI4_BURST_INCR
# UVM_INFO ../src/mst/axi4_master_driver.sv(55) @ 3915000: uvm_test_top.env.master_agent.drv [axi4_master_driver] Driving AXI4_WRITE  ID=0x4  ADDR=0x1b0b0aab  LEN=14
# UVM_INFO ../src/mst/axi4_master_driver.sv(94) @ 3915000: uvm_test_top.env.master_agent.drv [axi4_master_driver] Write order: AW || W (parallel)
# UVM_INFO ../src/slv/axi4_slave_driver.sv(159) @ 3945000: uvm_test_top.env.slave_agent.drv [axi4_slave_driver] AW received: ID=0x4 ADDR=0x1b0b0aab LEN=14
# UVM_INFO ../src/mst/axi4_master_monitor.sv(124) @ 3945000: uvm_test_top.env.master_agent.mon [axi4_master_monitor] AW observed: ID=0x4 ADDR=0x1b0b0aab LEN=14
# UVM_INFO ../src/slv/axi4_slave_monitor.sv(116) @ 3945000: uvm_test_top.env.slave_agent.mon [axi4_slave_monitor] AW received: ID=0x4 ADDR=0x1b0b0aab LEN=14
# UVM_INFO ../src/slv/axi4_slave_monitor.sv(167) @ 4215000: uvm_test_top.env.slave_agent.mon [axi4_slave_monitor] W data assembled: ID=0x4 ADDR=0x1b0b0aab 15 beats
# UVM_INFO ../src/mst/axi4_master_monitor.sv(184) @ 4215000: uvm_test_top.env.master_agent.mon [axi4_master_monitor] W data assembled: ID=0x4 ADDR=0x1b0b0aab 15 beats
# UVM_INFO ../src/mst/axi4_master_driver.sv(197) @ 4245000: uvm_test_top.env.master_agent.drv [axi4_master_driver] Write response: AXI4_RESP_OKAY
# UVM_INFO ../src/slv/axi4_slave_driver.sv(223) @ 4245000: uvm_test_top.env.slave_agent.drv [axi4_slave_driver] Write complete: ID=0x4  15 beats stored
# UVM_INFO ../src/mst/axi4_master_monitor.sv(210) @ 4245000: uvm_test_top.env.master_agent.mon [axi4_master_monitor] Write complete: ID=0x4 ADDR=0x1b0b0aab RESP=AXI4_RESP_OKAY
# UVM_INFO ../src/env/axi4_scoreboard.sv(82) @ 4245000: uvm_test_top.env.scb [axi4_scoreboard] Master AXI4_WRITE received: ID=0x4 ADDR=0x1b0b0aab LEN=14
# UVM_INFO ../src/slv/axi4_slave_monitor.sv(189) @ 4245000: uvm_test_top.env.slave_agent.mon [axi4_slave_monitor] Write response sent: ID=0x4 ADDR=0x1b0b0aab RESP=AXI4_RESP_OKAY
# UVM_INFO ../src/env/axi4_scoreboard.sv(103) @ 4245000: uvm_test_top.env.scb [axi4_scoreboard] Slave AXI4_WRITE received: ID=0x4 ADDR=0x1b0b0aab LEN=14
# UVM_INFO ../src/env/axi4_scoreboard.sv(154) @ 4245000: uvm_test_top.env.scb [axi4_scoreboard] [WRITE] MATCH #17: ID=0x4 ADDR=0x1b0b0aab LEN=14
# UVM_INFO ../src/seq/axi4_write_read_back_seq.sv(60) @ 4245000: uvm_test_top.env.master_agent.sqr@@wr_rd_seq_8 [axi4_write_read_back_seq] Write phase: ADDR=0x1b0b0aab LEN=14 SIZE=AXI4_SIZE_4B BURST=AXI4_BURST_INCR
# UVM_INFO ../src/mst/axi4_master_driver.sv(55) @ 4245000: uvm_test_top.env.master_agent.drv [axi4_master_driver] Driving AXI4_READ  ID=0xf  ADDR=0x1b0b0aab  LEN=14
# UVM_INFO ../src/slv/axi4_slave_driver.sv(259) @ 4275000: uvm_test_top.env.slave_agent.drv [axi4_slave_driver] AR received: ID=0xf ADDR=0x1b0b0aab LEN=14
# UVM_INFO ../src/slv/axi4_slave_monitor.sv(224) @ 4275000: uvm_test_top.env.slave_agent.mon [axi4_slave_monitor] AR received: ID=0xf ADDR=0x1b0b0aab LEN=14
# UVM_INFO ../src/mst/axi4_master_monitor.sv(246) @ 4275000: uvm_test_top.env.master_agent.mon [axi4_master_monitor] AR observed: ID=0xf ADDR=0x1b0b0aab LEN=14
# UVM_INFO ../src/mst/axi4_master_driver.sv(254) @ 4575000: uvm_test_top.env.master_agent.drv [axi4_master_driver] Read complete: 15 beats received
# UVM_INFO ../src/slv/axi4_slave_driver.sv(293) @ 4575000: uvm_test_top.env.slave_agent.drv [axi4_slave_driver] Read complete: ID=0xf  15 beats sent
# UVM_INFO ../src/slv/axi4_slave_monitor.sv(287) @ 4575000: uvm_test_top.env.slave_agent.mon [axi4_slave_monitor] Read data sent: ID=0xf ADDR=0x1b0b0aab 15 beats
# UVM_INFO ../src/env/axi4_scoreboard.sv(103) @ 4575000: uvm_test_top.env.scb [axi4_scoreboard] Slave AXI4_READ received: ID=0xf ADDR=0x1b0b0aab LEN=14
# UVM_INFO ../src/mst/axi4_master_monitor.sv(314) @ 4575000: uvm_test_top.env.master_agent.mon [axi4_master_monitor] Read complete: ID=0xf ADDR=0x1b0b0aab 15 beats
# UVM_INFO ../src/env/axi4_scoreboard.sv(82) @ 4575000: uvm_test_top.env.scb [axi4_scoreboard] Master AXI4_READ received: ID=0xf ADDR=0x1b0b0aab LEN=14
# UVM_INFO ../src/env/axi4_scoreboard.sv(154) @ 4575000: uvm_test_top.env.scb [axi4_scoreboard] [READ] MATCH #18: ID=0xf ADDR=0x1b0b0aab LEN=14
# UVM_INFO ../src/seq/axi4_write_read_back_seq.sv(80) @ 4575000: uvm_test_top.env.master_agent.sqr@@wr_rd_seq_8 [axi4_write_read_back_seq] Read-back phase: ADDR=0x1b0b0aab LEN=14 - data integrity check via scoreboard
# UVM_INFO ../src/test/axi4_wr_rd_test.sv(52) @ 4575000: uvm_test_top [axi4_wr_rd_test] [10/10] ADDR=0x3266ed07 LEN=1 BURST=AXI4_BURST_INCR
# UVM_INFO ../src/mst/axi4_master_driver.sv(55) @ 4575000: uvm_test_top.env.master_agent.drv [axi4_master_driver] Driving AXI4_WRITE  ID=0xb  ADDR=0x3266ed07  LEN=1
# UVM_INFO ../src/mst/axi4_master_driver.sv(106) @ 4575000: uvm_test_top.env.master_agent.drv [axi4_master_driver] Write order: W -> AW (W first)
# UVM_INFO ../src/slv/axi4_slave_driver.sv(159) @ 4655000: uvm_test_top.env.slave_agent.drv [axi4_slave_driver] AW received: ID=0xb ADDR=0x3266ed07 LEN=1
# UVM_INFO ../src/slv/axi4_slave_monitor.sv(116) @ 4655000: uvm_test_top.env.slave_agent.mon [axi4_slave_monitor] AW received: ID=0xb ADDR=0x3266ed07 LEN=1
# UVM_INFO ../src/mst/axi4_master_monitor.sv(124) @ 4655000: uvm_test_top.env.master_agent.mon [axi4_master_monitor] AW observed: ID=0xb ADDR=0x3266ed07 LEN=1
# UVM_INFO ../src/slv/axi4_slave_monitor.sv(167) @ 4655000: uvm_test_top.env.slave_agent.mon [axi4_slave_monitor] W data assembled: ID=0xb ADDR=0x3266ed07 2 beats
# UVM_INFO ../src/mst/axi4_master_monitor.sv(184) @ 4655000: uvm_test_top.env.master_agent.mon [axi4_master_monitor] W data assembled: ID=0xb ADDR=0x3266ed07 2 beats
# UVM_INFO ../src/mst/axi4_master_driver.sv(197) @ 4675000: uvm_test_top.env.master_agent.drv [axi4_master_driver] Write response: AXI4_RESP_OKAY
# UVM_INFO ../src/slv/axi4_slave_driver.sv(223) @ 4675000: uvm_test_top.env.slave_agent.drv [axi4_slave_driver] Write complete: ID=0xb  2 beats stored
# UVM_INFO ../src/slv/axi4_slave_monitor.sv(189) @ 4675000: uvm_test_top.env.slave_agent.mon [axi4_slave_monitor] Write response sent: ID=0xb ADDR=0x3266ed07 RESP=AXI4_RESP_OKAY
# UVM_INFO ../src/env/axi4_scoreboard.sv(103) @ 4675000: uvm_test_top.env.scb [axi4_scoreboard] Slave AXI4_WRITE received: ID=0xb ADDR=0x3266ed07 LEN=1
# UVM_INFO ../src/mst/axi4_master_monitor.sv(210) @ 4675000: uvm_test_top.env.master_agent.mon [axi4_master_monitor] Write complete: ID=0xb ADDR=0x3266ed07 RESP=AXI4_RESP_OKAY
# UVM_INFO ../src/env/axi4_scoreboard.sv(82) @ 4675000: uvm_test_top.env.scb [axi4_scoreboard] Master AXI4_WRITE received: ID=0xb ADDR=0x3266ed07 LEN=1
# UVM_INFO ../src/env/axi4_scoreboard.sv(154) @ 4675000: uvm_test_top.env.scb [axi4_scoreboard] [WRITE] MATCH #19: ID=0xb ADDR=0x3266ed07 LEN=1
# UVM_INFO ../src/seq/axi4_write_read_back_seq.sv(60) @ 4675000: uvm_test_top.env.master_agent.sqr@@wr_rd_seq_9 [axi4_write_read_back_seq] Write phase: ADDR=0x3266ed07 LEN=1 SIZE=AXI4_SIZE_4B BURST=AXI4_BURST_INCR
# UVM_INFO ../src/mst/axi4_master_driver.sv(55) @ 4675000: uvm_test_top.env.master_agent.drv [axi4_master_driver] Driving AXI4_READ  ID=0xd  ADDR=0x3266ed07  LEN=1
# UVM_INFO ../src/slv/axi4_slave_driver.sv(259) @ 4705000: uvm_test_top.env.slave_agent.drv [axi4_slave_driver] AR received: ID=0xd ADDR=0x3266ed07 LEN=1
# UVM_INFO ../src/mst/axi4_master_monitor.sv(246) @ 4705000: uvm_test_top.env.master_agent.mon [axi4_master_monitor] AR observed: ID=0xd ADDR=0x3266ed07 LEN=1
# UVM_INFO ../src/slv/axi4_slave_monitor.sv(224) @ 4705000: uvm_test_top.env.slave_agent.mon [axi4_slave_monitor] AR received: ID=0xd ADDR=0x3266ed07 LEN=1
# UVM_INFO ../src/mst/axi4_master_driver.sv(254) @ 4745000: uvm_test_top.env.master_agent.drv [axi4_master_driver] Read complete: 2 beats received
# UVM_INFO ../src/slv/axi4_slave_driver.sv(293) @ 4745000: uvm_test_top.env.slave_agent.drv [axi4_slave_driver] Read complete: ID=0xd  2 beats sent
# UVM_INFO ../src/mst/axi4_master_monitor.sv(314) @ 4745000: uvm_test_top.env.master_agent.mon [axi4_master_monitor] Read complete: ID=0xd ADDR=0x3266ed07 2 beats
# UVM_INFO ../src/env/axi4_scoreboard.sv(82) @ 4745000: uvm_test_top.env.scb [axi4_scoreboard] Master AXI4_READ received: ID=0xd ADDR=0x3266ed07 LEN=1
# UVM_INFO ../src/slv/axi4_slave_monitor.sv(287) @ 4745000: uvm_test_top.env.slave_agent.mon [axi4_slave_monitor] Read data sent: ID=0xd ADDR=0x3266ed07 2 beats
# UVM_INFO ../src/env/axi4_scoreboard.sv(103) @ 4745000: uvm_test_top.env.scb [axi4_scoreboard] Slave AXI4_READ received: ID=0xd ADDR=0x3266ed07 LEN=1
# UVM_INFO ../src/env/axi4_scoreboard.sv(154) @ 4745000: uvm_test_top.env.scb [axi4_scoreboard] [READ] MATCH #20: ID=0xd ADDR=0x3266ed07 LEN=1
# UVM_INFO ../src/seq/axi4_write_read_back_seq.sv(80) @ 4745000: uvm_test_top.env.master_agent.sqr@@wr_rd_seq_9 [axi4_write_read_back_seq] Read-back phase: ADDR=0x3266ed07 LEN=1 - data integrity check via scoreboard
# UVM_INFO ../src/test/axi4_wr_rd_test.sv(62) @ 5245000: uvm_test_top [axi4_wr_rd_test] 10 write-read-back iterations complete
# UVM_INFO verilog_src/uvm-1.1d/src/base/uvm_objection.svh(1268) @ 5245000: reporter [TEST_DONE] 'run' phase is ready to proceed to the 'extract' phase
# UVM_INFO ../src/env/axi4_scoreboard.sv(218) @ 5245000: uvm_test_top.env.scb [axi4_scoreboard] 
# ========================================
#          SCOREBOARD SUMMARY
# ========================================
#   Master transactions : 20
#   Slave transactions  : 20
#   Matches             : 20
#   Mismatches          : 0
#   Unmatched master WR : 0
#   Unmatched master RD : 0
#   Unmatched slave  WR : 0
#   Unmatched slave  RD : 0
# ========================================
#   RESULT : PASS
# ========================================
# UVM_INFO ../src/test/axi4_base_test.sv(91) @ 5245000: uvm_test_top [axi4_wr_rd_test] 
# === TEST PASSED ===
# 
# 
# --- UVM Report Summary ---
# 
# ** Report counts by severity
# UVM_INFO :  304
# UVM_WARNING :    0
# UVM_ERROR :    0
# UVM_FATAL :    0
# ** Report counts by id
# [Questa UVM]     3
# [RNTST]     1
# [TB_TOP]     2
# [TEST_DONE]     1
# [TOP_TB]     1
# [UVMTOP]     1
# [axi4_master_agent]     1
# [axi4_master_driver]    51
# [axi4_master_monitor]    51
# [axi4_scoreboard]    61
# [axi4_slave_agent]     1
# [axi4_slave_driver]    41
# [axi4_slave_monitor]    51
# [axi4_vip_env]     5
# [axi4_wr_rd_test]    13
# [axi4_write_read_back_seq]    20
# ** Note: $finish    : /cadtools/mentor/Questa_10.6b/questasim/linux_x86_64/../verilog_src/uvm-1.1d/src/base/uvm_root.svh(430)
#    Time: 5245 ns  Iteration: 55  Instance: /tb_top
# Saving coverage database on exit...
# End time: 09:05:15 on Jun 04,2026, Elapsed time: 0:00:42
# Errors: 1, Warnings: 0
