# vsim -c -coverage -sv_seed 54828255 "+UVM_TESTNAME=axi4_outstanding_test" "+UVM_VERBOSITY=UVM_HIGH" "+DUMP_VCD" -l ./report/logs/axi4_outstanding_test_run_5_seed_54828255.log -do "coverage save -onexit ./report/coverage/axi4_outstanding_test_run_5_seed_54828255.ucdb; run -all; quit -f" opt_tb_top 
# Start time: 09:33:37 on Jun 11,2026
# //  Questa Sim-64
# //  Version 10.6b linux_x86_64 May 25 2017
# //
# //  Copyright 1991-2017 Mentor Graphics Corporation
# //  All Rights Reserved.
# //
# //  QuestaSim and its associated documentation contain trade
# //  secrets and commercial or financial information that are the property of
# //  Mentor Graphics Corporation and are privileged, confidential,
# //  and exempt from disclosure under the Freedom of Information Act,
# //  5 U.S.C. Section 552. Furthermore, this information
# //  is prohibited from disclosure under the Trade Secrets Act,
# //  18 U.S.C. Section 1905.
# //
# Loading sv_std.std
# Loading work.axi4_if(fast)
# Loading mtiUvm.uvm_pkg
# Loading work.axi4_pkg(fast)
# Loading work.axi4_test_pkg(fast)
# Loading work.tb_top(fast)
# Loading work.axi4_if(fast)
# Loading work.axi4_sva(fast)
# Loading mtiUvm.questa_uvm_pkg(fast)
# Loading /cadtools/mentor/Questa_10.6b/questasim/uvm-1.1d/linux_x86_64/uvm_dpi.so
# coverage save -onexit ./report/coverage/axi4_outstanding_test_run_5_seed_54828255.ucdb
#  run -all
# ----------------------------------------------------------------
# UVM-1.1d
# (C) 2007-2013 Mentor Graphics Corporation
# (C) 2007-2013 Cadence Design Systems, Inc.
# (C) 2006-2013 Synopsys, Inc.
# (C) 2011-2013 Cypress Semiconductor Corp.
# ----------------------------------------------------------------
# 
#   ***********       IMPORTANT RELEASE NOTES         ************
# 
#   You are using a version of the UVM library that has been compiled
#   with `UVM_NO_DEPRECATED undefined.
#   See http://www.eda.org/svdb/view.php?id=3313 for more details.
# 
#   You are using a version of the UVM library that has been compiled
#   with `UVM_OBJECT_MUST_HAVE_CONSTRUCTOR undefined.
#   See http://www.eda.org/svdb/view.php?id=3770 for more details.
# 
#       (Specify +UVM_NO_RELNOTES to turn off this notice)
# 
# UVM_INFO verilog_src/questa_uvm_pkg-1.2/src/questa_uvm_pkg.sv(215) @ 0: reporter [Questa UVM] QUESTA_UVM-1.2.3
# UVM_INFO verilog_src/questa_uvm_pkg-1.2/src/questa_uvm_pkg.sv(217) @ 0: reporter [Questa UVM]  questa_uvm::init(+struct)
# UVM_INFO ../src/tb_top.sv(128) @ 0: reporter [TB_TOP] Virtual interface set in config_db
# UVM_INFO @ 0: reporter [RNTST] Running test axi4_outstanding_test...
# UVM_INFO ../src/tb_top.sv(142) @ 0: reporter [TB_TOP] Waveform VCD dumping enabled (axi4_vip.vcd)
# UVM_INFO ../src/env/axi4_vip_env.sv(83) @ 0: uvm_test_top.env [axi4_vip_env] slave_vif not set - reusing master_vif (passthrough mode)
# UVM_INFO ../src/env/axi4_vip_env.sv(93) @ 0: uvm_test_top.env [axi4_vip_env] Scoreboard created
# UVM_INFO ../src/env/axi4_vip_env.sv(100) @ 0: uvm_test_top.env [axi4_vip_env] Coverage collectors created
# UVM_INFO ../src/mst/axi4_master_agent.sv(69) @ 0: uvm_test_top.env.master_agent [axi4_master_agent] ACTIVE mode - driver + sequencer created
# UVM_INFO ../src/slv/axi4_slave_agent.sv(82) @ 0: uvm_test_top.env.slave_agent [axi4_slave_agent] ACTIVE mode — ready_delay=[0:0] resp_delay=[0:0]
# UVM_INFO ../src/env/axi4_vip_env.sv(116) @ 0: uvm_test_top.env [axi4_vip_env] Scoreboard connected: master_mon.ap -> scb, slave_mon.ap -> scb
# UVM_INFO ../src/env/axi4_vip_env.sv(124) @ 0: uvm_test_top.env [axi4_vip_env] Coverage connected: master_mon.ap -> master_cov, slave_mon.ap -> slave_cov
# UVM_INFO @ 0: reporter [UVMTOP] UVM testbench topology:
# ---------------------------------------------------------------
# Name                       Type                     Size  Value
# ---------------------------------------------------------------
# uvm_test_top               axi4_outstanding_test    -     @473 
#   env                      axi4_vip_env             -     @496 
#     master_agent           axi4_master_agent        -     @511 
#       drv                  axi4_master_driver       -     @575 
#         rsp_port           uvm_analysis_port        -     @590 
#         seq_item_port      uvm_seq_item_pull_port   -     @582 
#       mon                  axi4_master_monitor      -     @567 
#         ap                 uvm_analysis_port        -     @708 
#       sqr                  axi4_master_sequencer    -     @598 
#         rsp_export         uvm_analysis_export      -     @605 
#         seq_item_export    uvm_seq_item_pull_imp    -     @699 
#         arbitration_queue  array                    0     -    
#         lock_queue         array                    0     -    
#         num_last_reqs      integral                 32    'd1  
#         num_last_rsps      integral                 32    'd1  
#     master_cov             axi4_coverage            -     @532 
#       analysis_imp         uvm_analysis_imp         -     @539 
#     scb                    axi4_scoreboard          -     @525 
#       master_export        uvm_analysis_imp_master  -     @722 
#       slave_export         uvm_analysis_imp_slave   -     @730 
#     slave_agent            axi4_slave_agent         -     @518 
#       drv                  axi4_slave_driver        -     @760 
#         rsp_port           uvm_analysis_port        -     @775 
#         seq_item_port      uvm_seq_item_pull_port   -     @767 
#       mon                  axi4_slave_monitor       -     @743 
#         ap                 uvm_analysis_port        -     @899 
#       sqr                  axi4_slave_sequencer     -     @783 
#         rsp_export         uvm_analysis_export      -     @790 
#         seq_item_export    uvm_seq_item_pull_imp    -     @884 
#         arbitration_queue  array                    0     -    
#         lock_queue         array                    0     -    
#         num_last_reqs      integral                 32    'd1  
#         num_last_rsps      integral                 32    'd1  
#     slave_cov              axi4_coverage            -     @547 
#       analysis_imp         uvm_analysis_imp         -     @554 
# ---------------------------------------------------------------
# 
# UVM_INFO verilog_src/questa_uvm_pkg-1.2/src/questa_uvm_pkg.sv(277) @ 0: reporter [Questa UVM] End Of Elaboration
# UVM_INFO ../src/test/axi4_outstanding_test.sv(69) @ 0: uvm_test_top [axi4_outstanding_test] Starting outstanding test with 15 writes, 15 reads, depth=4, r_reorder=1
# UVM_INFO ../src/seq/axi4_outstanding_seq.sv(49) @ 0: uvm_test_top.env.master_agent.sqr@@outstanding_seq [axi4_outstanding_seq] Starting outstanding sequence: writes=15, reads=15, depth=4
# UVM_INFO ../src/tb_top.sv(49) @ 95000: reporter [TOP_TB] Reset de-asserted
# UVM_INFO ../src/slv/axi4_slave_driver.sv(122) @ 95000: uvm_test_top.env.slave_agent.drv [axi4_slave_driver] Reset deasserted - slave driver active
# UVM_INFO ../src/mst/axi4_master_driver.sv(64) @ 95000: uvm_test_top.env.master_agent.drv [axi4_master_driver] Reset deasserted - master driver active
# UVM_INFO ../src/mst/axi4_master_monitor.sv(77) @ 95000: uvm_test_top.env.master_agent.mon [axi4_master_monitor] Reset deasserted - monitor active
# UVM_INFO ../src/slv/axi4_slave_monitor.sv(71) @ 95000: uvm_test_top.env.slave_agent.mon [axi4_slave_monitor] Reset deasserted - monitor active
# UVM_INFO ../src/seq/axi4_outstanding_seq.sv(74) @ 95000: uvm_test_top.env.master_agent.sqr@@outstanding_seq [axi4_outstanding_seq] Outstanding Write [#3] started: ID=0x1 ADDR=0xedfb4434 LEN=173
# UVM_INFO ../src/mst/axi4_master_driver.sv(73) @ 95000: uvm_test_top.env.master_agent.drv [axi4_master_driver] Driving AXI4_WRITE  ID=0x1  ADDR=0xedfb4434  LEN=173
# UVM_INFO ../src/seq/axi4_outstanding_seq.sv(74) @ 95000: uvm_test_top.env.master_agent.sqr@@outstanding_seq [axi4_outstanding_seq] Outstanding Write [#2] started: ID=0x7 ADDR=0x92ec7163 LEN=138
# UVM_INFO ../src/mst/axi4_master_driver.sv(73) @ 95000: uvm_test_top.env.master_agent.drv [axi4_master_driver] Driving AXI4_WRITE  ID=0x7  ADDR=0x92ec7163  LEN=138
# UVM_INFO ../src/seq/axi4_outstanding_seq.sv(74) @ 95000: uvm_test_top.env.master_agent.sqr@@outstanding_seq [axi4_outstanding_seq] Outstanding Write [#1] started: ID=0xd ADDR=0x7db60877 LEN=169
# UVM_INFO ../src/mst/axi4_master_driver.sv(73) @ 95000: uvm_test_top.env.master_agent.drv [axi4_master_driver] Driving AXI4_WRITE  ID=0xd  ADDR=0x7db60877  LEN=169
# UVM_INFO ../src/seq/axi4_outstanding_seq.sv(74) @ 95000: uvm_test_top.env.master_agent.sqr@@outstanding_seq [axi4_outstanding_seq] Outstanding Write [#0] started: ID=0x4 ADDR=0x7591e83a LEN=215
# UVM_INFO ../src/mst/axi4_master_driver.sv(73) @ 95000: uvm_test_top.env.master_agent.drv [axi4_master_driver] Driving AXI4_WRITE  ID=0x4  ADDR=0x7591e83a  LEN=215
# UVM_INFO ../src/seq/axi4_outstanding_seq.sv(113) @ 95000: uvm_test_top.env.master_agent.sqr@@outstanding_seq [axi4_outstanding_seq] Outstanding Read [#3] started: ID=0x6 ADDR=0x0e721cb0 LEN=104
# UVM_INFO ../src/mst/axi4_master_driver.sv(73) @ 95000: uvm_test_top.env.master_agent.drv [axi4_master_driver] Driving AXI4_READ  ID=0x6  ADDR=0x0e721cb0  LEN=104
# UVM_INFO ../src/seq/axi4_outstanding_seq.sv(113) @ 95000: uvm_test_top.env.master_agent.sqr@@outstanding_seq [axi4_outstanding_seq] Outstanding Read [#2] started: ID=0xf ADDR=0x386fbe56 LEN=125
# UVM_INFO ../src/mst/axi4_master_driver.sv(73) @ 95000: uvm_test_top.env.master_agent.drv [axi4_master_driver] Driving AXI4_READ  ID=0xf  ADDR=0x386fbe56  LEN=125
# UVM_INFO ../src/seq/axi4_outstanding_seq.sv(113) @ 95000: uvm_test_top.env.master_agent.sqr@@outstanding_seq [axi4_outstanding_seq] Outstanding Read [#1] started: ID=0x6 ADDR=0x50cb592b LEN=44
# UVM_INFO ../src/mst/axi4_master_driver.sv(73) @ 95000: uvm_test_top.env.master_agent.drv [axi4_master_driver] Driving AXI4_READ  ID=0x6  ADDR=0x50cb592b  LEN=44
# UVM_INFO ../src/seq/axi4_outstanding_seq.sv(113) @ 95000: uvm_test_top.env.master_agent.sqr@@outstanding_seq [axi4_outstanding_seq] Outstanding Read [#0] started: ID=0x7 ADDR=0x8540b39f LEN=231
# UVM_INFO ../src/mst/axi4_master_driver.sv(73) @ 95000: uvm_test_top.env.master_agent.drv [axi4_master_driver] Driving AXI4_READ  ID=0x7  ADDR=0x8540b39f  LEN=231
# UVM_INFO ../src/slv/axi4_slave_driver.sv(358) @ 115000: uvm_test_top.env.slave_agent.drv [axi4_slave_driver] AR received: ID=0x6 ADDR=0x0e721cb0 LEN=104 LOCK=AXI4_LOCK_EXCLUSIVE
# UVM_INFO ../src/slv/axi4_slave_driver.sv(212) @ 115000: uvm_test_top.env.slave_agent.drv [axi4_slave_driver] AW received: ID=0x1 ADDR=0xedfb4434 LEN=173 LOCK=AXI4_LOCK_EXCLUSIVE
# UVM_INFO ../src/slv/axi4_slave_monitor.sv(224) @ 115000: uvm_test_top.env.slave_agent.mon [axi4_slave_monitor] AR received: ID=0x6 ADDR=0x0e721cb0 LEN=104
# UVM_INFO ../src/slv/axi4_slave_monitor.sv(116) @ 115000: uvm_test_top.env.slave_agent.mon [axi4_slave_monitor] AW received: ID=0x1 ADDR=0xedfb4434 LEN=173
# UVM_INFO ../src/mst/axi4_master_monitor.sv(246) @ 115000: uvm_test_top.env.master_agent.mon [axi4_master_monitor] AR observed: ID=0x6 ADDR=0x0e721cb0 LEN=104
# UVM_INFO ../src/mst/axi4_master_monitor.sv(124) @ 115000: uvm_test_top.env.master_agent.mon [axi4_master_monitor] AW observed: ID=0x1 ADDR=0xedfb4434 LEN=173
# UVM_INFO ../src/slv/axi4_slave_driver.sv(212) @ 145000: uvm_test_top.env.slave_agent.drv [axi4_slave_driver] AW received: ID=0x7 ADDR=0x92ec7163 LEN=138 LOCK=AXI4_LOCK_NORMAL
# UVM_INFO ../src/slv/axi4_slave_driver.sv(358) @ 145000: uvm_test_top.env.slave_agent.drv [axi4_slave_driver] AR received: ID=0xf ADDR=0x386fbe56 LEN=125 LOCK=AXI4_LOCK_NORMAL
# UVM_INFO ../src/mst/axi4_master_monitor.sv(124) @ 145000: uvm_test_top.env.master_agent.mon [axi4_master_monitor] AW observed: ID=0x7 ADDR=0x92ec7163 LEN=138
# UVM_INFO ../src/mst/axi4_master_monitor.sv(246) @ 145000: uvm_test_top.env.master_agent.mon [axi4_master_monitor] AR observed: ID=0xf ADDR=0x386fbe56 LEN=125
# UVM_INFO ../src/slv/axi4_slave_monitor.sv(116) @ 145000: uvm_test_top.env.slave_agent.mon [axi4_slave_monitor] AW received: ID=0x7 ADDR=0x92ec7163 LEN=138
# UVM_INFO ../src/slv/axi4_slave_monitor.sv(224) @ 145000: uvm_test_top.env.slave_agent.mon [axi4_slave_monitor] AR received: ID=0xf ADDR=0x386fbe56 LEN=125
# UVM_INFO ../src/slv/axi4_slave_driver.sv(358) @ 175000: uvm_test_top.env.slave_agent.drv [axi4_slave_driver] AR received: ID=0x6 ADDR=0x50cb592b LEN=44 LOCK=AXI4_LOCK_EXCLUSIVE
# UVM_INFO ../src/slv/axi4_slave_driver.sv(212) @ 175000: uvm_test_top.env.slave_agent.drv [axi4_slave_driver] AW received: ID=0xd ADDR=0x7db60877 LEN=169 LOCK=AXI4_LOCK_EXCLUSIVE
# UVM_INFO ../src/slv/axi4_slave_monitor.sv(224) @ 175000: uvm_test_top.env.slave_agent.mon [axi4_slave_monitor] AR received: ID=0x6 ADDR=0x50cb592b LEN=44
# UVM_INFO ../src/slv/axi4_slave_monitor.sv(116) @ 175000: uvm_test_top.env.slave_agent.mon [axi4_slave_monitor] AW received: ID=0xd ADDR=0x7db60877 LEN=169
# UVM_INFO ../src/mst/axi4_master_monitor.sv(246) @ 175000: uvm_test_top.env.master_agent.mon [axi4_master_monitor] AR observed: ID=0x6 ADDR=0x50cb592b LEN=44
# UVM_INFO ../src/mst/axi4_master_monitor.sv(124) @ 175000: uvm_test_top.env.master_agent.mon [axi4_master_monitor] AW observed: ID=0xd ADDR=0x7db60877 LEN=169
# UVM_INFO ../src/slv/axi4_slave_driver.sv(212) @ 205000: uvm_test_top.env.slave_agent.drv [axi4_slave_driver] AW received: ID=0x4 ADDR=0x7591e83a LEN=215 LOCK=AXI4_LOCK_EXCLUSIVE
# UVM_INFO ../src/slv/axi4_slave_driver.sv(358) @ 205000: uvm_test_top.env.slave_agent.drv [axi4_slave_driver] AR received: ID=0x7 ADDR=0x8540b39f LEN=231 LOCK=AXI4_LOCK_NORMAL
# UVM_INFO ../src/mst/axi4_master_monitor.sv(124) @ 205000: uvm_test_top.env.master_agent.mon [axi4_master_monitor] AW observed: ID=0x4 ADDR=0x7591e83a LEN=215
# UVM_INFO ../src/mst/axi4_master_monitor.sv(246) @ 205000: uvm_test_top.env.master_agent.mon [axi4_master_monitor] AR observed: ID=0x7 ADDR=0x8540b39f LEN=231
# UVM_INFO ../src/slv/axi4_slave_monitor.sv(116) @ 205000: uvm_test_top.env.slave_agent.mon [axi4_slave_monitor] AW received: ID=0x4 ADDR=0x7591e83a LEN=215
# UVM_INFO ../src/slv/axi4_slave_monitor.sv(224) @ 205000: uvm_test_top.env.slave_agent.mon [axi4_slave_monitor] AR received: ID=0x7 ADDR=0x8540b39f LEN=231
# UVM_INFO ../src/mst/axi4_master_driver.sv(348) @ 2235000: uvm_test_top.env.master_agent.drv [axi4_master_driver] Master driver received all R beats for ID=0x6
# UVM_INFO ../src/slv/axi4_slave_driver.sv(464) @ 2235000: uvm_test_top.env.slave_agent.drv [axi4_slave_driver] Read complete: ID=0x6 ADDR=0x0e721cb0 RESP=AXI4_RESP_EXOKAY  105 beats sent
# UVM_INFO ../src/slv/axi4_slave_monitor.sv(287) @ 2235000: uvm_test_top.env.slave_agent.mon [axi4_slave_monitor] Read data sent: ID=0x6 ADDR=0x0e721cb0 105 beats
# UVM_INFO ../src/env/axi4_scoreboard.sv(108) @ 2235000: uvm_test_top.env.scb [axi4_scoreboard] Slave AXI4_READ received: ID=0x6 ADDR=0x0e721cb0 LEN=104
# UVM_INFO ../src/mst/axi4_master_monitor.sv(314) @ 2235000: uvm_test_top.env.master_agent.mon [axi4_master_monitor] Read complete: ID=0x6 ADDR=0x0e721cb0 105 beats
# UVM_INFO ../src/env/axi4_scoreboard.sv(87) @ 2235000: uvm_test_top.env.scb [axi4_scoreboard] Master AXI4_READ received: ID=0x6 ADDR=0x0e721cb0 LEN=104
# UVM_INFO ../src/env/axi4_scoreboard.sv(291) @ 2235000: uvm_test_top.env.scb [axi4_scoreboard] [READ] MATCH #1: ID=0x6 ADDR=0x0e721cb0 LEN=104
# UVM_INFO ../src/seq/axi4_outstanding_seq.sv(123) @ 2235000: uvm_test_top.env.master_agent.sqr@@outstanding_seq [axi4_outstanding_seq] Outstanding Read [#3] complete: ID=0x6
# UVM_INFO ../src/seq/axi4_outstanding_seq.sv(113) @ 2235000: uvm_test_top.env.master_agent.sqr@@outstanding_seq [axi4_outstanding_seq] Outstanding Read [#4] started: ID=0xc ADDR=0x8e7c636c LEN=65
# UVM_INFO ../src/mst/axi4_master_driver.sv(73) @ 2235000: uvm_test_top.env.master_agent.drv [axi4_master_driver] Driving AXI4_READ  ID=0xc  ADDR=0x8e7c636c  LEN=65
# UVM_INFO ../src/slv/axi4_slave_driver.sv(358) @ 2265000: uvm_test_top.env.slave_agent.drv [axi4_slave_driver] AR received: ID=0xc ADDR=0x8e7c636c LEN=65 LOCK=AXI4_LOCK_EXCLUSIVE
# UVM_INFO ../src/mst/axi4_master_monitor.sv(246) @ 2265000: uvm_test_top.env.master_agent.mon [axi4_master_monitor] AR observed: ID=0xc ADDR=0x8e7c636c LEN=65
# UVM_INFO ../src/slv/axi4_slave_monitor.sv(224) @ 2265000: uvm_test_top.env.slave_agent.mon [axi4_slave_monitor] AR received: ID=0xc ADDR=0x8e7c636c LEN=65
# UVM_INFO ../src/mst/axi4_master_monitor.sv(184) @ 3565000: uvm_test_top.env.master_agent.mon [axi4_master_monitor] W data assembled: ID=0x1 ADDR=0xedfb4434 174 beats
# UVM_INFO ../src/slv/axi4_slave_monitor.sv(167) @ 3565000: uvm_test_top.env.slave_agent.mon [axi4_slave_monitor] W data assembled: ID=0x1 ADDR=0xedfb4434 174 beats
# UVM_INFO ../src/mst/axi4_master_driver.sv(289) @ 3595000: uvm_test_top.env.master_agent.drv [axi4_master_driver] Master driver received B response: ID=0x1 RESP=AXI4_RESP_SLVERR
# UVM_INFO ../src/slv/axi4_slave_driver.sv(320) @ 3595000: uvm_test_top.env.slave_agent.drv [axi4_slave_driver] Write complete: ID=0x1 RESP=AXI4_RESP_SLVERR
# UVM_INFO ../src/slv/axi4_slave_monitor.sv(189) @ 3595000: uvm_test_top.env.slave_agent.mon [axi4_slave_monitor] Write response sent: ID=0x1 ADDR=0xedfb4434 RESP=AXI4_RESP_SLVERR
# UVM_INFO ../src/env/axi4_scoreboard.sv(108) @ 3595000: uvm_test_top.env.scb [axi4_scoreboard] Slave AXI4_WRITE received: ID=0x1 ADDR=0xedfb4434 LEN=173
# UVM_INFO ../src/mst/axi4_master_monitor.sv(210) @ 3595000: uvm_test_top.env.master_agent.mon [axi4_master_monitor] Write complete: ID=0x1 ADDR=0xedfb4434 RESP=AXI4_RESP_SLVERR
# UVM_INFO ../src/env/axi4_scoreboard.sv(87) @ 3595000: uvm_test_top.env.scb [axi4_scoreboard] Master AXI4_WRITE received: ID=0x1 ADDR=0xedfb4434 LEN=173
# UVM_INFO ../src/env/axi4_scoreboard.sv(291) @ 3595000: uvm_test_top.env.scb [axi4_scoreboard] [WRITE] MATCH #2: ID=0x1 ADDR=0xedfb4434 LEN=173
# UVM_INFO ../src/env/axi4_scoreboard.sv(226) @ 3595000: uvm_test_top.env.scb [axi4_scoreboard] [REF_MEM_WRITE_IGNORED] Write ignored for ADDR=0xedfb4434 LOCK=AXI4_LOCK_EXCLUSIVE RESP=AXI4_RESP_SLVERR
# UVM_INFO ../src/seq/axi4_outstanding_seq.sv(84) @ 3595000: uvm_test_top.env.master_agent.sqr@@outstanding_seq [axi4_outstanding_seq] Outstanding Write [#3] complete: ID=0x1
# UVM_INFO ../src/seq/axi4_outstanding_seq.sv(74) @ 3595000: uvm_test_top.env.master_agent.sqr@@outstanding_seq [axi4_outstanding_seq] Outstanding Write [#4] started: ID=0x8 ADDR=0x31598bf8 LEN=70
# UVM_INFO ../src/mst/axi4_master_driver.sv(73) @ 3595000: uvm_test_top.env.master_agent.drv [axi4_master_driver] Driving AXI4_WRITE  ID=0x8  ADDR=0x31598bf8  LEN=70
# UVM_INFO ../src/slv/axi4_slave_driver.sv(212) @ 3625000: uvm_test_top.env.slave_agent.drv [axi4_slave_driver] AW received: ID=0x8 ADDR=0x31598bf8 LEN=70 LOCK=AXI4_LOCK_NORMAL
# UVM_INFO ../src/mst/axi4_master_monitor.sv(124) @ 3625000: uvm_test_top.env.master_agent.mon [axi4_master_monitor] AW observed: ID=0x8 ADDR=0x31598bf8 LEN=70
# UVM_INFO ../src/slv/axi4_slave_monitor.sv(116) @ 3625000: uvm_test_top.env.slave_agent.mon [axi4_slave_monitor] AW received: ID=0x8 ADDR=0x31598bf8 LEN=70
# UVM_INFO ../src/mst/axi4_master_driver.sv(348) @ 4755000: uvm_test_top.env.master_agent.drv [axi4_master_driver] Master driver received all R beats for ID=0xf
# UVM_INFO ../src/slv/axi4_slave_driver.sv(464) @ 4755000: uvm_test_top.env.slave_agent.drv [axi4_slave_driver] Read complete: ID=0xf ADDR=0x386fbe56 RESP=AXI4_RESP_OKAY  126 beats sent
# UVM_INFO ../src/slv/axi4_slave_monitor.sv(287) @ 4755000: uvm_test_top.env.slave_agent.mon [axi4_slave_monitor] Read data sent: ID=0xf ADDR=0x386fbe56 126 beats
# UVM_INFO ../src/env/axi4_scoreboard.sv(108) @ 4755000: uvm_test_top.env.scb [axi4_scoreboard] Slave AXI4_READ received: ID=0xf ADDR=0x386fbe56 LEN=125
# UVM_INFO ../src/mst/axi4_master_monitor.sv(314) @ 4755000: uvm_test_top.env.master_agent.mon [axi4_master_monitor] Read complete: ID=0xf ADDR=0x386fbe56 126 beats
# UVM_INFO ../src/env/axi4_scoreboard.sv(87) @ 4755000: uvm_test_top.env.scb [axi4_scoreboard] Master AXI4_READ received: ID=0xf ADDR=0x386fbe56 LEN=125
# UVM_INFO ../src/env/axi4_scoreboard.sv(291) @ 4755000: uvm_test_top.env.scb [axi4_scoreboard] [READ] MATCH #3: ID=0xf ADDR=0x386fbe56 LEN=125
# UVM_INFO ../src/seq/axi4_outstanding_seq.sv(123) @ 4755000: uvm_test_top.env.master_agent.sqr@@outstanding_seq [axi4_outstanding_seq] Outstanding Read [#2] complete: ID=0xf
# UVM_INFO ../src/seq/axi4_outstanding_seq.sv(113) @ 4755000: uvm_test_top.env.master_agent.sqr@@outstanding_seq [axi4_outstanding_seq] Outstanding Read [#5] started: ID=0x1 ADDR=0x06be696f LEN=60
# UVM_INFO ../src/mst/axi4_master_driver.sv(73) @ 4755000: uvm_test_top.env.master_agent.drv [axi4_master_driver] Driving AXI4_READ  ID=0x1  ADDR=0x06be696f  LEN=60
# UVM_INFO ../src/slv/axi4_slave_driver.sv(358) @ 4785000: uvm_test_top.env.slave_agent.drv [axi4_slave_driver] AR received: ID=0x1 ADDR=0x06be696f LEN=60 LOCK=AXI4_LOCK_EXCLUSIVE
# UVM_INFO ../src/mst/axi4_master_monitor.sv(246) @ 4785000: uvm_test_top.env.master_agent.mon [axi4_master_monitor] AR observed: ID=0x1 ADDR=0x06be696f LEN=60
# UVM_INFO ../src/slv/axi4_slave_monitor.sv(224) @ 4785000: uvm_test_top.env.slave_agent.mon [axi4_slave_monitor] AR received: ID=0x1 ADDR=0x06be696f LEN=60
# UVM_INFO ../src/mst/axi4_master_monitor.sv(184) @ 6345000: uvm_test_top.env.master_agent.mon [axi4_master_monitor] W data assembled: ID=0x7 ADDR=0x92ec7163 139 beats
# UVM_INFO ../src/slv/axi4_slave_monitor.sv(167) @ 6345000: uvm_test_top.env.slave_agent.mon [axi4_slave_monitor] W data assembled: ID=0x7 ADDR=0x92ec7163 139 beats
# UVM_INFO ../src/mst/axi4_master_driver.sv(289) @ 6375000: uvm_test_top.env.master_agent.drv [axi4_master_driver] Master driver received B response: ID=0x7 RESP=AXI4_RESP_OKAY
# UVM_INFO ../src/slv/axi4_slave_driver.sv(320) @ 6375000: uvm_test_top.env.slave_agent.drv [axi4_slave_driver] Write complete: ID=0x7 RESP=AXI4_RESP_OKAY
# UVM_INFO ../src/slv/axi4_slave_monitor.sv(189) @ 6375000: uvm_test_top.env.slave_agent.mon [axi4_slave_monitor] Write response sent: ID=0x7 ADDR=0x92ec7163 RESP=AXI4_RESP_OKAY
# UVM_INFO ../src/env/axi4_scoreboard.sv(108) @ 6375000: uvm_test_top.env.scb [axi4_scoreboard] Slave AXI4_WRITE received: ID=0x7 ADDR=0x92ec7163 LEN=138
# UVM_INFO ../src/mst/axi4_master_monitor.sv(210) @ 6375000: uvm_test_top.env.master_agent.mon [axi4_master_monitor] Write complete: ID=0x7 ADDR=0x92ec7163 RESP=AXI4_RESP_OKAY
# UVM_INFO ../src/env/axi4_scoreboard.sv(87) @ 6375000: uvm_test_top.env.scb [axi4_scoreboard] Master AXI4_WRITE received: ID=0x7 ADDR=0x92ec7163 LEN=138
# UVM_INFO ../src/env/axi4_scoreboard.sv(291) @ 6375000: uvm_test_top.env.scb [axi4_scoreboard] [WRITE] MATCH #4: ID=0x7 ADDR=0x92ec7163 LEN=138
# UVM_INFO ../src/env/axi4_scoreboard.sv(219) @ 6375000: uvm_test_top.env.scb [axi4_scoreboard] [REF_MEM_WRITE] Addr=0x92ec7160 Data=0x83
# UVM_INFO ../src/env/axi4_scoreboard.sv(219) @ 6375000: uvm_test_top.env.scb [axi4_scoreboard] [REF_MEM_WRITE] Addr=0x92ec7162 Data=0xc6
# UVM_INFO ../src/env/axi4_scoreboard.sv(219) @ 6375000: uvm_test_top.env.scb [axi4_scoreboard] [REF_MEM_WRITE] Addr=0x92ec7165 Data=0x54
# UVM_INFO ../src/env/axi4_scoreboard.sv(219) @ 6375000: uvm_test_top.env.scb [axi4_scoreboard] [REF_MEM_WRITE] Addr=0x92ec7167 Data=0x5c
# UVM_INFO ../src/env/axi4_scoreboard.sv(219) @ 6375000: uvm_test_top.env.scb [axi4_scoreboard] [REF_MEM_WRITE] Addr=0x92ec7164 Data=0x6b
# UVM_INFO ../src/env/axi4_scoreboard.sv(219) @ 6375000: uvm_test_top.env.scb [axi4_scoreboard] [REF_MEM_WRITE] Addr=0x92ec7165 Data=0xc9
# UVM_INFO ../src/env/axi4_scoreboard.sv(219) @ 6375000: uvm_test_top.env.scb [axi4_scoreboard] [REF_MEM_WRITE] Addr=0x92ec7168 Data=0xa3
# UVM_INFO ../src/env/axi4_scoreboard.sv(219) @ 6375000: uvm_test_top.env.scb [axi4_scoreboard] [REF_MEM_WRITE] Addr=0x92ec7169 Data=0xd1
# UVM_INFO ../src/env/axi4_scoreboard.sv(219) @ 6375000: uvm_test_top.env.scb [axi4_scoreboard] [REF_MEM_WRITE] Addr=0x92ec716a Data=0x17
# UVM_INFO ../src/env/axi4_scoreboard.sv(219) @ 6375000: uvm_test_top.env.scb [axi4_scoreboard] [REF_MEM_WRITE] Addr=0x92ec716b Data=0x3f
# UVM_INFO ../src/env/axi4_scoreboard.sv(219) @ 6375000: uvm_test_top.env.scb [axi4_scoreboard] [REF_MEM_WRITE] Addr=0x92ec7173 Data=0xe4
# UVM_INFO ../src/env/axi4_scoreboard.sv(219) @ 6375000: uvm_test_top.env.scb [axi4_scoreboard] [REF_MEM_WRITE] Addr=0x92ec7171 Data=0x19
# UVM_INFO ../src/env/axi4_scoreboard.sv(219) @ 6375000: uvm_test_top.env.scb [axi4_scoreboard] [REF_MEM_WRITE] Addr=0x92ec7172 Data=0xd7
# UVM_INFO ../src/env/axi4_scoreboard.sv(219) @ 6375000: uvm_test_top.env.scb [axi4_scoreboard] [REF_MEM_WRITE] Addr=0x92ec7176 Data=0x1d
# UVM_INFO ../src/env/axi4_scoreboard.sv(219) @ 6375000: uvm_test_top.env.scb [axi4_scoreboard] [REF_MEM_WRITE] Addr=0x92ec7175 Data=0x9a
# UVM_INFO ../src/env/axi4_scoreboard.sv(219) @ 6375000: uvm_test_top.env.scb [axi4_scoreboard] [REF_MEM_WRITE] Addr=0x92ec7177 Data=0x43
# UVM_INFO ../src/env/axi4_scoreboard.sv(219) @ 6375000: uvm_test_top.env.scb [axi4_scoreboard] [REF_MEM_WRITE] Addr=0x92ec7179 Data=0x61
# UVM_INFO ../src/env/axi4_scoreboard.sv(219) @ 6375000: uvm_test_top.env.scb [axi4_scoreboard] [REF_MEM_WRITE] Addr=0x92ec717a Data=0x21
# UVM_INFO ../src/env/axi4_scoreboard.sv(219) @ 6375000: uvm_test_top.env.scb [axi4_scoreboard] [REF_MEM_WRITE] Addr=0x92ec717b Data=0x54
# UVM_INFO ../src/env/axi4_scoreboard.sv(219) @ 6375000: uvm_test_top.env.scb [axi4_scoreboard] [REF_MEM_WRITE] Addr=0x92ec7178 Data=0x29
# UVM_INFO ../src/env/axi4_scoreboard.sv(219) @ 6375000: uvm_test_top.env.scb [axi4_scoreboard] [REF_MEM_WRITE] Addr=0x92ec7179 Data=0xc9
# UVM_INFO ../src/env/axi4_scoreboard.sv(219) @ 6375000: uvm_test_top.env.scb [axi4_scoreboard] [REF_MEM_WRITE] Addr=0x92ec717b Data=0x38
# UVM_INFO ../src/env/axi4_scoreboard.sv(219) @ 6375000: uvm_test_top.env.scb [axi4_scoreboard] [REF_MEM_WRITE] Addr=0x92ec717c Data=0xbc
# UVM_INFO ../src/env/axi4_scoreboard.sv(219) @ 6375000: uvm_test_top.env.scb [axi4_scoreboard] [REF_MEM_WRITE] Addr=0x92ec717c Data=0xad
# UVM_INFO ../src/env/axi4_scoreboard.sv(219) @ 6375000: uvm_test_top.env.scb [axi4_scoreboard] [REF_MEM_WRITE] Addr=0x92ec717d Data=0x3c
# UVM_INFO ../src/env/axi4_scoreboard.sv(219) @ 6375000: uvm_test_top.env.scb [axi4_scoreboard] [REF_MEM_WRITE] Addr=0x92ec7180 Data=0x14
# UVM_INFO ../src/env/axi4_scoreboard.sv(219) @ 6375000: uvm_test_top.env.scb [axi4_scoreboard] [REF_MEM_WRITE] Addr=0x92ec7183 Data=0x8e
# UVM_INFO ../src/env/axi4_scoreboard.sv(219) @ 6375000: uvm_test_top.env.scb [axi4_scoreboard] [REF_MEM_WRITE] Addr=0x92ec7180 Data=0xb8
# UVM_INFO ../src/env/axi4_scoreboard.sv(219) @ 6375000: uvm_test_top.env.scb [axi4_scoreboard] [REF_MEM_WRITE] Addr=0x92ec7181 Data=0xfa
# UVM_INFO ../src/env/axi4_scoreboard.sv(219) @ 6375000: uvm_test_top.env.scb [axi4_scoreboard] [REF_MEM_WRITE] Addr=0x92ec7182 Data=0x1a
# UVM_INFO ../src/env/axi4_scoreboard.sv(219) @ 6375000: uvm_test_top.env.scb [axi4_scoreboard] [REF_MEM_WRITE] Addr=0x92ec7184 Data=0xaf
# UVM_INFO ../src/env/axi4_scoreboard.sv(219) @ 6375000: uvm_test_top.env.scb [axi4_scoreboard] [REF_MEM_WRITE] Addr=0x92ec7184 Data=0x50
# UVM_INFO ../src/env/axi4_scoreboard.sv(219) @ 6375000: uvm_test_top.env.scb [axi4_scoreboard] [REF_MEM_WRITE] Addr=0x92ec7188 Data=0x86
# UVM_INFO ../src/env/axi4_scoreboard.sv(219) @ 6375000: uvm_test_top.env.scb [axi4_scoreboard] [REF_MEM_WRITE] Addr=0x92ec718a Data=0x68
# UVM_INFO ../src/env/axi4_scoreboard.sv(219) @ 6375000: uvm_test_top.env.scb [axi4_scoreboard] [REF_MEM_WRITE] Addr=0x92ec718b Data=0x45
# UVM_INFO ../src/env/axi4_scoreboard.sv(219) @ 6375000: uvm_test_top.env.scb [axi4_scoreboard] [REF_MEM_WRITE] Addr=0x92ec718a Data=0x2d
# UVM_INFO ../src/env/axi4_scoreboard.sv(219) @ 6375000: uvm_test_top.env.scb [axi4_scoreboard] [REF_MEM_WRITE] Addr=0x92ec718c Data=0x11
# UVM_INFO ../src/env/axi4_scoreboard.sv(219) @ 6375000: uvm_test_top.env.scb [axi4_scoreboard] [REF_MEM_WRITE] Addr=0x92ec718d Data=0xfe
# UVM_INFO ../src/env/axi4_scoreboard.sv(219) @ 6375000: uvm_test_top.env.scb [axi4_scoreboard] [REF_MEM_WRITE] Addr=0x92ec718e Data=0x9b
# UVM_INFO ../src/env/axi4_scoreboard.sv(219) @ 6375000: uvm_test_top.env.scb [axi4_scoreboard] [REF_MEM_WRITE] Addr=0x92ec7193 Data=0x37
# UVM_INFO ../src/env/axi4_scoreboard.sv(219) @ 6375000: uvm_test_top.env.scb [axi4_scoreboard] [REF_MEM_WRITE] Addr=0x92ec7190 Data=0x8d
# UVM_INFO ../src/env/axi4_scoreboard.sv(219) @ 6375000: uvm_test_top.env.scb [axi4_scoreboard] [REF_MEM_WRITE] Addr=0x92ec7191 Data=0x71
# UVM_INFO ../src/env/axi4_scoreboard.sv(219) @ 6375000: uvm_test_top.env.scb [axi4_scoreboard] [REF_MEM_WRITE] Addr=0x92ec7192 Data=0xf3
# UVM_INFO ../src/env/axi4_scoreboard.sv(219) @ 6375000: uvm_test_top.env.scb [axi4_scoreboard] [REF_MEM_WRITE] Addr=0x92ec7196 Data=0xc7
# UVM_INFO ../src/env/axi4_scoreboard.sv(219) @ 6375000: uvm_test_top.env.scb [axi4_scoreboard] [REF_MEM_WRITE] Addr=0x92ec7194 Data=0xb8
# UVM_INFO ../src/env/axi4_scoreboard.sv(219) @ 6375000: uvm_test_top.env.scb [axi4_scoreboard] [REF_MEM_WRITE] Addr=0x92ec7198 Data=0x00
# UVM_INFO ../src/env/axi4_scoreboard.sv(219) @ 6375000: uvm_test_top.env.scb [axi4_scoreboard] [REF_MEM_WRITE] Addr=0x92ec719a Data=0xc4
# UVM_INFO ../src/env/axi4_scoreboard.sv(219) @ 6375000: uvm_test_top.env.scb [axi4_scoreboard] [REF_MEM_WRITE] Addr=0x92ec7198 Data=0x89
# UVM_INFO ../src/env/axi4_scoreboard.sv(219) @ 6375000: uvm_test_top.env.scb [axi4_scoreboard] [REF_MEM_WRITE] Addr=0x92ec7199 Data=0x53
# UVM_INFO ../src/env/axi4_scoreboard.sv(219) @ 6375000: uvm_test_top.env.scb [axi4_scoreboard] [REF_MEM_WRITE] Addr=0x92ec719a Data=0x60
# UVM_INFO ../src/env/axi4_scoreboard.sv(219) @ 6375000: uvm_test_top.env.scb [axi4_scoreboard] [REF_MEM_WRITE] Addr=0x92ec719c Data=0xcd
# UVM_INFO ../src/env/axi4_scoreboard.sv(219) @ 6375000: uvm_test_top.env.scb [axi4_scoreboard] [REF_MEM_WRITE] Addr=0x92ec719c Data=0x63
# UVM_INFO ../src/env/axi4_scoreboard.sv(219) @ 6375000: uvm_test_top.env.scb [axi4_scoreboard] [REF_MEM_WRITE] Addr=0x92ec719e Data=0xf7
# UVM_INFO ../src/env/axi4_scoreboard.sv(219) @ 6375000: uvm_test_top.env.scb [axi4_scoreboard] [REF_MEM_WRITE] Addr=0x92ec71a1 Data=0xfc
# UVM_INFO ../src/env/axi4_scoreboard.sv(219) @ 6375000: uvm_test_top.env.scb [axi4_scoreboard] [REF_MEM_WRITE] Addr=0x92ec71a1 Data=0x71
# UVM_INFO ../src/env/axi4_scoreboard.sv(219) @ 6375000: uvm_test_top.env.scb [axi4_scoreboard] [REF_MEM_WRITE] Addr=0x92ec71a3 Data=0xf1
# UVM_INFO ../src/env/axi4_scoreboard.sv(219) @ 6375000: uvm_test_top.env.scb [axi4_scoreboard] [REF_MEM_WRITE] Addr=0x92ec71a4 Data=0x6c
# UVM_INFO ../src/env/axi4_scoreboard.sv(219) @ 6375000: uvm_test_top.env.scb [axi4_scoreboard] [REF_MEM_WRITE] Addr=0x92ec71a5 Data=0x01
# UVM_INFO ../src/env/axi4_scoreboard.sv(219) @ 6375000: uvm_test_top.env.scb [axi4_scoreboard] [REF_MEM_WRITE] Addr=0x92ec71a6 Data=0x23
# UVM_INFO ../src/env/axi4_scoreboard.sv(219) @ 6375000: uvm_test_top.env.scb [axi4_scoreboard] [REF_MEM_WRITE] Addr=0x92ec71a8 Data=0x2c
# UVM_INFO ../src/env/axi4_scoreboard.sv(219) @ 6375000: uvm_test_top.env.scb [axi4_scoreboard] [REF_MEM_WRITE] Addr=0x92ec71aa Data=0x25
# UVM_INFO ../src/env/axi4_scoreboard.sv(219) @ 6375000: uvm_test_top.env.scb [axi4_scoreboard] [REF_MEM_WRITE] Addr=0x92ec71a8 Data=0xfc
# UVM_INFO ../src/env/axi4_scoreboard.sv(219) @ 6375000: uvm_test_top.env.scb [axi4_scoreboard] [REF_MEM_WRITE] Addr=0x92ec71a9 Data=0x08
# UVM_INFO ../src/env/axi4_scoreboard.sv(219) @ 6375000: uvm_test_top.env.scb [axi4_scoreboard] [REF_MEM_WRITE] Addr=0x92ec71ab Data=0xf7
# UVM_INFO ../src/env/axi4_scoreboard.sv(219) @ 6375000: uvm_test_top.env.scb [axi4_scoreboard] [REF_MEM_WRITE] Addr=0x92ec71af Data=0x81
# UVM_INFO ../src/env/axi4_scoreboard.sv(219) @ 6375000: uvm_test_top.env.scb [axi4_scoreboard] [REF_MEM_WRITE] Addr=0x92ec71ad Data=0x49
# UVM_INFO ../src/env/axi4_scoreboard.sv(219) @ 6375000: uvm_test_top.env.scb [axi4_scoreboard] [REF_MEM_WRITE] Addr=0x92ec71ae Data=0x33
# UVM_INFO ../src/env/axi4_scoreboard.sv(219) @ 6375000: uvm_test_top.env.scb [axi4_scoreboard] [REF_MEM_WRITE] Addr=0x92ec71af Data=0x45
# UVM_INFO ../src/env/axi4_scoreboard.sv(219) @ 6375000: uvm_test_top.env.scb [axi4_scoreboard] [REF_MEM_WRITE] Addr=0x92ec71b0 Data=0x67
# UVM_INFO ../src/env/axi4_scoreboard.sv(219) @ 6375000: uvm_test_top.env.scb [axi4_scoreboard] [REF_MEM_WRITE] Addr=0x92ec71b2 Data=0xa0
# UVM_INFO ../src/env/axi4_scoreboard.sv(219) @ 6375000: uvm_test_top.env.scb [axi4_scoreboard] [REF_MEM_WRITE] Addr=0x92ec71b3 Data=0x98
# UVM_INFO ../src/env/axi4_scoreboard.sv(219) @ 6375000: uvm_test_top.env.scb [axi4_scoreboard] [REF_MEM_WRITE] Addr=0x92ec71b2 Data=0x50
# UVM_INFO ../src/env/axi4_scoreboard.sv(219) @ 6375000: uvm_test_top.env.scb [axi4_scoreboard] [REF_MEM_WRITE] Addr=0x92ec71b6 Data=0xaa
# UVM_INFO ../src/env/axi4_scoreboard.sv(219) @ 6375000: uvm_test_top.env.scb [axi4_scoreboard] [REF_MEM_WRITE] Addr=0x92ec71b7 Data=0x90
# UVM_INFO ../src/env/axi4_scoreboard.sv(219) @ 6375000: uvm_test_top.env.scb [axi4_scoreboard] [REF_MEM_WRITE] Addr=0x92ec71b6 Data=0x20
# UVM_INFO ../src/env/axi4_scoreboard.sv(219) @ 6375000: uvm_test_top.env.scb [axi4_scoreboard] [REF_MEM_WRITE] Addr=0x92ec71b7 Data=0xef
# UVM_INFO ../src/env/axi4_scoreboard.sv(219) @ 6375000: uvm_test_top.env.scb [axi4_scoreboard] [REF_MEM_WRITE] Addr=0x92ec71ba Data=0x1a
# UVM_INFO ../src/env/axi4_scoreboard.sv(219) @ 6375000: uvm_test_top.env.scb [axi4_scoreboard] [REF_MEM_WRITE] Addr=0x92ec71bb Data=0x7a
# UVM_INFO ../src/env/axi4_scoreboard.sv(219) @ 6375000: uvm_test_top.env.scb [axi4_scoreboard] [REF_MEM_WRITE] Addr=0x92ec71b8 Data=0x03
# UVM_INFO ../src/env/axi4_scoreboard.sv(219) @ 6375000: uvm_test_top.env.scb [axi4_scoreboard] [REF_MEM_WRITE] Addr=0x92ec71b9 Data=0x8d
# UVM_INFO ../src/env/axi4_scoreboard.sv(219) @ 6375000: uvm_test_top.env.scb [axi4_scoreboard] [REF_MEM_WRITE] Addr=0x92ec71ba Data=0x23
# UVM_INFO ../src/env/axi4_scoreboard.sv(219) @ 6375000: uvm_test_top.env.scb [axi4_scoreboard] [REF_MEM_WRITE] Addr=0x92ec71bc Data=0xb8
# UVM_INFO ../src/env/axi4_scoreboard.sv(219) @ 6375000: uvm_test_top.env.scb [axi4_scoreboard] [REF_MEM_WRITE] Addr=0x92ec71bf Data=0x49
# UVM_INFO ../src/env/axi4_scoreboard.sv(219) @ 6375000: uvm_test_top.env.scb [axi4_scoreboard] [REF_MEM_WRITE] Addr=0x92ec71be Data=0xeb
# UVM_INFO ../src/env/axi4_scoreboard.sv(219) @ 6375000: uvm_test_top.env.scb [axi4_scoreboard] [REF_MEM_WRITE] Addr=0x92ec71bf Data=0x38
# UVM_INFO ../src/env/axi4_scoreboard.sv(219) @ 6375000: uvm_test_top.env.scb [axi4_scoreboard] [REF_MEM_WRITE] Addr=0x92ec71c0 Data=0x3a
# UVM_INFO ../src/env/axi4_scoreboard.sv(219) @ 6375000: uvm_test_top.env.scb [axi4_scoreboard] [REF_MEM_WRITE] Addr=0x92ec71c1 Data=0xa4
# UVM_INFO ../src/env/axi4_scoreboard.sv(219) @ 6375000: uvm_test_top.env.scb [axi4_scoreboard] [REF_MEM_WRITE] Addr=0x92ec71c2 Data=0x1b
# UVM_INFO ../src/env/axi4_scoreboard.sv(219) @ 6375000: uvm_test_top.env.scb [axi4_scoreboard] [REF_MEM_WRITE] Addr=0x92ec71c0 Data=0x72
# UVM_INFO ../src/env/axi4_scoreboard.sv(219) @ 6375000: uvm_test_top.env.scb [axi4_scoreboard] [REF_MEM_WRITE] Addr=0x92ec71c2 Data=0x3b
# UVM_INFO ../src/env/axi4_scoreboard.sv(219) @ 6375000: uvm_test_top.env.scb [axi4_scoreboard] [REF_MEM_WRITE] Addr=0x92ec71c3 Data=0x3b
# UVM_INFO ../src/env/axi4_scoreboard.sv(219) @ 6375000: uvm_test_top.env.scb [axi4_scoreboard] [REF_MEM_WRITE] Addr=0x92ec71c4 Data=0x13
# UVM_INFO ../src/env/axi4_scoreboard.sv(219) @ 6375000: uvm_test_top.env.scb [axi4_scoreboard] [REF_MEM_WRITE] Addr=0x92ec71c5 Data=0x7a
# UVM_INFO ../src/env/axi4_scoreboard.sv(219) @ 6375000: uvm_test_top.env.scb [axi4_scoreboard] [REF_MEM_WRITE] Addr=0x92ec71c6 Data=0x64
# UVM_INFO ../src/env/axi4_scoreboard.sv(219) @ 6375000: uvm_test_top.env.scb [axi4_scoreboard] [REF_MEM_WRITE] Addr=0x92ec71c4 Data=0x23
# UVM_INFO ../src/env/axi4_scoreboard.sv(219) @ 6375000: uvm_test_top.env.scb [axi4_scoreboard] [REF_MEM_WRITE] Addr=0x92ec71c6 Data=0xa1
# UVM_INFO ../src/env/axi4_scoreboard.sv(219) @ 6375000: uvm_test_top.env.scb [axi4_scoreboard] [REF_MEM_WRITE] Addr=0x92ec71c8 Data=0x38
# UVM_INFO ../src/env/axi4_scoreboard.sv(219) @ 6375000: uvm_test_top.env.scb [axi4_scoreboard] [REF_MEM_WRITE] Addr=0x92ec71cb Data=0xe1
# UVM_INFO ../src/env/axi4_scoreboard.sv(219) @ 6375000: uvm_test_top.env.scb [axi4_scoreboard] [REF_MEM_WRITE] Addr=0x92ec71ca Data=0x64
# UVM_INFO ../src/env/axi4_scoreboard.sv(219) @ 6375000: uvm_test_top.env.scb [axi4_scoreboard] [REF_MEM_WRITE] Addr=0x92ec71cd Data=0xe9
# UVM_INFO ../src/env/axi4_scoreboard.sv(219) @ 6375000: uvm_test_top.env.scb [axi4_scoreboard] [REF_MEM_WRITE] Addr=0x92ec71ce Data=0x6f
# UVM_INFO ../src/env/axi4_scoreboard.sv(219) @ 6375000: uvm_test_top.env.scb [axi4_scoreboard] [REF_MEM_WRITE] Addr=0x92ec71cc Data=0xbb
# UVM_INFO ../src/env/axi4_scoreboard.sv(219) @ 6375000: uvm_test_top.env.scb [axi4_scoreboard] [REF_MEM_WRITE] Addr=0x92ec71ce Data=0xe4
# UVM_INFO ../src/env/axi4_scoreboard.sv(219) @ 6375000: uvm_test_top.env.scb [axi4_scoreboard] [REF_MEM_WRITE] Addr=0x92ec71d3 Data=0xce
# UVM_INFO ../src/env/axi4_scoreboard.sv(219) @ 6375000: uvm_test_top.env.scb [axi4_scoreboard] [REF_MEM_WRITE] Addr=0x92ec71d0 Data=0xa0
# UVM_INFO ../src/env/axi4_scoreboard.sv(219) @ 6375000: uvm_test_top.env.scb [axi4_scoreboard] [REF_MEM_WRITE] Addr=0x92ec71d2 Data=0xda
# UVM_INFO ../src/env/axi4_scoreboard.sv(219) @ 6375000: uvm_test_top.env.scb [axi4_scoreboard] [REF_MEM_WRITE] Addr=0x92ec71d3 Data=0x8c
# UVM_INFO ../src/env/axi4_scoreboard.sv(219) @ 6375000: uvm_test_top.env.scb [axi4_scoreboard] [REF_MEM_WRITE] Addr=0x92ec71d4 Data=0xe3
# UVM_INFO ../src/env/axi4_scoreboard.sv(219) @ 6375000: uvm_test_top.env.scb [axi4_scoreboard] [REF_MEM_WRITE] Addr=0x92ec71d5 Data=0x59
# UVM_INFO ../src/env/axi4_scoreboard.sv(219) @ 6375000: uvm_test_top.env.scb [axi4_scoreboard] [REF_MEM_WRITE] Addr=0x92ec71d6 Data=0x00
# UVM_INFO ../src/env/axi4_scoreboard.sv(219) @ 6375000: uvm_test_top.env.scb [axi4_scoreboard] [REF_MEM_WRITE] Addr=0x92ec71d7 Data=0x63
# UVM_INFO ../src/env/axi4_scoreboard.sv(219) @ 6375000: uvm_test_top.env.scb [axi4_scoreboard] [REF_MEM_WRITE] Addr=0x92ec71d5 Data=0x03
# UVM_INFO ../src/env/axi4_scoreboard.sv(219) @ 6375000: uvm_test_top.env.scb [axi4_scoreboard] [REF_MEM_WRITE] Addr=0x92ec71d7 Data=0xea
# UVM_INFO ../src/env/axi4_scoreboard.sv(219) @ 6375000: uvm_test_top.env.scb [axi4_scoreboard] [REF_MEM_WRITE] Addr=0x92ec71d9 Data=0x47
# UVM_INFO ../src/env/axi4_scoreboard.sv(219) @ 6375000: uvm_test_top.env.scb [axi4_scoreboard] [REF_MEM_WRITE] Addr=0x92ec71db Data=0x86
# UVM_INFO ../src/env/axi4_scoreboard.sv(219) @ 6375000: uvm_test_top.env.scb [axi4_scoreboard] [REF_MEM_WRITE] Addr=0x92ec71d9 Data=0x61
# UVM_INFO ../src/env/axi4_scoreboard.sv(219) @ 6375000: uvm_test_top.env.scb [axi4_scoreboard] [REF_MEM_WRITE] Addr=0x92ec71da Data=0x9a
# UVM_INFO ../src/env/axi4_scoreboard.sv(219) @ 6375000: uvm_test_top.env.scb [axi4_scoreboard] [REF_MEM_WRITE] Addr=0x92ec71db Data=0x26
# UVM_INFO ../src/env/axi4_scoreboard.sv(219) @ 6375000: uvm_test_top.env.scb [axi4_scoreboard] [REF_MEM_WRITE] Addr=0x92ec71dc Data=0x1e
# UVM_INFO ../src/env/axi4_scoreboard.sv(219) @ 6375000: uvm_test_top.env.scb [axi4_scoreboard] [REF_MEM_WRITE] Addr=0x92ec71de Data=0x77
# UVM_INFO ../src/env/axi4_scoreboard.sv(219) @ 6375000: uvm_test_top.env.scb [axi4_scoreboard] [REF_MEM_WRITE] Addr=0x92ec71dc Data=0xef
# UVM_INFO ../src/env/axi4_scoreboard.sv(219) @ 6375000: uvm_test_top.env.scb [axi4_scoreboard] [REF_MEM_WRITE] Addr=0x92ec71dd Data=0x18
# UVM_INFO ../src/env/axi4_scoreboard.sv(219) @ 6375000: uvm_test_top.env.scb [axi4_scoreboard] [REF_MEM_WRITE] Addr=0x92ec71e0 Data=0x02
# UVM_INFO ../src/env/axi4_scoreboard.sv(219) @ 6375000: uvm_test_top.env.scb [axi4_scoreboard] [REF_MEM_WRITE] Addr=0x92ec71e1 Data=0x2d
# UVM_INFO ../src/env/axi4_scoreboard.sv(219) @ 6375000: uvm_test_top.env.scb [axi4_scoreboard] [REF_MEM_WRITE] Addr=0x92ec71e0 Data=0x5b
# UVM_INFO ../src/env/axi4_scoreboard.sv(219) @ 6375000: uvm_test_top.env.scb [axi4_scoreboard] [REF_MEM_WRITE] Addr=0x92ec71e1 Data=0x19
# UVM_INFO ../src/env/axi4_scoreboard.sv(219) @ 6375000: uvm_test_top.env.scb [axi4_scoreboard] [REF_MEM_WRITE] Addr=0x92ec71e3 Data=0xf4
# UVM_INFO ../src/env/axi4_scoreboard.sv(219) @ 6375000: uvm_test_top.env.scb [axi4_scoreboard] [REF_MEM_WRITE] Addr=0x92ec71e5 Data=0xeb
# UVM_INFO ../src/env/axi4_scoreboard.sv(219) @ 6375000: uvm_test_top.env.scb [axi4_scoreboard] [REF_MEM_WRITE] Addr=0x92ec71e7 Data=0xe0
# UVM_INFO ../src/env/axi4_scoreboard.sv(219) @ 6375000: uvm_test_top.env.scb [axi4_scoreboard] [REF_MEM_WRITE] Addr=0x92ec71e5 Data=0x7c
# UVM_INFO ../src/env/axi4_scoreboard.sv(219) @ 6375000: uvm_test_top.env.scb [axi4_scoreboard] [REF_MEM_WRITE] Addr=0x92ec71e8 Data=0xd3
# UVM_INFO ../src/env/axi4_scoreboard.sv(219) @ 6375000: uvm_test_top.env.scb [axi4_scoreboard] [REF_MEM_WRITE] Addr=0x92ec71ea Data=0xc1
# UVM_INFO ../src/env/axi4_scoreboard.sv(219) @ 6375000: uvm_test_top.env.scb [axi4_scoreboard] [REF_MEM_WRITE] Addr=0x92ec71eb Data=0x54
# UVM_INFO ../src/env/axi4_scoreboard.sv(219) @ 6375000: uvm_test_top.env.scb [axi4_scoreboard] [REF_MEM_WRITE] Addr=0x92ec71e9 Data=0x92
# UVM_INFO ../src/env/axi4_scoreboard.sv(219) @ 6375000: uvm_test_top.env.scb [axi4_scoreboard] [REF_MEM_WRITE] Addr=0x92ec71ea Data=0xa1
# UVM_INFO ../src/env/axi4_scoreboard.sv(219) @ 6375000: uvm_test_top.env.scb [axi4_scoreboard] [REF_MEM_WRITE] Addr=0x92ec71ec Data=0x13
# UVM_INFO ../src/env/axi4_scoreboard.sv(219) @ 6375000: uvm_test_top.env.scb [axi4_scoreboard] [REF_MEM_WRITE] Addr=0x92ec71ed Data=0x29
# UVM_INFO ../src/env/axi4_scoreboard.sv(219) @ 6375000: uvm_test_top.env.scb [axi4_scoreboard] [REF_MEM_WRITE] Addr=0x92ec71ee Data=0x4b
# UVM_INFO ../src/env/axi4_scoreboard.sv(219) @ 6375000: uvm_test_top.env.scb [axi4_scoreboard] [REF_MEM_WRITE] Addr=0x92ec71ec Data=0x6e
# UVM_INFO ../src/env/axi4_scoreboard.sv(219) @ 6375000: uvm_test_top.env.scb [axi4_scoreboard] [REF_MEM_WRITE] Addr=0x92ec71ee Data=0x50
# UVM_INFO ../src/env/axi4_scoreboard.sv(219) @ 6375000: uvm_test_top.env.scb [axi4_scoreboard] [REF_MEM_WRITE] Addr=0x92ec71f2 Data=0x5b
# UVM_INFO ../src/env/axi4_scoreboard.sv(219) @ 6375000: uvm_test_top.env.scb [axi4_scoreboard] [REF_MEM_WRITE] Addr=0x92ec71f3 Data=0xe8
# UVM_INFO ../src/env/axi4_scoreboard.sv(219) @ 6375000: uvm_test_top.env.scb [axi4_scoreboard] [REF_MEM_WRITE] Addr=0x92ec71f1 Data=0x2e
# UVM_INFO ../src/env/axi4_scoreboard.sv(219) @ 6375000: uvm_test_top.env.scb [axi4_scoreboard] [REF_MEM_WRITE] Addr=0x92ec71f2 Data=0xde
# UVM_INFO ../src/env/axi4_scoreboard.sv(219) @ 6375000: uvm_test_top.env.scb [axi4_scoreboard] [REF_MEM_WRITE] Addr=0x92ec71f8 Data=0x45
# UVM_INFO ../src/env/axi4_scoreboard.sv(219) @ 6375000: uvm_test_top.env.scb [axi4_scoreboard] [REF_MEM_WRITE] Addr=0x92ec71fa Data=0x81
# UVM_INFO ../src/env/axi4_scoreboard.sv(219) @ 6375000: uvm_test_top.env.scb [axi4_scoreboard] [REF_MEM_WRITE] Addr=0x92ec71f9 Data=0x11
# UVM_INFO ../src/env/axi4_scoreboard.sv(219) @ 6375000: uvm_test_top.env.scb [axi4_scoreboard] [REF_MEM_WRITE] Addr=0x92ec71fa Data=0x1c
# UVM_INFO ../src/env/axi4_scoreboard.sv(219) @ 6375000: uvm_test_top.env.scb [axi4_scoreboard] [REF_MEM_WRITE] Addr=0x92ec71fe Data=0x61
# UVM_INFO ../src/env/axi4_scoreboard.sv(219) @ 6375000: uvm_test_top.env.scb [axi4_scoreboard] [REF_MEM_WRITE] Addr=0x92ec71ff Data=0x75
# UVM_INFO ../src/env/axi4_scoreboard.sv(219) @ 6375000: uvm_test_top.env.scb [axi4_scoreboard] [REF_MEM_WRITE] Addr=0x92ec7201 Data=0xe3
# UVM_INFO ../src/env/axi4_scoreboard.sv(219) @ 6375000: uvm_test_top.env.scb [axi4_scoreboard] [REF_MEM_WRITE] Addr=0x92ec7202 Data=0x14
# UVM_INFO ../src/env/axi4_scoreboard.sv(219) @ 6375000: uvm_test_top.env.scb [axi4_scoreboard] [REF_MEM_WRITE] Addr=0x92ec7203 Data=0x2d
# UVM_INFO ../src/env/axi4_scoreboard.sv(219) @ 6375000: uvm_test_top.env.scb [axi4_scoreboard] [REF_MEM_WRITE] Addr=0x92ec7200 Data=0x76
# UVM_INFO ../src/env/axi4_scoreboard.sv(219) @ 6375000: uvm_test_top.env.scb [axi4_scoreboard] [REF_MEM_WRITE] Addr=0x92ec7204 Data=0x8f
# UVM_INFO ../src/env/axi4_scoreboard.sv(219) @ 6375000: uvm_test_top.env.scb [axi4_scoreboard] [REF_MEM_WRITE] Addr=0x92ec7205 Data=0x88
# UVM_INFO ../src/env/axi4_scoreboard.sv(219) @ 6375000: uvm_test_top.env.scb [axi4_scoreboard] [REF_MEM_WRITE] Addr=0x92ec7206 Data=0xb6
# UVM_INFO ../src/env/axi4_scoreboard.sv(219) @ 6375000: uvm_test_top.env.scb [axi4_scoreboard] [REF_MEM_WRITE] Addr=0x92ec7205 Data=0x4d
# UVM_INFO ../src/env/axi4_scoreboard.sv(219) @ 6375000: uvm_test_top.env.scb [axi4_scoreboard] [REF_MEM_WRITE] Addr=0x92ec7209 Data=0x8b
# UVM_INFO ../src/env/axi4_scoreboard.sv(219) @ 6375000: uvm_test_top.env.scb [axi4_scoreboard] [REF_MEM_WRITE] Addr=0x92ec720a Data=0xcc
# UVM_INFO ../src/env/axi4_scoreboard.sv(219) @ 6375000: uvm_test_top.env.scb [axi4_scoreboard] [REF_MEM_WRITE] Addr=0x92ec720b Data=0xd7
# UVM_INFO ../src/env/axi4_scoreboard.sv(219) @ 6375000: uvm_test_top.env.scb [axi4_scoreboard] [REF_MEM_WRITE] Addr=0x92ec7208 Data=0x3d
# UVM_INFO ../src/env/axi4_scoreboard.sv(219) @ 6375000: uvm_test_top.env.scb [axi4_scoreboard] [REF_MEM_WRITE] Addr=0x92ec7209 Data=0x7b
# UVM_INFO ../src/env/axi4_scoreboard.sv(219) @ 6375000: uvm_test_top.env.scb [axi4_scoreboard] [REF_MEM_WRITE] Addr=0x92ec720e Data=0x3f
# UVM_INFO ../src/env/axi4_scoreboard.sv(219) @ 6375000: uvm_test_top.env.scb [axi4_scoreboard] [REF_MEM_WRITE] Addr=0x92ec720f Data=0x51
# UVM_INFO ../src/env/axi4_scoreboard.sv(219) @ 6375000: uvm_test_top.env.scb [axi4_scoreboard] [REF_MEM_WRITE] Addr=0x92ec720c Data=0x8b
# UVM_INFO ../src/env/axi4_scoreboard.sv(219) @ 6375000: uvm_test_top.env.scb [axi4_scoreboard] [REF_MEM_WRITE] Addr=0x92ec720f Data=0x2b
# UVM_INFO ../src/env/axi4_scoreboard.sv(219) @ 6375000: uvm_test_top.env.scb [axi4_scoreboard] [REF_MEM_WRITE] Addr=0x92ec7212 Data=0xa4
# UVM_INFO ../src/env/axi4_scoreboard.sv(219) @ 6375000: uvm_test_top.env.scb [axi4_scoreboard] [REF_MEM_WRITE] Addr=0x92ec7213 Data=0xef
# UVM_INFO ../src/env/axi4_scoreboard.sv(219) @ 6375000: uvm_test_top.env.scb [axi4_scoreboard] [REF_MEM_WRITE] Addr=0x92ec7210 Data=0xa0
# UVM_INFO ../src/env/axi4_scoreboard.sv(219) @ 6375000: uvm_test_top.env.scb [axi4_scoreboard] [REF_MEM_WRITE] Addr=0x92ec7215 Data=0x63
# UVM_INFO ../src/env/axi4_scoreboard.sv(219) @ 6375000: uvm_test_top.env.scb [axi4_scoreboard] [REF_MEM_WRITE] Addr=0x92ec7216 Data=0x41
# UVM_INFO ../src/env/axi4_scoreboard.sv(219) @ 6375000: uvm_test_top.env.scb [axi4_scoreboard] [REF_MEM_WRITE] Addr=0x92ec7214 Data=0xf6
# UVM_INFO ../src/env/axi4_scoreboard.sv(219) @ 6375000: uvm_test_top.env.scb [axi4_scoreboard] [REF_MEM_WRITE] Addr=0x92ec7216 Data=0x02
# UVM_INFO ../src/env/axi4_scoreboard.sv(219) @ 6375000: uvm_test_top.env.scb [axi4_scoreboard] [REF_MEM_WRITE] Addr=0x92ec7217 Data=0xb9
# UVM_INFO ../src/env/axi4_scoreboard.sv(219) @ 6375000: uvm_test_top.env.scb [axi4_scoreboard] [REF_MEM_WRITE] Addr=0x92ec7218 Data=0xde
# UVM_INFO ../src/env/axi4_scoreboard.sv(219) @ 6375000: uvm_test_top.env.scb [axi4_scoreboard] [REF_MEM_WRITE] Addr=0x92ec7219 Data=0x8b
# UVM_INFO ../src/env/axi4_scoreboard.sv(219) @ 6375000: uvm_test_top.env.scb [axi4_scoreboard] [REF_MEM_WRITE] Addr=0x92ec721b Data=0xef
# UVM_INFO ../src/env/axi4_scoreboard.sv(219) @ 6375000: uvm_test_top.env.scb [axi4_scoreboard] [REF_MEM_WRITE] Addr=0x92ec7218 Data=0x9c
# UVM_INFO ../src/env/axi4_scoreboard.sv(219) @ 6375000: uvm_test_top.env.scb [axi4_scoreboard] [REF_MEM_WRITE] Addr=0x92ec721a Data=0xb7
# UVM_INFO ../src/env/axi4_scoreboard.sv(219) @ 6375000: uvm_test_top.env.scb [axi4_scoreboard] [REF_MEM_WRITE] Addr=0x92ec721d Data=0x18
# UVM_INFO ../src/env/axi4_scoreboard.sv(219) @ 6375000: uvm_test_top.env.scb [axi4_scoreboard] [REF_MEM_WRITE] Addr=0x92ec721f Data=0x64
# UVM_INFO ../src/env/axi4_scoreboard.sv(219) @ 6375000: uvm_test_top.env.scb [axi4_scoreboard] [REF_MEM_WRITE] Addr=0x92ec721c Data=0x53
# UVM_INFO ../src/env/axi4_scoreboard.sv(219) @ 6375000: uvm_test_top.env.scb [axi4_scoreboard] [REF_MEM_WRITE] Addr=0x92ec721f Data=0x12
# UVM_INFO ../src/env/axi4_scoreboard.sv(219) @ 6375000: uvm_test_top.env.scb [axi4_scoreboard] [REF_MEM_WRITE] Addr=0x92ec7221 Data=0x5c
# UVM_INFO ../src/env/axi4_scoreboard.sv(219) @ 6375000: uvm_test_top.env.scb [axi4_scoreboard] [REF_MEM_WRITE] Addr=0x92ec7222 Data=0xf1
# UVM_INFO ../src/env/axi4_scoreboard.sv(219) @ 6375000: uvm_test_top.env.scb [axi4_scoreboard] [REF_MEM_WRITE] Addr=0x92ec7223 Data=0x56
# UVM_INFO ../src/env/axi4_scoreboard.sv(219) @ 6375000: uvm_test_top.env.scb [axi4_scoreboard] [REF_MEM_WRITE] Addr=0x92ec7225 Data=0xca
# UVM_INFO ../src/env/axi4_scoreboard.sv(219) @ 6375000: uvm_test_top.env.scb [axi4_scoreboard] [REF_MEM_WRITE] Addr=0x92ec7226 Data=0x89
# UVM_INFO ../src/env/axi4_scoreboard.sv(219) @ 6375000: uvm_test_top.env.scb [axi4_scoreboard] [REF_MEM_WRITE] Addr=0x92ec7227 Data=0x6b
# UVM_INFO ../src/env/axi4_scoreboard.sv(219) @ 6375000: uvm_test_top.env.scb [axi4_scoreboard] [REF_MEM_WRITE] Addr=0x92ec7228 Data=0x64
# UVM_INFO ../src/env/axi4_scoreboard.sv(219) @ 6375000: uvm_test_top.env.scb [axi4_scoreboard] [REF_MEM_WRITE] Addr=0x92ec7229 Data=0x7a
# UVM_INFO ../src/env/axi4_scoreboard.sv(219) @ 6375000: uvm_test_top.env.scb [axi4_scoreboard] [REF_MEM_WRITE] Addr=0x92ec722b Data=0xed
# UVM_INFO ../src/env/axi4_scoreboard.sv(219) @ 6375000: uvm_test_top.env.scb [axi4_scoreboard] [REF_MEM_WRITE] Addr=0x92ec7228 Data=0xbb
# UVM_INFO ../src/env/axi4_scoreboard.sv(219) @ 6375000: uvm_test_top.env.scb [axi4_scoreboard] [REF_MEM_WRITE] Addr=0x92ec722b Data=0xf4
# UVM_INFO ../src/env/axi4_scoreboard.sv(219) @ 6375000: uvm_test_top.env.scb [axi4_scoreboard] [REF_MEM_WRITE] Addr=0x92ec722c Data=0xa7
# UVM_INFO ../src/env/axi4_scoreboard.sv(219) @ 6375000: uvm_test_top.env.scb [axi4_scoreboard] [REF_MEM_WRITE] Addr=0x92ec722d Data=0x8d
# UVM_INFO ../src/env/axi4_scoreboard.sv(219) @ 6375000: uvm_test_top.env.scb [axi4_scoreboard] [REF_MEM_WRITE] Addr=0x92ec722e Data=0xf9
# UVM_INFO ../src/env/axi4_scoreboard.sv(219) @ 6375000: uvm_test_top.env.scb [axi4_scoreboard] [REF_MEM_WRITE] Addr=0x92ec722f Data=0xc4
# UVM_INFO ../src/env/axi4_scoreboard.sv(219) @ 6375000: uvm_test_top.env.scb [axi4_scoreboard] [REF_MEM_WRITE] Addr=0x92ec7231 Data=0x40
# UVM_INFO ../src/env/axi4_scoreboard.sv(219) @ 6375000: uvm_test_top.env.scb [axi4_scoreboard] [REF_MEM_WRITE] Addr=0x92ec7230 Data=0x75
# UVM_INFO ../src/env/axi4_scoreboard.sv(219) @ 6375000: uvm_test_top.env.scb [axi4_scoreboard] [REF_MEM_WRITE] Addr=0x92ec7231 Data=0x93
# UVM_INFO ../src/env/axi4_scoreboard.sv(219) @ 6375000: uvm_test_top.env.scb [axi4_scoreboard] [REF_MEM_WRITE] Addr=0x92ec7234 Data=0xe2
# UVM_INFO ../src/env/axi4_scoreboard.sv(219) @ 6375000: uvm_test_top.env.scb [axi4_scoreboard] [REF_MEM_WRITE] Addr=0x92ec7234 Data=0x6a
# UVM_INFO ../src/env/axi4_scoreboard.sv(219) @ 6375000: uvm_test_top.env.scb [axi4_scoreboard] [REF_MEM_WRITE] Addr=0x92ec7235 Data=0x78
# UVM_INFO ../src/env/axi4_scoreboard.sv(219) @ 6375000: uvm_test_top.env.scb [axi4_scoreboard] [REF_MEM_WRITE] Addr=0x92ec7236 Data=0xb0
# UVM_INFO ../src/env/axi4_scoreboard.sv(219) @ 6375000: uvm_test_top.env.scb [axi4_scoreboard] [REF_MEM_WRITE] Addr=0x92ec7237 Data=0xb9
# UVM_INFO ../src/env/axi4_scoreboard.sv(219) @ 6375000: uvm_test_top.env.scb [axi4_scoreboard] [REF_MEM_WRITE] Addr=0x92ec723b Data=0x0b
# UVM_INFO ../src/env/axi4_scoreboard.sv(219) @ 6375000: uvm_test_top.env.scb [axi4_scoreboard] [REF_MEM_WRITE] Addr=0x92ec7238 Data=0xa6
# UVM_INFO ../src/env/axi4_scoreboard.sv(219) @ 6375000: uvm_test_top.env.scb [axi4_scoreboard] [REF_MEM_WRITE] Addr=0x92ec723a Data=0x80
# UVM_INFO ../src/env/axi4_scoreboard.sv(219) @ 6375000: uvm_test_top.env.scb [axi4_scoreboard] [REF_MEM_WRITE] Addr=0x92ec723b Data=0xbf
# UVM_INFO ../src/env/axi4_scoreboard.sv(219) @ 6375000: uvm_test_top.env.scb [axi4_scoreboard] [REF_MEM_WRITE] Addr=0x92ec723f Data=0x03
# UVM_INFO ../src/env/axi4_scoreboard.sv(219) @ 6375000: uvm_test_top.env.scb [axi4_scoreboard] [REF_MEM_WRITE] Addr=0x92ec723c Data=0x69
# UVM_INFO ../src/env/axi4_scoreboard.sv(219) @ 6375000: uvm_test_top.env.scb [axi4_scoreboard] [REF_MEM_WRITE] Addr=0x92ec723d Data=0x1d
# UVM_INFO ../src/env/axi4_scoreboard.sv(219) @ 6375000: uvm_test_top.env.scb [axi4_scoreboard] [REF_MEM_WRITE] Addr=0x92ec723e Data=0xe4
# UVM_INFO ../src/env/axi4_scoreboard.sv(219) @ 6375000: uvm_test_top.env.scb [axi4_scoreboard] [REF_MEM_WRITE] Addr=0x92ec723f Data=0xd4
# UVM_INFO ../src/env/axi4_scoreboard.sv(219) @ 6375000: uvm_test_top.env.scb [axi4_scoreboard] [REF_MEM_WRITE] Addr=0x92ec7241 Data=0xec
# UVM_INFO ../src/env/axi4_scoreboard.sv(219) @ 6375000: uvm_test_top.env.scb [axi4_scoreboard] [REF_MEM_WRITE] Addr=0x92ec7243 Data=0x67
# UVM_INFO ../src/env/axi4_scoreboard.sv(219) @ 6375000: uvm_test_top.env.scb [axi4_scoreboard] [REF_MEM_WRITE] Addr=0x92ec7244 Data=0xba
# UVM_INFO ../src/env/axi4_scoreboard.sv(219) @ 6375000: uvm_test_top.env.scb [axi4_scoreboard] [REF_MEM_WRITE] Addr=0x92ec7245 Data=0xaa
# UVM_INFO ../src/env/axi4_scoreboard.sv(219) @ 6375000: uvm_test_top.env.scb [axi4_scoreboard] [REF_MEM_WRITE] Addr=0x92ec7246 Data=0xde
# UVM_INFO ../src/env/axi4_scoreboard.sv(219) @ 6375000: uvm_test_top.env.scb [axi4_scoreboard] [REF_MEM_WRITE] Addr=0x92ec7247 Data=0x50
# UVM_INFO ../src/env/axi4_scoreboard.sv(219) @ 6375000: uvm_test_top.env.scb [axi4_scoreboard] [REF_MEM_WRITE] Addr=0x92ec7248 Data=0xa9
# UVM_INFO ../src/env/axi4_scoreboard.sv(219) @ 6375000: uvm_test_top.env.scb [axi4_scoreboard] [REF_MEM_WRITE] Addr=0x92ec724a Data=0xf4
# UVM_INFO ../src/env/axi4_scoreboard.sv(219) @ 6375000: uvm_test_top.env.scb [axi4_scoreboard] [REF_MEM_WRITE] Addr=0x92ec7248 Data=0x0d
# UVM_INFO ../src/env/axi4_scoreboard.sv(219) @ 6375000: uvm_test_top.env.scb [axi4_scoreboard] [REF_MEM_WRITE] Addr=0x92ec724a Data=0x7e
# UVM_INFO ../src/env/axi4_scoreboard.sv(219) @ 6375000: uvm_test_top.env.scb [axi4_scoreboard] [REF_MEM_WRITE] Addr=0x92ec724b Data=0x62
# UVM_INFO ../src/env/axi4_scoreboard.sv(219) @ 6375000: uvm_test_top.env.scb [axi4_scoreboard] [REF_MEM_WRITE] Addr=0x92ec724d Data=0x78
# UVM_INFO ../src/env/axi4_scoreboard.sv(219) @ 6375000: uvm_test_top.env.scb [axi4_scoreboard] [REF_MEM_WRITE] Addr=0x92ec724e Data=0x51
# UVM_INFO ../src/env/axi4_scoreboard.sv(219) @ 6375000: uvm_test_top.env.scb [axi4_scoreboard] [REF_MEM_WRITE] Addr=0x92ec724d Data=0x26
# UVM_INFO ../src/env/axi4_scoreboard.sv(219) @ 6375000: uvm_test_top.env.scb [axi4_scoreboard] [REF_MEM_WRITE] Addr=0x92ec724f Data=0xa7
# UVM_INFO ../src/env/axi4_scoreboard.sv(219) @ 6375000: uvm_test_top.env.scb [axi4_scoreboard] [REF_MEM_WRITE] Addr=0x92ec7250 Data=0xbc
# UVM_INFO ../src/env/axi4_scoreboard.sv(219) @ 6375000: uvm_test_top.env.scb [axi4_scoreboard] [REF_MEM_WRITE] Addr=0x92ec7253 Data=0x4d
# UVM_INFO ../src/env/axi4_scoreboard.sv(219) @ 6375000: uvm_test_top.env.scb [axi4_scoreboard] [REF_MEM_WRITE] Addr=0x92ec7253 Data=0xe1
# UVM_INFO ../src/env/axi4_scoreboard.sv(219) @ 6375000: uvm_test_top.env.scb [axi4_scoreboard] [REF_MEM_WRITE] Addr=0x92ec7255 Data=0xa2
# UVM_INFO ../src/env/axi4_scoreboard.sv(219) @ 6375000: uvm_test_top.env.scb [axi4_scoreboard] [REF_MEM_WRITE] Addr=0x92ec7256 Data=0x2f
# UVM_INFO ../src/env/axi4_scoreboard.sv(219) @ 6375000: uvm_test_top.env.scb [axi4_scoreboard] [REF_MEM_WRITE] Addr=0x92ec7255 Data=0xe3
# UVM_INFO ../src/env/axi4_scoreboard.sv(219) @ 6375000: uvm_test_top.env.scb [axi4_scoreboard] [REF_MEM_WRITE] Addr=0x92ec7259 Data=0x87
# UVM_INFO ../src/env/axi4_scoreboard.sv(219) @ 6375000: uvm_test_top.env.scb [axi4_scoreboard] [REF_MEM_WRITE] Addr=0x92ec725b Data=0xd5
# UVM_INFO ../src/env/axi4_scoreboard.sv(219) @ 6375000: uvm_test_top.env.scb [axi4_scoreboard] [REF_MEM_WRITE] Addr=0x92ec725a Data=0x0c
# UVM_INFO ../src/env/axi4_scoreboard.sv(219) @ 6375000: uvm_test_top.env.scb [axi4_scoreboard] [REF_MEM_WRITE] Addr=0x92ec725b Data=0x65
# UVM_INFO ../src/env/axi4_scoreboard.sv(219) @ 6375000: uvm_test_top.env.scb [axi4_scoreboard] [REF_MEM_WRITE] Addr=0x92ec7262 Data=0xdd
# UVM_INFO ../src/env/axi4_scoreboard.sv(219) @ 6375000: uvm_test_top.env.scb [axi4_scoreboard] [REF_MEM_WRITE] Addr=0x92ec7260 Data=0xc1
# UVM_INFO ../src/env/axi4_scoreboard.sv(219) @ 6375000: uvm_test_top.env.scb [axi4_scoreboard] [REF_MEM_WRITE] Addr=0x92ec7262 Data=0xcd
# UVM_INFO ../src/env/axi4_scoreboard.sv(219) @ 6375000: uvm_test_top.env.scb [axi4_scoreboard] [REF_MEM_WRITE] Addr=0x92ec7263 Data=0x29
# UVM_INFO ../src/env/axi4_scoreboard.sv(219) @ 6375000: uvm_test_top.env.scb [axi4_scoreboard] [REF_MEM_WRITE] Addr=0x92ec7265 Data=0xa8
# UVM_INFO ../src/env/axi4_scoreboard.sv(219) @ 6375000: uvm_test_top.env.scb [axi4_scoreboard] [REF_MEM_WRITE] Addr=0x92ec7265 Data=0x59
# UVM_INFO ../src/env/axi4_scoreboard.sv(219) @ 6375000: uvm_test_top.env.scb [axi4_scoreboard] [REF_MEM_WRITE] Addr=0x92ec7266 Data=0xd6
# UVM_INFO ../src/env/axi4_scoreboard.sv(219) @ 6375000: uvm_test_top.env.scb [axi4_scoreboard] [REF_MEM_WRITE] Addr=0x92ec7267 Data=0xc3
# UVM_INFO ../src/env/axi4_scoreboard.sv(219) @ 6375000: uvm_test_top.env.scb [axi4_scoreboard] [REF_MEM_WRITE] Addr=0x92ec7268 Data=0x7c
# UVM_INFO ../src/env/axi4_scoreboard.sv(219) @ 6375000: uvm_test_top.env.scb [axi4_scoreboard] [REF_MEM_WRITE] Addr=0x92ec7269 Data=0xee
# UVM_INFO ../src/env/axi4_scoreboard.sv(219) @ 6375000: uvm_test_top.env.scb [axi4_scoreboard] [REF_MEM_WRITE] Addr=0x92ec726a Data=0xf7
# UVM_INFO ../src/env/axi4_scoreboard.sv(219) @ 6375000: uvm_test_top.env.scb [axi4_scoreboard] [REF_MEM_WRITE] Addr=0x92ec7268 Data=0x92
# UVM_INFO ../src/env/axi4_scoreboard.sv(219) @ 6375000: uvm_test_top.env.scb [axi4_scoreboard] [REF_MEM_WRITE] Addr=0x92ec726b Data=0xa8
# UVM_INFO ../src/env/axi4_scoreboard.sv(219) @ 6375000: uvm_test_top.env.scb [axi4_scoreboard] [REF_MEM_WRITE] Addr=0x92ec726c Data=0xbe
# UVM_INFO ../src/env/axi4_scoreboard.sv(219) @ 6375000: uvm_test_top.env.scb [axi4_scoreboard] [REF_MEM_WRITE] Addr=0x92ec726d Data=0x9d
# UVM_INFO ../src/env/axi4_scoreboard.sv(219) @ 6375000: uvm_test_top.env.scb [axi4_scoreboard] [REF_MEM_WRITE] Addr=0x92ec726e Data=0xe8
# UVM_INFO ../src/env/axi4_scoreboard.sv(219) @ 6375000: uvm_test_top.env.scb [axi4_scoreboard] [REF_MEM_WRITE] Addr=0x92ec726f Data=0x6c
# UVM_INFO ../src/env/axi4_scoreboard.sv(219) @ 6375000: uvm_test_top.env.scb [axi4_scoreboard] [REF_MEM_WRITE] Addr=0x92ec726c Data=0x8d
# UVM_INFO ../src/env/axi4_scoreboard.sv(219) @ 6375000: uvm_test_top.env.scb [axi4_scoreboard] [REF_MEM_WRITE] Addr=0x92ec726d Data=0x73
# UVM_INFO ../src/env/axi4_scoreboard.sv(219) @ 6375000: uvm_test_top.env.scb [axi4_scoreboard] [REF_MEM_WRITE] Addr=0x92ec7273 Data=0xae
# UVM_INFO ../src/env/axi4_scoreboard.sv(219) @ 6375000: uvm_test_top.env.scb [axi4_scoreboard] [REF_MEM_WRITE] Addr=0x92ec7270 Data=0x5f
# UVM_INFO ../src/env/axi4_scoreboard.sv(219) @ 6375000: uvm_test_top.env.scb [axi4_scoreboard] [REF_MEM_WRITE] Addr=0x92ec7273 Data=0xab
# UVM_INFO ../src/env/axi4_scoreboard.sv(219) @ 6375000: uvm_test_top.env.scb [axi4_scoreboard] [REF_MEM_WRITE] Addr=0x92ec7274 Data=0xae
# UVM_INFO ../src/env/axi4_scoreboard.sv(219) @ 6375000: uvm_test_top.env.scb [axi4_scoreboard] [REF_MEM_WRITE] Addr=0x92ec7275 Data=0xac
# UVM_INFO ../src/env/axi4_scoreboard.sv(219) @ 6375000: uvm_test_top.env.scb [axi4_scoreboard] [REF_MEM_WRITE] Addr=0x92ec7276 Data=0x57
# UVM_INFO ../src/env/axi4_scoreboard.sv(219) @ 6375000: uvm_test_top.env.scb [axi4_scoreboard] [REF_MEM_WRITE] Addr=0x92ec7277 Data=0x46
# UVM_INFO ../src/seq/axi4_outstanding_seq.sv(84) @ 6375000: uvm_test_top.env.master_agent.sqr@@outstanding_seq [axi4_outstanding_seq] Outstanding Write [#2] complete: ID=0x7
# UVM_INFO ../src/seq/axi4_outstanding_seq.sv(74) @ 6375000: uvm_test_top.env.master_agent.sqr@@outstanding_seq [axi4_outstanding_seq] Outstanding Write [#5] started: ID=0x9 ADDR=0xd7fe238e LEN=126
# UVM_INFO ../src/mst/axi4_master_driver.sv(73) @ 6375000: uvm_test_top.env.master_agent.drv [axi4_master_driver] Driving AXI4_WRITE  ID=0x9  ADDR=0xd7fe238e  LEN=126
# UVM_INFO ../src/slv/axi4_slave_driver.sv(212) @ 6405000: uvm_test_top.env.slave_agent.drv [axi4_slave_driver] AW received: ID=0x9 ADDR=0xd7fe238e LEN=126 LOCK=AXI4_LOCK_NORMAL
# UVM_INFO ../src/mst/axi4_master_monitor.sv(124) @ 6405000: uvm_test_top.env.master_agent.mon [axi4_master_monitor] AW observed: ID=0x9 ADDR=0xd7fe238e LEN=126
# UVM_INFO ../src/slv/axi4_slave_monitor.sv(116) @ 6405000: uvm_test_top.env.slave_agent.mon [axi4_slave_monitor] AW received: ID=0x9 ADDR=0xd7fe238e LEN=126
# UVM_INFO ../src/mst/axi4_master_driver.sv(348) @ 9395000: uvm_test_top.env.master_agent.drv [axi4_master_driver] Master driver received all R beats for ID=0x7
# UVM_INFO ../src/slv/axi4_slave_driver.sv(464) @ 9395000: uvm_test_top.env.slave_agent.drv [axi4_slave_driver] Read complete: ID=0x7 ADDR=0x8540b39f RESP=AXI4_RESP_OKAY  232 beats sent
# UVM_INFO ../src/slv/axi4_slave_monitor.sv(287) @ 9395000: uvm_test_top.env.slave_agent.mon [axi4_slave_monitor] Read data sent: ID=0x7 ADDR=0x8540b39f 232 beats
# UVM_INFO ../src/env/axi4_scoreboard.sv(108) @ 9395000: uvm_test_top.env.scb [axi4_scoreboard] Slave AXI4_READ received: ID=0x7 ADDR=0x8540b39f LEN=231
# UVM_INFO ../src/mst/axi4_master_monitor.sv(314) @ 9395000: uvm_test_top.env.master_agent.mon [axi4_master_monitor] Read complete: ID=0x7 ADDR=0x8540b39f 232 beats
# UVM_INFO ../src/env/axi4_scoreboard.sv(87) @ 9395000: uvm_test_top.env.scb [axi4_scoreboard] Master AXI4_READ received: ID=0x7 ADDR=0x8540b39f LEN=231
# UVM_INFO ../src/env/axi4_scoreboard.sv(291) @ 9395000: uvm_test_top.env.scb [axi4_scoreboard] [READ] MATCH #5: ID=0x7 ADDR=0x8540b39f LEN=231
# UVM_INFO ../src/seq/axi4_outstanding_seq.sv(123) @ 9395000: uvm_test_top.env.master_agent.sqr@@outstanding_seq [axi4_outstanding_seq] Outstanding Read [#0] complete: ID=0x7
# UVM_INFO ../src/seq/axi4_outstanding_seq.sv(113) @ 9395000: uvm_test_top.env.master_agent.sqr@@outstanding_seq [axi4_outstanding_seq] Outstanding Read [#6] started: ID=0x8 ADDR=0x6a5cd731 LEN=31
# UVM_INFO ../src/mst/axi4_master_driver.sv(73) @ 9395000: uvm_test_top.env.master_agent.drv [axi4_master_driver] Driving AXI4_READ  ID=0x8  ADDR=0x6a5cd731  LEN=31
# UVM_INFO ../src/slv/axi4_slave_driver.sv(358) @ 9425000: uvm_test_top.env.slave_agent.drv [axi4_slave_driver] AR received: ID=0x8 ADDR=0x6a5cd731 LEN=31 LOCK=AXI4_LOCK_EXCLUSIVE
# UVM_INFO ../src/mst/axi4_master_monitor.sv(246) @ 9425000: uvm_test_top.env.master_agent.mon [axi4_master_monitor] AR observed: ID=0x8 ADDR=0x6a5cd731 LEN=31
# UVM_INFO ../src/slv/axi4_slave_monitor.sv(224) @ 9425000: uvm_test_top.env.slave_agent.mon [axi4_slave_monitor] AR received: ID=0x8 ADDR=0x6a5cd731 LEN=31
# UVM_INFO ../src/mst/axi4_master_monitor.sv(184) @ 9745000: uvm_test_top.env.master_agent.mon [axi4_master_monitor] W data assembled: ID=0xd ADDR=0x7db60877 170 beats
# UVM_INFO ../src/slv/axi4_slave_monitor.sv(167) @ 9745000: uvm_test_top.env.slave_agent.mon [axi4_slave_monitor] W data assembled: ID=0xd ADDR=0x7db60877 170 beats
# UVM_INFO ../src/mst/axi4_master_driver.sv(289) @ 9775000: uvm_test_top.env.master_agent.drv [axi4_master_driver] Master driver received B response: ID=0xd RESP=AXI4_RESP_OKAY
# UVM_INFO ../src/slv/axi4_slave_driver.sv(320) @ 9775000: uvm_test_top.env.slave_agent.drv [axi4_slave_driver] Write complete: ID=0xd RESP=AXI4_RESP_OKAY
# UVM_INFO ../src/slv/axi4_slave_monitor.sv(189) @ 9775000: uvm_test_top.env.slave_agent.mon [axi4_slave_monitor] Write response sent: ID=0xd ADDR=0x7db60877 RESP=AXI4_RESP_OKAY
# UVM_INFO ../src/env/axi4_scoreboard.sv(108) @ 9775000: uvm_test_top.env.scb [axi4_scoreboard] Slave AXI4_WRITE received: ID=0xd ADDR=0x7db60877 LEN=169
# UVM_INFO ../src/mst/axi4_master_monitor.sv(210) @ 9775000: uvm_test_top.env.master_agent.mon [axi4_master_monitor] Write complete: ID=0xd ADDR=0x7db60877 RESP=AXI4_RESP_OKAY
# UVM_INFO ../src/env/axi4_scoreboard.sv(87) @ 9775000: uvm_test_top.env.scb [axi4_scoreboard] Master AXI4_WRITE received: ID=0xd ADDR=0x7db60877 LEN=169
# UVM_INFO ../src/env/axi4_scoreboard.sv(291) @ 9775000: uvm_test_top.env.scb [axi4_scoreboard] [WRITE] MATCH #6: ID=0xd ADDR=0x7db60877 LEN=169
# UVM_INFO ../src/env/axi4_scoreboard.sv(226) @ 9775000: uvm_test_top.env.scb [axi4_scoreboard] [REF_MEM_WRITE_IGNORED] Write ignored for ADDR=0x7db60877 LOCK=AXI4_LOCK_EXCLUSIVE RESP=AXI4_RESP_OKAY
# UVM_INFO ../src/seq/axi4_outstanding_seq.sv(84) @ 9775000: uvm_test_top.env.master_agent.sqr@@outstanding_seq [axi4_outstanding_seq] Outstanding Write [#1] complete: ID=0xd
# UVM_INFO ../src/seq/axi4_outstanding_seq.sv(74) @ 9775000: uvm_test_top.env.master_agent.sqr@@outstanding_seq [axi4_outstanding_seq] Outstanding Write [#6] started: ID=0x5 ADDR=0xc6c3c046 LEN=154
# UVM_INFO ../src/mst/axi4_master_driver.sv(73) @ 9775000: uvm_test_top.env.master_agent.drv [axi4_master_driver] Driving AXI4_WRITE  ID=0x5  ADDR=0xc6c3c046  LEN=154
# UVM_INFO ../src/slv/axi4_slave_driver.sv(212) @ 9805000: uvm_test_top.env.slave_agent.drv [axi4_slave_driver] AW received: ID=0x5 ADDR=0xc6c3c046 LEN=154 LOCK=AXI4_LOCK_NORMAL
# UVM_INFO ../src/mst/axi4_master_monitor.sv(124) @ 9805000: uvm_test_top.env.master_agent.mon [axi4_master_monitor] AW observed: ID=0x5 ADDR=0xc6c3c046 LEN=154
# UVM_INFO ../src/slv/axi4_slave_monitor.sv(116) @ 9805000: uvm_test_top.env.slave_agent.mon [axi4_slave_monitor] AW received: ID=0x5 ADDR=0xc6c3c046 LEN=154
# UVM_INFO ../src/mst/axi4_master_driver.sv(348) @ 10295000: uvm_test_top.env.master_agent.drv [axi4_master_driver] Master driver received all R beats for ID=0x6
# UVM_INFO ../src/slv/axi4_slave_driver.sv(464) @ 10295000: uvm_test_top.env.slave_agent.drv [axi4_slave_driver] Read complete: ID=0x6 ADDR=0x50cb592b RESP=AXI4_RESP_EXOKAY  45 beats sent
# UVM_INFO ../src/slv/axi4_slave_monitor.sv(287) @ 10295000: uvm_test_top.env.slave_agent.mon [axi4_slave_monitor] Read data sent: ID=0x6 ADDR=0x50cb592b 45 beats
# UVM_INFO ../src/env/axi4_scoreboard.sv(108) @ 10295000: uvm_test_top.env.scb [axi4_scoreboard] Slave AXI4_READ received: ID=0x6 ADDR=0x50cb592b LEN=44
# UVM_INFO ../src/mst/axi4_master_monitor.sv(314) @ 10295000: uvm_test_top.env.master_agent.mon [axi4_master_monitor] Read complete: ID=0x6 ADDR=0x50cb592b 45 beats
# UVM_INFO ../src/env/axi4_scoreboard.sv(87) @ 10295000: uvm_test_top.env.scb [axi4_scoreboard] Master AXI4_READ received: ID=0x6 ADDR=0x50cb592b LEN=44
# UVM_INFO ../src/env/axi4_scoreboard.sv(291) @ 10295000: uvm_test_top.env.scb [axi4_scoreboard] [READ] MATCH #7: ID=0x6 ADDR=0x50cb592b LEN=44
# UVM_INFO ../src/seq/axi4_outstanding_seq.sv(123) @ 10295000: uvm_test_top.env.master_agent.sqr@@outstanding_seq [axi4_outstanding_seq] Outstanding Read [#1] complete: ID=0x6
# UVM_INFO ../src/seq/axi4_outstanding_seq.sv(113) @ 10295000: uvm_test_top.env.master_agent.sqr@@outstanding_seq [axi4_outstanding_seq] Outstanding Read [#7] started: ID=0x5 ADDR=0x956ca074 LEN=7
# UVM_INFO ../src/mst/axi4_master_driver.sv(73) @ 10295000: uvm_test_top.env.master_agent.drv [axi4_master_driver] Driving AXI4_READ  ID=0x5  ADDR=0x956ca074  LEN=7
# UVM_INFO ../src/slv/axi4_slave_driver.sv(358) @ 10325000: uvm_test_top.env.slave_agent.drv [axi4_slave_driver] AR received: ID=0x5 ADDR=0x956ca074 LEN=7 LOCK=AXI4_LOCK_NORMAL
# UVM_INFO ../src/mst/axi4_master_monitor.sv(246) @ 10325000: uvm_test_top.env.master_agent.mon [axi4_master_monitor] AR observed: ID=0x5 ADDR=0x956ca074 LEN=7
# UVM_INFO ../src/slv/axi4_slave_monitor.sv(224) @ 10325000: uvm_test_top.env.slave_agent.mon [axi4_slave_monitor] AR received: ID=0x5 ADDR=0x956ca074 LEN=7
# UVM_INFO ../src/mst/axi4_master_driver.sv(348) @ 11615000: uvm_test_top.env.master_agent.drv [axi4_master_driver] Master driver received all R beats for ID=0xc
# UVM_INFO ../src/slv/axi4_slave_driver.sv(464) @ 11615000: uvm_test_top.env.slave_agent.drv [axi4_slave_driver] Read complete: ID=0xc ADDR=0x8e7c636c RESP=AXI4_RESP_EXOKAY  66 beats sent
# UVM_INFO ../src/slv/axi4_slave_monitor.sv(287) @ 11615000: uvm_test_top.env.slave_agent.mon [axi4_slave_monitor] Read data sent: ID=0xc ADDR=0x8e7c636c 66 beats
# UVM_INFO ../src/env/axi4_scoreboard.sv(108) @ 11615000: uvm_test_top.env.scb [axi4_scoreboard] Slave AXI4_READ received: ID=0xc ADDR=0x8e7c636c LEN=65
# UVM_INFO ../src/mst/axi4_master_monitor.sv(314) @ 11615000: uvm_test_top.env.master_agent.mon [axi4_master_monitor] Read complete: ID=0xc ADDR=0x8e7c636c 66 beats
# UVM_INFO ../src/env/axi4_scoreboard.sv(87) @ 11615000: uvm_test_top.env.scb [axi4_scoreboard] Master AXI4_READ received: ID=0xc ADDR=0x8e7c636c LEN=65
# UVM_INFO ../src/env/axi4_scoreboard.sv(291) @ 11615000: uvm_test_top.env.scb [axi4_scoreboard] [READ] MATCH #8: ID=0xc ADDR=0x8e7c636c LEN=65
# UVM_INFO ../src/seq/axi4_outstanding_seq.sv(123) @ 11615000: uvm_test_top.env.master_agent.sqr@@outstanding_seq [axi4_outstanding_seq] Outstanding Read [#4] complete: ID=0xc
# UVM_INFO ../src/seq/axi4_outstanding_seq.sv(113) @ 11615000: uvm_test_top.env.master_agent.sqr@@outstanding_seq [axi4_outstanding_seq] Outstanding Read [#8] started: ID=0x9 ADDR=0xcf0ae92c LEN=25
# UVM_INFO ../src/mst/axi4_master_driver.sv(73) @ 11615000: uvm_test_top.env.master_agent.drv [axi4_master_driver] Driving AXI4_READ  ID=0x9  ADDR=0xcf0ae92c  LEN=25
# UVM_INFO ../src/slv/axi4_slave_driver.sv(358) @ 11645000: uvm_test_top.env.slave_agent.drv [axi4_slave_driver] AR received: ID=0x9 ADDR=0xcf0ae92c LEN=25 LOCK=AXI4_LOCK_NORMAL
# UVM_INFO ../src/mst/axi4_master_monitor.sv(246) @ 11645000: uvm_test_top.env.master_agent.mon [axi4_master_monitor] AR observed: ID=0x9 ADDR=0xcf0ae92c LEN=25
# UVM_INFO ../src/slv/axi4_slave_monitor.sv(224) @ 11645000: uvm_test_top.env.slave_agent.mon [axi4_slave_monitor] AR received: ID=0x9 ADDR=0xcf0ae92c LEN=25
# UVM_INFO ../src/mst/axi4_master_driver.sv(348) @ 12835000: uvm_test_top.env.master_agent.drv [axi4_master_driver] Master driver received all R beats for ID=0x1
# UVM_INFO ../src/slv/axi4_slave_driver.sv(464) @ 12835000: uvm_test_top.env.slave_agent.drv [axi4_slave_driver] Read complete: ID=0x1 ADDR=0x06be696f RESP=AXI4_RESP_EXOKAY  61 beats sent
# UVM_INFO ../src/slv/axi4_slave_monitor.sv(287) @ 12835000: uvm_test_top.env.slave_agent.mon [axi4_slave_monitor] Read data sent: ID=0x1 ADDR=0x06be696f 61 beats
# UVM_INFO ../src/env/axi4_scoreboard.sv(108) @ 12835000: uvm_test_top.env.scb [axi4_scoreboard] Slave AXI4_READ received: ID=0x1 ADDR=0x06be696f LEN=60
# UVM_INFO ../src/mst/axi4_master_monitor.sv(314) @ 12835000: uvm_test_top.env.master_agent.mon [axi4_master_monitor] Read complete: ID=0x1 ADDR=0x06be696f 61 beats
# UVM_INFO ../src/env/axi4_scoreboard.sv(87) @ 12835000: uvm_test_top.env.scb [axi4_scoreboard] Master AXI4_READ received: ID=0x1 ADDR=0x06be696f LEN=60
# UVM_INFO ../src/env/axi4_scoreboard.sv(291) @ 12835000: uvm_test_top.env.scb [axi4_scoreboard] [READ] MATCH #9: ID=0x1 ADDR=0x06be696f LEN=60
# UVM_INFO ../src/seq/axi4_outstanding_seq.sv(123) @ 12835000: uvm_test_top.env.master_agent.sqr@@outstanding_seq [axi4_outstanding_seq] Outstanding Read [#5] complete: ID=0x1
# UVM_INFO ../src/seq/axi4_outstanding_seq.sv(113) @ 12835000: uvm_test_top.env.master_agent.sqr@@outstanding_seq [axi4_outstanding_seq] Outstanding Read [#9] started: ID=0xd ADDR=0x472c48d5 LEN=116
# UVM_INFO ../src/mst/axi4_master_driver.sv(73) @ 12835000: uvm_test_top.env.master_agent.drv [axi4_master_driver] Driving AXI4_READ  ID=0xd  ADDR=0x472c48d5  LEN=116
# UVM_INFO ../src/slv/axi4_slave_driver.sv(358) @ 12865000: uvm_test_top.env.slave_agent.drv [axi4_slave_driver] AR received: ID=0xd ADDR=0x472c48d5 LEN=116 LOCK=AXI4_LOCK_NORMAL
# UVM_INFO ../src/mst/axi4_master_monitor.sv(246) @ 12865000: uvm_test_top.env.master_agent.mon [axi4_master_monitor] AR observed: ID=0xd ADDR=0x472c48d5 LEN=116
# UVM_INFO ../src/slv/axi4_slave_monitor.sv(224) @ 12865000: uvm_test_top.env.slave_agent.mon [axi4_slave_monitor] AR received: ID=0xd ADDR=0x472c48d5 LEN=116
# UVM_INFO ../src/mst/axi4_master_driver.sv(348) @ 13475000: uvm_test_top.env.master_agent.drv [axi4_master_driver] Master driver received all R beats for ID=0x8
# UVM_INFO ../src/slv/axi4_slave_driver.sv(464) @ 13475000: uvm_test_top.env.slave_agent.drv [axi4_slave_driver] Read complete: ID=0x8 ADDR=0x6a5cd731 RESP=AXI4_RESP_EXOKAY  32 beats sent
# UVM_INFO ../src/slv/axi4_slave_monitor.sv(287) @ 13475000: uvm_test_top.env.slave_agent.mon [axi4_slave_monitor] Read data sent: ID=0x8 ADDR=0x6a5cd731 32 beats
# UVM_INFO ../src/env/axi4_scoreboard.sv(108) @ 13475000: uvm_test_top.env.scb [axi4_scoreboard] Slave AXI4_READ received: ID=0x8 ADDR=0x6a5cd731 LEN=31
# UVM_INFO ../src/mst/axi4_master_monitor.sv(314) @ 13475000: uvm_test_top.env.master_agent.mon [axi4_master_monitor] Read complete: ID=0x8 ADDR=0x6a5cd731 32 beats
# UVM_INFO ../src/env/axi4_scoreboard.sv(87) @ 13475000: uvm_test_top.env.scb [axi4_scoreboard] Master AXI4_READ received: ID=0x8 ADDR=0x6a5cd731 LEN=31
# UVM_INFO ../src/env/axi4_scoreboard.sv(291) @ 13475000: uvm_test_top.env.scb [axi4_scoreboard] [READ] MATCH #10: ID=0x8 ADDR=0x6a5cd731 LEN=31
# UVM_INFO ../src/seq/axi4_outstanding_seq.sv(123) @ 13475000: uvm_test_top.env.master_agent.sqr@@outstanding_seq [axi4_outstanding_seq] Outstanding Read [#6] complete: ID=0x8
# UVM_INFO ../src/seq/axi4_outstanding_seq.sv(113) @ 13475000: uvm_test_top.env.master_agent.sqr@@outstanding_seq [axi4_outstanding_seq] Outstanding Read [#10] started: ID=0x1 ADDR=0xd114e40e LEN=40
# UVM_INFO ../src/mst/axi4_master_driver.sv(73) @ 13475000: uvm_test_top.env.master_agent.drv [axi4_master_driver] Driving AXI4_READ  ID=0x1  ADDR=0xd114e40e  LEN=40
# UVM_INFO ../src/slv/axi4_slave_driver.sv(358) @ 13505000: uvm_test_top.env.slave_agent.drv [axi4_slave_driver] AR received: ID=0x1 ADDR=0xd114e40e LEN=40 LOCK=AXI4_LOCK_NORMAL
# UVM_INFO ../src/mst/axi4_master_monitor.sv(246) @ 13505000: uvm_test_top.env.master_agent.mon [axi4_master_monitor] AR observed: ID=0x1 ADDR=0xd114e40e LEN=40
# UVM_INFO ../src/slv/axi4_slave_monitor.sv(224) @ 13505000: uvm_test_top.env.slave_agent.mon [axi4_slave_monitor] AR received: ID=0x1 ADDR=0xd114e40e LEN=40
# UVM_INFO ../src/mst/axi4_master_driver.sv(348) @ 13635000: uvm_test_top.env.master_agent.drv [axi4_master_driver] Master driver received all R beats for ID=0x5
# UVM_INFO ../src/slv/axi4_slave_driver.sv(464) @ 13635000: uvm_test_top.env.slave_agent.drv [axi4_slave_driver] Read complete: ID=0x5 ADDR=0x956ca074 RESP=AXI4_RESP_OKAY  8 beats sent
# UVM_INFO ../src/slv/axi4_slave_monitor.sv(287) @ 13635000: uvm_test_top.env.slave_agent.mon [axi4_slave_monitor] Read data sent: ID=0x5 ADDR=0x956ca074 8 beats
# UVM_INFO ../src/env/axi4_scoreboard.sv(108) @ 13635000: uvm_test_top.env.scb [axi4_scoreboard] Slave AXI4_READ received: ID=0x5 ADDR=0x956ca074 LEN=7
# UVM_INFO ../src/mst/axi4_master_monitor.sv(314) @ 13635000: uvm_test_top.env.master_agent.mon [axi4_master_monitor] Read complete: ID=0x5 ADDR=0x956ca074 8 beats
# UVM_INFO ../src/env/axi4_scoreboard.sv(87) @ 13635000: uvm_test_top.env.scb [axi4_scoreboard] Master AXI4_READ received: ID=0x5 ADDR=0x956ca074 LEN=7
# UVM_INFO ../src/env/axi4_scoreboard.sv(291) @ 13635000: uvm_test_top.env.scb [axi4_scoreboard] [READ] MATCH #11: ID=0x5 ADDR=0x956ca074 LEN=7
# UVM_INFO ../src/seq/axi4_outstanding_seq.sv(123) @ 13635000: uvm_test_top.env.master_agent.sqr@@outstanding_seq [axi4_outstanding_seq] Outstanding Read [#7] complete: ID=0x5
# UVM_INFO ../src/seq/axi4_outstanding_seq.sv(113) @ 13635000: uvm_test_top.env.master_agent.sqr@@outstanding_seq [axi4_outstanding_seq] Outstanding Read [#11] started: ID=0x8 ADDR=0xacd0f370 LEN=205
# UVM_INFO ../src/mst/axi4_master_driver.sv(73) @ 13635000: uvm_test_top.env.master_agent.drv [axi4_master_driver] Driving AXI4_READ  ID=0x8  ADDR=0xacd0f370  LEN=205
# UVM_INFO ../src/slv/axi4_slave_driver.sv(358) @ 13665000: uvm_test_top.env.slave_agent.drv [axi4_slave_driver] AR received: ID=0x8 ADDR=0xacd0f370 LEN=205 LOCK=AXI4_LOCK_NORMAL
# UVM_INFO ../src/mst/axi4_master_monitor.sv(246) @ 13665000: uvm_test_top.env.master_agent.mon [axi4_master_monitor] AR observed: ID=0x8 ADDR=0xacd0f370 LEN=205
# UVM_INFO ../src/slv/axi4_slave_monitor.sv(224) @ 13665000: uvm_test_top.env.slave_agent.mon [axi4_slave_monitor] AR received: ID=0x8 ADDR=0xacd0f370 LEN=205
# UVM_INFO ../src/mst/axi4_master_monitor.sv(184) @ 14065000: uvm_test_top.env.master_agent.mon [axi4_master_monitor] W data assembled: ID=0x4 ADDR=0x7591e83a 216 beats
# UVM_INFO ../src/slv/axi4_slave_monitor.sv(167) @ 14065000: uvm_test_top.env.slave_agent.mon [axi4_slave_monitor] W data assembled: ID=0x4 ADDR=0x7591e83a 216 beats
# UVM_INFO ../src/mst/axi4_master_driver.sv(289) @ 14095000: uvm_test_top.env.master_agent.drv [axi4_master_driver] Master driver received B response: ID=0x4 RESP=AXI4_RESP_OKAY
# UVM_INFO ../src/slv/axi4_slave_driver.sv(320) @ 14095000: uvm_test_top.env.slave_agent.drv [axi4_slave_driver] Write complete: ID=0x4 RESP=AXI4_RESP_OKAY
# UVM_INFO ../src/slv/axi4_slave_monitor.sv(189) @ 14095000: uvm_test_top.env.slave_agent.mon [axi4_slave_monitor] Write response sent: ID=0x4 ADDR=0x7591e83a RESP=AXI4_RESP_OKAY
# UVM_INFO ../src/env/axi4_scoreboard.sv(108) @ 14095000: uvm_test_top.env.scb [axi4_scoreboard] Slave AXI4_WRITE received: ID=0x4 ADDR=0x7591e83a LEN=215
# UVM_INFO ../src/mst/axi4_master_monitor.sv(210) @ 14095000: uvm_test_top.env.master_agent.mon [axi4_master_monitor] Write complete: ID=0x4 ADDR=0x7591e83a RESP=AXI4_RESP_OKAY
# UVM_INFO ../src/env/axi4_scoreboard.sv(87) @ 14095000: uvm_test_top.env.scb [axi4_scoreboard] Master AXI4_WRITE received: ID=0x4 ADDR=0x7591e83a LEN=215
# UVM_INFO ../src/env/axi4_scoreboard.sv(291) @ 14095000: uvm_test_top.env.scb [axi4_scoreboard] [WRITE] MATCH #12: ID=0x4 ADDR=0x7591e83a LEN=215
# UVM_INFO ../src/env/axi4_scoreboard.sv(226) @ 14095000: uvm_test_top.env.scb [axi4_scoreboard] [REF_MEM_WRITE_IGNORED] Write ignored for ADDR=0x7591e83a LOCK=AXI4_LOCK_EXCLUSIVE RESP=AXI4_RESP_OKAY
# UVM_INFO ../src/seq/axi4_outstanding_seq.sv(84) @ 14095000: uvm_test_top.env.master_agent.sqr@@outstanding_seq [axi4_outstanding_seq] Outstanding Write [#0] complete: ID=0x4
# UVM_INFO ../src/seq/axi4_outstanding_seq.sv(74) @ 14095000: uvm_test_top.env.master_agent.sqr@@outstanding_seq [axi4_outstanding_seq] Outstanding Write [#7] started: ID=0x5 ADDR=0x1cc55502 LEN=150
# UVM_INFO ../src/mst/axi4_master_driver.sv(73) @ 14095000: uvm_test_top.env.master_agent.drv [axi4_master_driver] Driving AXI4_WRITE  ID=0x5  ADDR=0x1cc55502  LEN=150
# UVM_INFO ../src/slv/axi4_slave_driver.sv(212) @ 14125000: uvm_test_top.env.slave_agent.drv [axi4_slave_driver] AW received: ID=0x5 ADDR=0x1cc55502 LEN=150 LOCK=AXI4_LOCK_NORMAL
# UVM_INFO ../src/mst/axi4_master_monitor.sv(124) @ 14125000: uvm_test_top.env.master_agent.mon [axi4_master_monitor] AW observed: ID=0x5 ADDR=0x1cc55502 LEN=150
# UVM_INFO ../src/slv/axi4_slave_monitor.sv(116) @ 14125000: uvm_test_top.env.slave_agent.mon [axi4_slave_monitor] AW received: ID=0x5 ADDR=0x1cc55502 LEN=150
# UVM_INFO ../src/mst/axi4_master_driver.sv(348) @ 14155000: uvm_test_top.env.master_agent.drv [axi4_master_driver] Master driver received all R beats for ID=0x9
# UVM_INFO ../src/slv/axi4_slave_driver.sv(464) @ 14155000: uvm_test_top.env.slave_agent.drv [axi4_slave_driver] Read complete: ID=0x9 ADDR=0xcf0ae92c RESP=AXI4_RESP_OKAY  26 beats sent
# UVM_INFO ../src/slv/axi4_slave_monitor.sv(287) @ 14155000: uvm_test_top.env.slave_agent.mon [axi4_slave_monitor] Read data sent: ID=0x9 ADDR=0xcf0ae92c 26 beats
# UVM_INFO ../src/env/axi4_scoreboard.sv(108) @ 14155000: uvm_test_top.env.scb [axi4_scoreboard] Slave AXI4_READ received: ID=0x9 ADDR=0xcf0ae92c LEN=25
# UVM_INFO ../src/mst/axi4_master_monitor.sv(314) @ 14155000: uvm_test_top.env.master_agent.mon [axi4_master_monitor] Read complete: ID=0x9 ADDR=0xcf0ae92c 26 beats
# UVM_INFO ../src/env/axi4_scoreboard.sv(87) @ 14155000: uvm_test_top.env.scb [axi4_scoreboard] Master AXI4_READ received: ID=0x9 ADDR=0xcf0ae92c LEN=25
# UVM_INFO ../src/env/axi4_scoreboard.sv(291) @ 14155000: uvm_test_top.env.scb [axi4_scoreboard] [READ] MATCH #13: ID=0x9 ADDR=0xcf0ae92c LEN=25
# UVM_INFO ../src/seq/axi4_outstanding_seq.sv(123) @ 14155000: uvm_test_top.env.master_agent.sqr@@outstanding_seq [axi4_outstanding_seq] Outstanding Read [#8] complete: ID=0x9
# UVM_INFO ../src/seq/axi4_outstanding_seq.sv(113) @ 14155000: uvm_test_top.env.master_agent.sqr@@outstanding_seq [axi4_outstanding_seq] Outstanding Read [#12] started: ID=0xa ADDR=0x5d67d3d5 LEN=162
# UVM_INFO ../src/mst/axi4_master_driver.sv(73) @ 14155000: uvm_test_top.env.master_agent.drv [axi4_master_driver] Driving AXI4_READ  ID=0xa  ADDR=0x5d67d3d5  LEN=162
# UVM_INFO ../src/slv/axi4_slave_driver.sv(358) @ 14185000: uvm_test_top.env.slave_agent.drv [axi4_slave_driver] AR received: ID=0xa ADDR=0x5d67d3d5 LEN=162 LOCK=AXI4_LOCK_NORMAL
# UVM_INFO ../src/mst/axi4_master_monitor.sv(246) @ 14185000: uvm_test_top.env.master_agent.mon [axi4_master_monitor] AR observed: ID=0xa ADDR=0x5d67d3d5 LEN=162
# UVM_INFO ../src/slv/axi4_slave_monitor.sv(224) @ 14185000: uvm_test_top.env.slave_agent.mon [axi4_slave_monitor] AR received: ID=0xa ADDR=0x5d67d3d5 LEN=162
# UVM_INFO ../src/mst/axi4_master_monitor.sv(184) @ 15485000: uvm_test_top.env.master_agent.mon [axi4_master_monitor] W data assembled: ID=0x8 ADDR=0x31598bf8 71 beats
# UVM_INFO ../src/slv/axi4_slave_monitor.sv(167) @ 15485000: uvm_test_top.env.slave_agent.mon [axi4_slave_monitor] W data assembled: ID=0x8 ADDR=0x31598bf8 71 beats
# UVM_INFO ../src/mst/axi4_master_driver.sv(289) @ 15515000: uvm_test_top.env.master_agent.drv [axi4_master_driver] Master driver received B response: ID=0x8 RESP=AXI4_RESP_OKAY
# UVM_INFO ../src/slv/axi4_slave_driver.sv(320) @ 15515000: uvm_test_top.env.slave_agent.drv [axi4_slave_driver] Write complete: ID=0x8 RESP=AXI4_RESP_OKAY
# UVM_INFO ../src/slv/axi4_slave_monitor.sv(189) @ 15515000: uvm_test_top.env.slave_agent.mon [axi4_slave_monitor] Write response sent: ID=0x8 ADDR=0x31598bf8 RESP=AXI4_RESP_OKAY
# UVM_INFO ../src/env/axi4_scoreboard.sv(108) @ 15515000: uvm_test_top.env.scb [axi4_scoreboard] Slave AXI4_WRITE received: ID=0x8 ADDR=0x31598bf8 LEN=70
# UVM_INFO ../src/mst/axi4_master_monitor.sv(210) @ 15515000: uvm_test_top.env.master_agent.mon [axi4_master_monitor] Write complete: ID=0x8 ADDR=0x31598bf8 RESP=AXI4_RESP_OKAY
# UVM_INFO ../src/env/axi4_scoreboard.sv(87) @ 15515000: uvm_test_top.env.scb [axi4_scoreboard] Master AXI4_WRITE received: ID=0x8 ADDR=0x31598bf8 LEN=70
# UVM_INFO ../src/env/axi4_scoreboard.sv(291) @ 15515000: uvm_test_top.env.scb [axi4_scoreboard] [WRITE] MATCH #14: ID=0x8 ADDR=0x31598bf8 LEN=70
# UVM_INFO ../src/env/axi4_scoreboard.sv(219) @ 15515000: uvm_test_top.env.scb [axi4_scoreboard] [REF_MEM_WRITE] Addr=0x31598bf8 Data=0xca
# UVM_INFO ../src/env/axi4_scoreboard.sv(219) @ 15515000: uvm_test_top.env.scb [axi4_scoreboard] [REF_MEM_WRITE] Addr=0x31598bf9 Data=0xb6
# UVM_INFO ../src/env/axi4_scoreboard.sv(219) @ 15515000: uvm_test_top.env.scb [axi4_scoreboard] [REF_MEM_WRITE] Addr=0x31598bfa Data=0xeb
# UVM_INFO ../src/env/axi4_scoreboard.sv(219) @ 15515000: uvm_test_top.env.scb [axi4_scoreboard] [REF_MEM_WRITE] Addr=0x31598bfb Data=0xe0
# UVM_INFO ../src/env/axi4_scoreboard.sv(219) @ 15515000: uvm_test_top.env.scb [axi4_scoreboard] [REF_MEM_WRITE] Addr=0x31598bf9 Data=0x79
# UVM_INFO ../src/env/axi4_scoreboard.sv(219) @ 15515000: uvm_test_top.env.scb [axi4_scoreboard] [REF_MEM_WRITE] Addr=0x31598bfa Data=0x82
# UVM_INFO ../src/env/axi4_scoreboard.sv(219) @ 15515000: uvm_test_top.env.scb [axi4_scoreboard] [REF_MEM_WRITE] Addr=0x31598bfb Data=0x8c
# UVM_INFO ../src/env/axi4_scoreboard.sv(219) @ 15515000: uvm_test_top.env.scb [axi4_scoreboard] [REF_MEM_WRITE] Addr=0x31598bfd Data=0x72
# UVM_INFO ../src/env/axi4_scoreboard.sv(219) @ 15515000: uvm_test_top.env.scb [axi4_scoreboard] [REF_MEM_WRITE] Addr=0x31598bfe Data=0x70
# UVM_INFO ../src/env/axi4_scoreboard.sv(219) @ 15515000: uvm_test_top.env.scb [axi4_scoreboard] [REF_MEM_WRITE] Addr=0x31598bfc Data=0x93
# UVM_INFO ../src/env/axi4_scoreboard.sv(219) @ 15515000: uvm_test_top.env.scb [axi4_scoreboard] [REF_MEM_WRITE] Addr=0x31598bfd Data=0x17
# UVM_INFO ../src/env/axi4_scoreboard.sv(219) @ 15515000: uvm_test_top.env.scb [axi4_scoreboard] [REF_MEM_WRITE] Addr=0x31598bfe Data=0x2d
# UVM_INFO ../src/env/axi4_scoreboard.sv(219) @ 15515000: uvm_test_top.env.scb [axi4_scoreboard] [REF_MEM_WRITE] Addr=0x31598bff Data=0x41
# UVM_INFO ../src/env/axi4_scoreboard.sv(219) @ 15515000: uvm_test_top.env.scb [axi4_scoreboard] [REF_MEM_WRITE] Addr=0x31598bff Data=0xc6
# UVM_INFO ../src/env/axi4_scoreboard.sv(219) @ 15515000: uvm_test_top.env.scb [axi4_scoreboard] [REF_MEM_WRITE] Addr=0x31598bfc Data=0x66
# UVM_INFO ../src/env/axi4_scoreboard.sv(219) @ 15515000: uvm_test_top.env.scb [axi4_scoreboard] [REF_MEM_WRITE] Addr=0x31598bfd Data=0x96
# UVM_INFO ../src/env/axi4_scoreboard.sv(219) @ 15515000: uvm_test_top.env.scb [axi4_scoreboard] [REF_MEM_WRITE] Addr=0x31598c01 Data=0xac
# UVM_INFO ../src/env/axi4_scoreboard.sv(219) @ 15515000: uvm_test_top.env.scb [axi4_scoreboard] [REF_MEM_WRITE] Addr=0x31598c03 Data=0xf2
# UVM_INFO ../src/env/axi4_scoreboard.sv(219) @ 15515000: uvm_test_top.env.scb [axi4_scoreboard] [REF_MEM_WRITE] Addr=0x31598c01 Data=0x13
# UVM_INFO ../src/env/axi4_scoreboard.sv(219) @ 15515000: uvm_test_top.env.scb [axi4_scoreboard] [REF_MEM_WRITE] Addr=0x31598c02 Data=0xa1
# UVM_INFO ../src/env/axi4_scoreboard.sv(219) @ 15515000: uvm_test_top.env.scb [axi4_scoreboard] [REF_MEM_WRITE] Addr=0x31598c01 Data=0xb4
# UVM_INFO ../src/env/axi4_scoreboard.sv(219) @ 15515000: uvm_test_top.env.scb [axi4_scoreboard] [REF_MEM_WRITE] Addr=0x31598c03 Data=0x11
# UVM_INFO ../src/env/axi4_scoreboard.sv(219) @ 15515000: uvm_test_top.env.scb [axi4_scoreboard] [REF_MEM_WRITE] Addr=0x31598c04 Data=0x99
# UVM_INFO ../src/env/axi4_scoreboard.sv(219) @ 15515000: uvm_test_top.env.scb [axi4_scoreboard] [REF_MEM_WRITE] Addr=0x31598c06 Data=0x6e
# UVM_INFO ../src/env/axi4_scoreboard.sv(219) @ 15515000: uvm_test_top.env.scb [axi4_scoreboard] [REF_MEM_WRITE] Addr=0x31598c04 Data=0x81
# UVM_INFO ../src/env/axi4_scoreboard.sv(219) @ 15515000: uvm_test_top.env.scb [axi4_scoreboard] [REF_MEM_WRITE] Addr=0x31598c05 Data=0x39
# UVM_INFO ../src/env/axi4_scoreboard.sv(219) @ 15515000: uvm_test_top.env.scb [axi4_scoreboard] [REF_MEM_WRITE] Addr=0x31598c05 Data=0xe9
# UVM_INFO ../src/env/axi4_scoreboard.sv(219) @ 15515000: uvm_test_top.env.scb [axi4_scoreboard] [REF_MEM_WRITE] Addr=0x31598c08 Data=0x7b
# UVM_INFO ../src/env/axi4_scoreboard.sv(219) @ 15515000: uvm_test_top.env.scb [axi4_scoreboard] [REF_MEM_WRITE] Addr=0x31598c0b Data=0x05
# UVM_INFO ../src/env/axi4_scoreboard.sv(219) @ 15515000: uvm_test_top.env.scb [axi4_scoreboard] [REF_MEM_WRITE] Addr=0x31598c08 Data=0x00
# UVM_INFO ../src/env/axi4_scoreboard.sv(219) @ 15515000: uvm_test_top.env.scb [axi4_scoreboard] [REF_MEM_WRITE] Addr=0x31598c0a Data=0x6b
# UVM_INFO ../src/env/axi4_scoreboard.sv(219) @ 15515000: uvm_test_top.env.scb [axi4_scoreboard] [REF_MEM_WRITE] Addr=0x31598c0b Data=0xa7
# UVM_INFO ../src/env/axi4_scoreboard.sv(219) @ 15515000: uvm_test_top.env.scb [axi4_scoreboard] [REF_MEM_WRITE] Addr=0x31598c0b Data=0x3e
# UVM_INFO ../src/env/axi4_scoreboard.sv(219) @ 15515000: uvm_test_top.env.scb [axi4_scoreboard] [REF_MEM_WRITE] Addr=0x31598c08 Data=0x9d
# UVM_INFO ../src/env/axi4_scoreboard.sv(219) @ 15515000: uvm_test_top.env.scb [axi4_scoreboard] [REF_MEM_WRITE] Addr=0x31598c0a Data=0x1e
# UVM_INFO ../src/env/axi4_scoreboard.sv(219) @ 15515000: uvm_test_top.env.scb [axi4_scoreboard] [REF_MEM_WRITE] Addr=0x31598c0d Data=0x85
# UVM_INFO ../src/env/axi4_scoreboard.sv(219) @ 15515000: uvm_test_top.env.scb [axi4_scoreboard] [REF_MEM_WRITE] Addr=0x31598c0e Data=0xcc
# UVM_INFO ../src/env/axi4_scoreboard.sv(219) @ 15515000: uvm_test_top.env.scb [axi4_scoreboard] [REF_MEM_WRITE] Addr=0x31598c0f Data=0x63
# UVM_INFO ../src/env/axi4_scoreboard.sv(219) @ 15515000: uvm_test_top.env.scb [axi4_scoreboard] [REF_MEM_WRITE] Addr=0x31598c0d Data=0xa6
# UVM_INFO ../src/env/axi4_scoreboard.sv(219) @ 15515000: uvm_test_top.env.scb [axi4_scoreboard] [REF_MEM_WRITE] Addr=0x31598c0f Data=0xc7
# UVM_INFO ../src/env/axi4_scoreboard.sv(219) @ 15515000: uvm_test_top.env.scb [axi4_scoreboard] [REF_MEM_WRITE] Addr=0x31598c0c Data=0x0e
# UVM_INFO ../src/env/axi4_scoreboard.sv(219) @ 15515000: uvm_test_top.env.scb [axi4_scoreboard] [REF_MEM_WRITE] Addr=0x31598c0e Data=0xee
# UVM_INFO ../src/env/axi4_scoreboard.sv(219) @ 15515000: uvm_test_top.env.scb [axi4_scoreboard] [REF_MEM_WRITE] Addr=0x31598c0f Data=0x61
# UVM_INFO ../src/env/axi4_scoreboard.sv(219) @ 15515000: uvm_test_top.env.scb [axi4_scoreboard] [REF_MEM_WRITE] Addr=0x31598c10 Data=0x1c
# UVM_INFO ../src/env/axi4_scoreboard.sv(219) @ 15515000: uvm_test_top.env.scb [axi4_scoreboard] [REF_MEM_WRITE] Addr=0x31598c12 Data=0x62
# UVM_INFO ../src/env/axi4_scoreboard.sv(219) @ 15515000: uvm_test_top.env.scb [axi4_scoreboard] [REF_MEM_WRITE] Addr=0x31598c13 Data=0x78
# UVM_INFO ../src/env/axi4_scoreboard.sv(219) @ 15515000: uvm_test_top.env.scb [axi4_scoreboard] [REF_MEM_WRITE] Addr=0x31598c10 Data=0x72
# UVM_INFO ../src/env/axi4_scoreboard.sv(219) @ 15515000: uvm_test_top.env.scb [axi4_scoreboard] [REF_MEM_WRITE] Addr=0x31598c11 Data=0x37
# UVM_INFO ../src/env/axi4_scoreboard.sv(219) @ 15515000: uvm_test_top.env.scb [axi4_scoreboard] [REF_MEM_WRITE] Addr=0x31598c13 Data=0x6e
# UVM_INFO ../src/env/axi4_scoreboard.sv(219) @ 15515000: uvm_test_top.env.scb [axi4_scoreboard] [REF_MEM_WRITE] Addr=0x31598c10 Data=0x3a
# UVM_INFO ../src/env/axi4_scoreboard.sv(219) @ 15515000: uvm_test_top.env.scb [axi4_scoreboard] [REF_MEM_WRITE] Addr=0x31598c12 Data=0x89
# UVM_INFO ../src/env/axi4_scoreboard.sv(219) @ 15515000: uvm_test_top.env.scb [axi4_scoreboard] [REF_MEM_WRITE] Addr=0x31598c13 Data=0x05
# UVM_INFO ../src/env/axi4_scoreboard.sv(219) @ 15515000: uvm_test_top.env.scb [axi4_scoreboard] [REF_MEM_WRITE] Addr=0x31598c12 Data=0xe9
# UVM_INFO ../src/env/axi4_scoreboard.sv(219) @ 15515000: uvm_test_top.env.scb [axi4_scoreboard] [REF_MEM_WRITE] Addr=0x31598c13 Data=0x10
# UVM_INFO ../src/env/axi4_scoreboard.sv(219) @ 15515000: uvm_test_top.env.scb [axi4_scoreboard] [REF_MEM_WRITE] Addr=0x31598c16 Data=0x72
# UVM_INFO ../src/env/axi4_scoreboard.sv(219) @ 15515000: uvm_test_top.env.scb [axi4_scoreboard] [REF_MEM_WRITE] Addr=0x31598c17 Data=0xf1
# UVM_INFO ../src/env/axi4_scoreboard.sv(219) @ 15515000: uvm_test_top.env.scb [axi4_scoreboard] [REF_MEM_WRITE] Addr=0x31598c15 Data=0x69
# UVM_INFO ../src/env/axi4_scoreboard.sv(219) @ 15515000: uvm_test_top.env.scb [axi4_scoreboard] [REF_MEM_WRITE] Addr=0x31598c15 Data=0xad
# UVM_INFO ../src/env/axi4_scoreboard.sv(219) @ 15515000: uvm_test_top.env.scb [axi4_scoreboard] [REF_MEM_WRITE] Addr=0x31598c16 Data=0x60
# UVM_INFO ../src/env/axi4_scoreboard.sv(219) @ 15515000: uvm_test_top.env.scb [axi4_scoreboard] [REF_MEM_WRITE] Addr=0x31598c19 Data=0x81
# UVM_INFO ../src/env/axi4_scoreboard.sv(219) @ 15515000: uvm_test_top.env.scb [axi4_scoreboard] [REF_MEM_WRITE] Addr=0x31598c1b Data=0x54
# UVM_INFO ../src/env/axi4_scoreboard.sv(219) @ 15515000: uvm_test_top.env.scb [axi4_scoreboard] [REF_MEM_WRITE] Addr=0x31598c19 Data=0xa1
# UVM_INFO ../src/env/axi4_scoreboard.sv(219) @ 15515000: uvm_test_top.env.scb [axi4_scoreboard] [REF_MEM_WRITE] Addr=0x31598c1a Data=0xa4
# UVM_INFO ../src/env/axi4_scoreboard.sv(219) @ 15515000: uvm_test_top.env.scb [axi4_scoreboard] [REF_MEM_WRITE] Addr=0x31598c18 Data=0x64
# UVM_INFO ../src/env/axi4_scoreboard.sv(219) @ 15515000: uvm_test_top.env.scb [axi4_scoreboard] [REF_MEM_WRITE] Addr=0x31598c19 Data=0xe1
# UVM_INFO ../src/env/axi4_scoreboard.sv(219) @ 15515000: uvm_test_top.env.scb [axi4_scoreboard] [REF_MEM_WRITE] Addr=0x31598c18 Data=0x11
# UVM_INFO ../src/env/axi4_scoreboard.sv(219) @ 15515000: uvm_test_top.env.scb [axi4_scoreboard] [REF_MEM_WRITE] Addr=0x31598c19 Data=0x53
# UVM_INFO ../src/env/axi4_scoreboard.sv(219) @ 15515000: uvm_test_top.env.scb [axi4_scoreboard] [REF_MEM_WRITE] Addr=0x31598c1c Data=0x4e
# UVM_INFO ../src/env/axi4_scoreboard.sv(219) @ 15515000: uvm_test_top.env.scb [axi4_scoreboard] [REF_MEM_WRITE] Addr=0x31598c1f Data=0xcd
# UVM_INFO ../src/env/axi4_scoreboard.sv(219) @ 15515000: uvm_test_top.env.scb [axi4_scoreboard] [REF_MEM_WRITE] Addr=0x31598c1e Data=0x4b
# UVM_INFO ../src/env/axi4_scoreboard.sv(219) @ 15515000: uvm_test_top.env.scb [axi4_scoreboard] [REF_MEM_WRITE] Addr=0x31598c1f Data=0x61
# UVM_INFO ../src/env/axi4_scoreboard.sv(219) @ 15515000: uvm_test_top.env.scb [axi4_scoreboard] [REF_MEM_WRITE] Addr=0x31598c1c Data=0x47
# UVM_INFO ../src/env/axi4_scoreboard.sv(219) @ 15515000: uvm_test_top.env.scb [axi4_scoreboard] [REF_MEM_WRITE] Addr=0x31598c21 Data=0xd3
# UVM_INFO ../src/env/axi4_scoreboard.sv(219) @ 15515000: uvm_test_top.env.scb [axi4_scoreboard] [REF_MEM_WRITE] Addr=0x31598c20 Data=0x36
# UVM_INFO ../src/env/axi4_scoreboard.sv(219) @ 15515000: uvm_test_top.env.scb [axi4_scoreboard] [REF_MEM_WRITE] Addr=0x31598c20 Data=0xb1
# UVM_INFO ../src/env/axi4_scoreboard.sv(219) @ 15515000: uvm_test_top.env.scb [axi4_scoreboard] [REF_MEM_WRITE] Addr=0x31598c23 Data=0x0c
# UVM_INFO ../src/env/axi4_scoreboard.sv(219) @ 15515000: uvm_test_top.env.scb [axi4_scoreboard] [REF_MEM_WRITE] Addr=0x31598c20 Data=0xf1
# UVM_INFO ../src/env/axi4_scoreboard.sv(219) @ 15515000: uvm_test_top.env.scb [axi4_scoreboard] [REF_MEM_WRITE] Addr=0x31598c22 Data=0x07
# UVM_INFO ../src/env/axi4_scoreboard.sv(219) @ 15515000: uvm_test_top.env.scb [axi4_scoreboard] [REF_MEM_WRITE] Addr=0x31598c23 Data=0x12
# UVM_INFO ../src/env/axi4_scoreboard.sv(219) @ 15515000: uvm_test_top.env.scb [axi4_scoreboard] [REF_MEM_WRITE] Addr=0x31598c24 Data=0xeb
# UVM_INFO ../src/env/axi4_scoreboard.sv(219) @ 15515000: uvm_test_top.env.scb [axi4_scoreboard] [REF_MEM_WRITE] Addr=0x31598c27 Data=0x98
# UVM_INFO ../src/env/axi4_scoreboard.sv(219) @ 15515000: uvm_test_top.env.scb [axi4_scoreboard] [REF_MEM_WRITE] Addr=0x31598c26 Data=0x62
# UVM_INFO ../src/env/axi4_scoreboard.sv(219) @ 15515000: uvm_test_top.env.scb [axi4_scoreboard] [REF_MEM_WRITE] Addr=0x31598c24 Data=0x34
# UVM_INFO ../src/env/axi4_scoreboard.sv(219) @ 15515000: uvm_test_top.env.scb [axi4_scoreboard] [REF_MEM_WRITE] Addr=0x31598c26 Data=0x51
# UVM_INFO ../src/env/axi4_scoreboard.sv(219) @ 15515000: uvm_test_top.env.scb [axi4_scoreboard] [REF_MEM_WRITE] Addr=0x31598c24 Data=0xff
# UVM_INFO ../src/env/axi4_scoreboard.sv(219) @ 15515000: uvm_test_top.env.scb [axi4_scoreboard] [REF_MEM_WRITE] Addr=0x31598c26 Data=0xa9
# UVM_INFO ../src/env/axi4_scoreboard.sv(219) @ 15515000: uvm_test_top.env.scb [axi4_scoreboard] [REF_MEM_WRITE] Addr=0x31598c28 Data=0x32
# UVM_INFO ../src/env/axi4_scoreboard.sv(219) @ 15515000: uvm_test_top.env.scb [axi4_scoreboard] [REF_MEM_WRITE] Addr=0x31598c29 Data=0x58
# UVM_INFO ../src/env/axi4_scoreboard.sv(219) @ 15515000: uvm_test_top.env.scb [axi4_scoreboard] [REF_MEM_WRITE] Addr=0x31598c2a Data=0xcb
# UVM_INFO ../src/env/axi4_scoreboard.sv(219) @ 15515000: uvm_test_top.env.scb [axi4_scoreboard] [REF_MEM_WRITE] Addr=0x31598c28 Data=0xd9
# UVM_INFO ../src/env/axi4_scoreboard.sv(219) @ 15515000: uvm_test_top.env.scb [axi4_scoreboard] [REF_MEM_WRITE] Addr=0x31598c29 Data=0xab
# UVM_INFO ../src/env/axi4_scoreboard.sv(219) @ 15515000: uvm_test_top.env.scb [axi4_scoreboard] [REF_MEM_WRITE] Addr=0x31598c2a Data=0x85
# UVM_INFO ../src/env/axi4_scoreboard.sv(219) @ 15515000: uvm_test_top.env.scb [axi4_scoreboard] [REF_MEM_WRITE] Addr=0x31598c2b Data=0xb0
# UVM_INFO ../src/env/axi4_scoreboard.sv(219) @ 15515000: uvm_test_top.env.scb [axi4_scoreboard] [REF_MEM_WRITE] Addr=0x31598c2b Data=0x4a
# UVM_INFO ../src/env/axi4_scoreboard.sv(219) @ 15515000: uvm_test_top.env.scb [axi4_scoreboard] [REF_MEM_WRITE] Addr=0x31598c2e Data=0x67
# UVM_INFO ../src/env/axi4_scoreboard.sv(219) @ 15515000: uvm_test_top.env.scb [axi4_scoreboard] [REF_MEM_WRITE] Addr=0x31598c2f Data=0xbb
# UVM_INFO ../src/env/axi4_scoreboard.sv(219) @ 15515000: uvm_test_top.env.scb [axi4_scoreboard] [REF_MEM_WRITE] Addr=0x31598c2c Data=0x60
# UVM_INFO ../src/env/axi4_scoreboard.sv(219) @ 15515000: uvm_test_top.env.scb [axi4_scoreboard] [REF_MEM_WRITE] Addr=0x31598c2f Data=0xfa
# UVM_INFO ../src/env/axi4_scoreboard.sv(219) @ 15515000: uvm_test_top.env.scb [axi4_scoreboard] [REF_MEM_WRITE] Addr=0x31598c2e Data=0x53
# UVM_INFO ../src/env/axi4_scoreboard.sv(219) @ 15515000: uvm_test_top.env.scb [axi4_scoreboard] [REF_MEM_WRITE] Addr=0x31598c2c Data=0x4f
# UVM_INFO ../src/env/axi4_scoreboard.sv(219) @ 15515000: uvm_test_top.env.scb [axi4_scoreboard] [REF_MEM_WRITE] Addr=0x31598c2f Data=0x3d
# UVM_INFO ../src/env/axi4_scoreboard.sv(219) @ 15515000: uvm_test_top.env.scb [axi4_scoreboard] [REF_MEM_WRITE] Addr=0x31598c30 Data=0x71
# UVM_INFO ../src/env/axi4_scoreboard.sv(219) @ 15515000: uvm_test_top.env.scb [axi4_scoreboard] [REF_MEM_WRITE] Addr=0x31598c31 Data=0x41
# UVM_INFO ../src/env/axi4_scoreboard.sv(219) @ 15515000: uvm_test_top.env.scb [axi4_scoreboard] [REF_MEM_WRITE] Addr=0x31598c32 Data=0xdf
# UVM_INFO ../src/env/axi4_scoreboard.sv(219) @ 15515000: uvm_test_top.env.scb [axi4_scoreboard] [REF_MEM_WRITE] Addr=0x31598c34 Data=0xa5
# UVM_INFO ../src/env/axi4_scoreboard.sv(219) @ 15515000: uvm_test_top.env.scb [axi4_scoreboard] [REF_MEM_WRITE] Addr=0x31598c36 Data=0x85
# UVM_INFO ../src/env/axi4_scoreboard.sv(219) @ 15515000: uvm_test_top.env.scb [axi4_scoreboard] [REF_MEM_WRITE] Addr=0x31598c35 Data=0xe5
# UVM_INFO ../src/env/axi4_scoreboard.sv(219) @ 15515000: uvm_test_top.env.scb [axi4_scoreboard] [REF_MEM_WRITE] Addr=0x31598c35 Data=0x2e
# UVM_INFO ../src/env/axi4_scoreboard.sv(219) @ 15515000: uvm_test_top.env.scb [axi4_scoreboard] [REF_MEM_WRITE] Addr=0x31598c37 Data=0x15
# UVM_INFO ../src/env/axi4_scoreboard.sv(219) @ 15515000: uvm_test_top.env.scb [axi4_scoreboard] [REF_MEM_WRITE] Addr=0x31598c34 Data=0xb7
# UVM_INFO ../src/env/axi4_scoreboard.sv(219) @ 15515000: uvm_test_top.env.scb [axi4_scoreboard] [REF_MEM_WRITE] Addr=0x31598c37 Data=0xbd
# UVM_INFO ../src/env/axi4_scoreboard.sv(219) @ 15515000: uvm_test_top.env.scb [axi4_scoreboard] [REF_MEM_WRITE] Addr=0x31598c39 Data=0xe2
# UVM_INFO ../src/env/axi4_scoreboard.sv(219) @ 15515000: uvm_test_top.env.scb [axi4_scoreboard] [REF_MEM_WRITE] Addr=0x31598c3a Data=0x2b
# UVM_INFO ../src/env/axi4_scoreboard.sv(219) @ 15515000: uvm_test_top.env.scb [axi4_scoreboard] [REF_MEM_WRITE] Addr=0x31598c38 Data=0x86
# UVM_INFO ../src/env/axi4_scoreboard.sv(219) @ 15515000: uvm_test_top.env.scb [axi4_scoreboard] [REF_MEM_WRITE] Addr=0x31598c3a Data=0x2c
# UVM_INFO ../src/env/axi4_scoreboard.sv(219) @ 15515000: uvm_test_top.env.scb [axi4_scoreboard] [REF_MEM_WRITE] Addr=0x31598c3b Data=0x43
# UVM_INFO ../src/env/axi4_scoreboard.sv(219) @ 15515000: uvm_test_top.env.scb [axi4_scoreboard] [REF_MEM_WRITE] Addr=0x31598c38 Data=0x31
# UVM_INFO ../src/env/axi4_scoreboard.sv(219) @ 15515000: uvm_test_top.env.scb [axi4_scoreboard] [REF_MEM_WRITE] Addr=0x31598c39 Data=0x4c
# UVM_INFO ../src/env/axi4_scoreboard.sv(219) @ 15515000: uvm_test_top.env.scb [axi4_scoreboard] [REF_MEM_WRITE] Addr=0x31598c3c Data=0x5a
# UVM_INFO ../src/env/axi4_scoreboard.sv(219) @ 15515000: uvm_test_top.env.scb [axi4_scoreboard] [REF_MEM_WRITE] Addr=0x31598c3e Data=0x57
# UVM_INFO ../src/env/axi4_scoreboard.sv(219) @ 15515000: uvm_test_top.env.scb [axi4_scoreboard] [REF_MEM_WRITE] Addr=0x31598c3d Data=0xff
# UVM_INFO ../src/env/axi4_scoreboard.sv(219) @ 15515000: uvm_test_top.env.scb [axi4_scoreboard] [REF_MEM_WRITE] Addr=0x31598c3e Data=0xcd
# UVM_INFO ../src/env/axi4_scoreboard.sv(219) @ 15515000: uvm_test_top.env.scb [axi4_scoreboard] [REF_MEM_WRITE] Addr=0x31598c3f Data=0xf8
# UVM_INFO ../src/seq/axi4_outstanding_seq.sv(84) @ 15515000: uvm_test_top.env.master_agent.sqr@@outstanding_seq [axi4_outstanding_seq] Outstanding Write [#4] complete: ID=0x8
