# vsim -c -coverage -sv_seed 98278501 "+UVM_TESTNAME=axi4_wr_rd_test" "+UVM_VERBOSITY=UVM_HIGH" "+DUMP_VCD" -l ./report/logs/axi4_wr_rd_test_run_8_seed_98278501.log -do "coverage save -onexit ./report/coverage/axi4_wr_rd_test_run_8_seed_98278501.ucdb; run -all; quit -f" opt_tb_top 
# Start time: 15:30:47 on Jun 04,2026
# //  Questa Sim-64
# //  Version 10.6b linux_x86_64 May 25 2017
# //
# //  Copyright 1991-2017 Mentor Graphics Corporation
# //  All Rights Reserved.
# //
# //  QuestaSim and its associated documentation contain trade
# //  secrets and commercial or financial information that are the property of
# //  Mentor Graphics Corporation and are privileged, confidential,
# //  and exempt from disclosure under the Freedom of Information Act,
# //  5 U.S.C. Section 552. Furthermore, this information
# //  is prohibited from disclosure under the Trade Secrets Act,
# //  18 U.S.C. Section 1905.
# //
# Loading sv_std.std
# Loading work.axi4_if(fast)
# Loading mtiUvm.uvm_pkg
# Loading work.axi4_pkg(fast)
# Loading work.axi4_test_pkg(fast)
# Loading work.tb_top(fast)
# Loading work.axi4_if(fast)
# Loading work.axi4_sva(fast)
# Loading mtiUvm.questa_uvm_pkg(fast)
# Loading /cadtools/mentor/Questa_10.6b/questasim/uvm-1.1d/linux_x86_64/uvm_dpi.so
# coverage save -onexit ./report/coverage/axi4_wr_rd_test_run_8_seed_98278501.ucdb
#  run -all
# ----------------------------------------------------------------
# UVM-1.1d
# (C) 2007-2013 Mentor Graphics Corporation
# (C) 2007-2013 Cadence Design Systems, Inc.
# (C) 2006-2013 Synopsys, Inc.
# (C) 2011-2013 Cypress Semiconductor Corp.
# ----------------------------------------------------------------
# 
#   ***********       IMPORTANT RELEASE NOTES         ************
# 
#   You are using a version of the UVM library that has been compiled
#   with `UVM_NO_DEPRECATED undefined.
#   See http://www.eda.org/svdb/view.php?id=3313 for more details.
# 
#   You are using a version of the UVM library that has been compiled
#   with `UVM_OBJECT_MUST_HAVE_CONSTRUCTOR undefined.
#   See http://www.eda.org/svdb/view.php?id=3770 for more details.
# 
#       (Specify +UVM_NO_RELNOTES to turn off this notice)
# 
# UVM_INFO verilog_src/questa_uvm_pkg-1.2/src/questa_uvm_pkg.sv(215) @ 0: reporter [Questa UVM] QUESTA_UVM-1.2.3
# UVM_INFO verilog_src/questa_uvm_pkg-1.2/src/questa_uvm_pkg.sv(217) @ 0: reporter [Questa UVM]  questa_uvm::init(+struct)
# UVM_INFO ../src/tb_top.sv(128) @ 0: reporter [TB_TOP] Virtual interface set in config_db
# UVM_INFO @ 0: reporter [RNTST] Running test axi4_wr_rd_test...
# UVM_INFO ../src/tb_top.sv(142) @ 0: reporter [TB_TOP] Waveform VCD dumping enabled (axi4_vip.vcd)
# UVM_INFO ../src/env/axi4_vip_env.sv(83) @ 0: uvm_test_top.env [axi4_vip_env] slave_vif not set - reusing master_vif (passthrough mode)
# UVM_INFO ../src/env/axi4_vip_env.sv(93) @ 0: uvm_test_top.env [axi4_vip_env] Scoreboard created
# UVM_INFO ../src/env/axi4_vip_env.sv(100) @ 0: uvm_test_top.env [axi4_vip_env] Coverage collectors created
# UVM_INFO ../src/mst/axi4_master_agent.sv(69) @ 0: uvm_test_top.env.master_agent [axi4_master_agent] ACTIVE mode - driver + sequencer created
# UVM_INFO ../src/slv/axi4_slave_agent.sv(82) @ 0: uvm_test_top.env.slave_agent [axi4_slave_agent] ACTIVE mode — ready_delay=[0:0] resp_delay=[0:0]
# UVM_INFO ../src/env/axi4_vip_env.sv(116) @ 0: uvm_test_top.env [axi4_vip_env] Scoreboard connected: master_mon.ap -> scb, slave_mon.ap -> scb
# UVM_INFO ../src/env/axi4_vip_env.sv(124) @ 0: uvm_test_top.env [axi4_vip_env] Coverage connected: master_mon.ap -> master_cov, slave_mon.ap -> slave_cov
# UVM_INFO @ 0: reporter [UVMTOP] UVM testbench topology:
# ---------------------------------------------------------------
# Name                       Type                     Size  Value
# ---------------------------------------------------------------
# uvm_test_top               axi4_wr_rd_test          -     @473 
#   env                      axi4_vip_env             -     @488 
#     master_agent           axi4_master_agent        -     @503 
#       drv                  axi4_master_driver       -     @567 
#         rsp_port           uvm_analysis_port        -     @582 
#         seq_item_port      uvm_seq_item_pull_port   -     @574 
#       mon                  axi4_master_monitor      -     @559 
#         ap                 uvm_analysis_port        -     @700 
#       sqr                  axi4_master_sequencer    -     @590 
#         rsp_export         uvm_analysis_export      -     @597 
#         seq_item_export    uvm_seq_item_pull_imp    -     @691 
#         arbitration_queue  array                    0     -    
#         lock_queue         array                    0     -    
#         num_last_reqs      integral                 32    'd1  
#         num_last_rsps      integral                 32    'd1  
#     master_cov             axi4_coverage            -     @524 
#       analysis_imp         uvm_analysis_imp         -     @531 
#     scb                    axi4_scoreboard          -     @517 
#       master_export        uvm_analysis_imp_master  -     @714 
#       slave_export         uvm_analysis_imp_slave   -     @722 
#     slave_agent            axi4_slave_agent         -     @510 
#       drv                  axi4_slave_driver        -     @753 
#         rsp_port           uvm_analysis_port        -     @768 
#         seq_item_port      uvm_seq_item_pull_port   -     @760 
#       mon                  axi4_slave_monitor       -     @735 
#         ap                 uvm_analysis_port        -     @890 
#       sqr                  axi4_slave_sequencer     -     @776 
#         rsp_export         uvm_analysis_export      -     @783 
#         seq_item_export    uvm_seq_item_pull_imp    -     @877 
#         arbitration_queue  array                    0     -    
#         lock_queue         array                    0     -    
#         num_last_reqs      integral                 32    'd1  
#         num_last_rsps      integral                 32    'd1  
#     slave_cov              axi4_coverage            -     @539 
#       analysis_imp         uvm_analysis_imp         -     @546 
# ---------------------------------------------------------------
# 
# UVM_INFO verilog_src/questa_uvm_pkg-1.2/src/questa_uvm_pkg.sv(277) @ 0: reporter [Questa UVM] End Of Elaboration
# UVM_INFO ../src/test/axi4_wr_rd_test.sv(37) @ 0: uvm_test_top [axi4_wr_rd_test] Starting 10 write-read-back iterations
# UVM_INFO ../src/test/axi4_wr_rd_test.sv(52) @ 0: uvm_test_top [axi4_wr_rd_test] [1/10] ADDR=0x2b9150e2 LEN=7 BURST=AXI4_BURST_INCR
# UVM_INFO ../src/tb_top.sv(49) @ 95000: reporter [TOP_TB] Reset de-asserted
# UVM_INFO ../src/slv/axi4_slave_driver.sv(66) @ 95000: uvm_test_top.env.slave_agent.drv [axi4_slave_driver] Reset deasserted - slave driver active
# UVM_INFO ../src/mst/axi4_master_driver.sv(46) @ 95000: uvm_test_top.env.master_agent.drv [axi4_master_driver] Reset deasserted - master driver active
# UVM_INFO ../src/mst/axi4_master_monitor.sv(77) @ 95000: uvm_test_top.env.master_agent.mon [axi4_master_monitor] Reset deasserted — monitor active
# UVM_INFO ../src/slv/axi4_slave_monitor.sv(71) @ 95000: uvm_test_top.env.slave_agent.mon [axi4_slave_monitor] Reset deasserted — monitor active
# UVM_INFO ../src/mst/axi4_master_driver.sv(55) @ 95000: uvm_test_top.env.master_agent.drv [axi4_master_driver] Driving AXI4_WRITE  ID=0xb  ADDR=0x2b9150e2  LEN=7
# UVM_INFO ../src/mst/axi4_master_driver.sv(94) @ 95000: uvm_test_top.env.master_agent.drv [axi4_master_driver] Write order: AW || W (parallel)
# UVM_INFO ../src/slv/axi4_slave_driver.sv(159) @ 115000: uvm_test_top.env.slave_agent.drv [axi4_slave_driver] AW received: ID=0xb ADDR=0x2b9150e2 LEN=7
# UVM_INFO ../src/slv/axi4_slave_monitor.sv(116) @ 115000: uvm_test_top.env.slave_agent.mon [axi4_slave_monitor] AW received: ID=0xb ADDR=0x2b9150e2 LEN=7
# UVM_INFO ../src/mst/axi4_master_monitor.sv(124) @ 115000: uvm_test_top.env.master_agent.mon [axi4_master_monitor] AW observed: ID=0xb ADDR=0x2b9150e2 LEN=7
# UVM_INFO ../src/mst/axi4_master_monitor.sv(184) @ 245000: uvm_test_top.env.master_agent.mon [axi4_master_monitor] W data assembled: ID=0xb ADDR=0x2b9150e2 8 beats
# UVM_INFO ../src/slv/axi4_slave_monitor.sv(167) @ 245000: uvm_test_top.env.slave_agent.mon [axi4_slave_monitor] W data assembled: ID=0xb ADDR=0x2b9150e2 8 beats
# UVM_INFO ../src/mst/axi4_master_driver.sv(197) @ 275000: uvm_test_top.env.master_agent.drv [axi4_master_driver] Write response: AXI4_RESP_OKAY
# UVM_INFO ../src/slv/axi4_slave_driver.sv(223) @ 275000: uvm_test_top.env.slave_agent.drv [axi4_slave_driver] Write complete: ID=0xb  8 beats stored
# UVM_INFO ../src/slv/axi4_slave_monitor.sv(189) @ 275000: uvm_test_top.env.slave_agent.mon [axi4_slave_monitor] Write response sent: ID=0xb ADDR=0x2b9150e2 RESP=AXI4_RESP_OKAY
# UVM_INFO ../src/env/axi4_scoreboard.sv(103) @ 275000: uvm_test_top.env.scb [axi4_scoreboard] Slave AXI4_WRITE received: ID=0xb ADDR=0x2b9150e2 LEN=7
# UVM_INFO ../src/mst/axi4_master_monitor.sv(210) @ 275000: uvm_test_top.env.master_agent.mon [axi4_master_monitor] Write complete: ID=0xb ADDR=0x2b9150e2 RESP=AXI4_RESP_OKAY
# UVM_INFO ../src/env/axi4_scoreboard.sv(82) @ 275000: uvm_test_top.env.scb [axi4_scoreboard] Master AXI4_WRITE received: ID=0xb ADDR=0x2b9150e2 LEN=7
# UVM_INFO ../src/env/axi4_scoreboard.sv(154) @ 275000: uvm_test_top.env.scb [axi4_scoreboard] [WRITE] MATCH #1: ID=0xb ADDR=0x2b9150e2 LEN=7
# UVM_INFO ../src/seq/axi4_write_read_back_seq.sv(60) @ 275000: uvm_test_top.env.master_agent.sqr@@wr_rd_seq_0 [axi4_write_read_back_seq] Write phase: ADDR=0x2b9150e2 LEN=7 SIZE=AXI4_SIZE_4B BURST=AXI4_BURST_INCR
# UVM_INFO ../src/mst/axi4_master_driver.sv(55) @ 275000: uvm_test_top.env.master_agent.drv [axi4_master_driver] Driving AXI4_READ  ID=0xf  ADDR=0x2b9150e2  LEN=7
# UVM_INFO ../src/slv/axi4_slave_driver.sv(259) @ 305000: uvm_test_top.env.slave_agent.drv [axi4_slave_driver] AR received: ID=0xf ADDR=0x2b9150e2 LEN=7
# UVM_INFO ../src/mst/axi4_master_monitor.sv(246) @ 305000: uvm_test_top.env.master_agent.mon [axi4_master_monitor] AR observed: ID=0xf ADDR=0x2b9150e2 LEN=7
# UVM_INFO ../src/slv/axi4_slave_monitor.sv(224) @ 305000: uvm_test_top.env.slave_agent.mon [axi4_slave_monitor] AR received: ID=0xf ADDR=0x2b9150e2 LEN=7
# UVM_INFO ../src/mst/axi4_master_driver.sv(254) @ 465000: uvm_test_top.env.master_agent.drv [axi4_master_driver] Read complete: 8 beats received
# UVM_INFO ../src/slv/axi4_slave_driver.sv(293) @ 465000: uvm_test_top.env.slave_agent.drv [axi4_slave_driver] Read complete: ID=0xf  8 beats sent
# UVM_INFO ../src/mst/axi4_master_monitor.sv(314) @ 465000: uvm_test_top.env.master_agent.mon [axi4_master_monitor] Read complete: ID=0xf ADDR=0x2b9150e2 8 beats
# UVM_INFO ../src/env/axi4_scoreboard.sv(82) @ 465000: uvm_test_top.env.scb [axi4_scoreboard] Master AXI4_READ received: ID=0xf ADDR=0x2b9150e2 LEN=7
# UVM_INFO ../src/slv/axi4_slave_monitor.sv(287) @ 465000: uvm_test_top.env.slave_agent.mon [axi4_slave_monitor] Read data sent: ID=0xf ADDR=0x2b9150e2 8 beats
# UVM_INFO ../src/env/axi4_scoreboard.sv(103) @ 465000: uvm_test_top.env.scb [axi4_scoreboard] Slave AXI4_READ received: ID=0xf ADDR=0x2b9150e2 LEN=7
# UVM_INFO ../src/env/axi4_scoreboard.sv(154) @ 465000: uvm_test_top.env.scb [axi4_scoreboard] [READ] MATCH #2: ID=0xf ADDR=0x2b9150e2 LEN=7
# UVM_INFO ../src/seq/axi4_write_read_back_seq.sv(80) @ 465000: uvm_test_top.env.master_agent.sqr@@wr_rd_seq_0 [axi4_write_read_back_seq] Read-back phase: ADDR=0x2b9150e2 LEN=7 - data integrity check via scoreboard
# UVM_INFO ../src/test/axi4_wr_rd_test.sv(52) @ 465000: uvm_test_top [axi4_wr_rd_test] [2/10] ADDR=0xca16a2c8 LEN=6 BURST=AXI4_BURST_INCR
# UVM_INFO ../src/mst/axi4_master_driver.sv(55) @ 465000: uvm_test_top.env.master_agent.drv [axi4_master_driver] Driving AXI4_WRITE  ID=0x8  ADDR=0xca16a2c8  LEN=6
# UVM_INFO ../src/mst/axi4_master_driver.sv(106) @ 465000: uvm_test_top.env.master_agent.drv [axi4_master_driver] Write order: W -> AW (W first)
# UVM_INFO ../src/slv/axi4_slave_driver.sv(159) @ 535000: uvm_test_top.env.slave_agent.drv [axi4_slave_driver] AW received: ID=0x8 ADDR=0xca16a2c8 LEN=6
# UVM_INFO ../src/slv/axi4_slave_monitor.sv(116) @ 535000: uvm_test_top.env.slave_agent.mon [axi4_slave_monitor] AW received: ID=0x8 ADDR=0xca16a2c8 LEN=6
# UVM_INFO ../src/mst/axi4_master_monitor.sv(124) @ 535000: uvm_test_top.env.master_agent.mon [axi4_master_monitor] AW observed: ID=0x8 ADDR=0xca16a2c8 LEN=6
# UVM_INFO ../src/mst/axi4_master_monitor.sv(184) @ 605000: uvm_test_top.env.master_agent.mon [axi4_master_monitor] W data assembled: ID=0x8 ADDR=0xca16a2c8 7 beats
# UVM_INFO ../src/slv/axi4_slave_monitor.sv(167) @ 605000: uvm_test_top.env.slave_agent.mon [axi4_slave_monitor] W data assembled: ID=0x8 ADDR=0xca16a2c8 7 beats
# UVM_INFO ../src/mst/axi4_master_driver.sv(197) @ 635000: uvm_test_top.env.master_agent.drv [axi4_master_driver] Write response: AXI4_RESP_OKAY
# UVM_INFO ../src/slv/axi4_slave_driver.sv(223) @ 635000: uvm_test_top.env.slave_agent.drv [axi4_slave_driver] Write complete: ID=0x8  7 beats stored
# UVM_INFO ../src/slv/axi4_slave_monitor.sv(189) @ 635000: uvm_test_top.env.slave_agent.mon [axi4_slave_monitor] Write response sent: ID=0x8 ADDR=0xca16a2c8 RESP=AXI4_RESP_OKAY
# UVM_INFO ../src/env/axi4_scoreboard.sv(103) @ 635000: uvm_test_top.env.scb [axi4_scoreboard] Slave AXI4_WRITE received: ID=0x8 ADDR=0xca16a2c8 LEN=6
# UVM_INFO ../src/mst/axi4_master_monitor.sv(210) @ 635000: uvm_test_top.env.master_agent.mon [axi4_master_monitor] Write complete: ID=0x8 ADDR=0xca16a2c8 RESP=AXI4_RESP_OKAY
# UVM_INFO ../src/env/axi4_scoreboard.sv(82) @ 635000: uvm_test_top.env.scb [axi4_scoreboard] Master AXI4_WRITE received: ID=0x8 ADDR=0xca16a2c8 LEN=6
# UVM_INFO ../src/env/axi4_scoreboard.sv(154) @ 635000: uvm_test_top.env.scb [axi4_scoreboard] [WRITE] MATCH #3: ID=0x8 ADDR=0xca16a2c8 LEN=6
# UVM_INFO ../src/seq/axi4_write_read_back_seq.sv(60) @ 635000: uvm_test_top.env.master_agent.sqr@@wr_rd_seq_1 [axi4_write_read_back_seq] Write phase: ADDR=0xca16a2c8 LEN=6 SIZE=AXI4_SIZE_4B BURST=AXI4_BURST_INCR
# UVM_INFO ../src/mst/axi4_master_driver.sv(55) @ 635000: uvm_test_top.env.master_agent.drv [axi4_master_driver] Driving AXI4_READ  ID=0x9  ADDR=0xca16a2c8  LEN=6
# UVM_INFO ../src/slv/axi4_slave_driver.sv(259) @ 665000: uvm_test_top.env.slave_agent.drv [axi4_slave_driver] AR received: ID=0x9 ADDR=0xca16a2c8 LEN=6
# UVM_INFO ../src/mst/axi4_master_monitor.sv(246) @ 665000: uvm_test_top.env.master_agent.mon [axi4_master_monitor] AR observed: ID=0x9 ADDR=0xca16a2c8 LEN=6
# UVM_INFO ../src/slv/axi4_slave_monitor.sv(224) @ 665000: uvm_test_top.env.slave_agent.mon [axi4_slave_monitor] AR received: ID=0x9 ADDR=0xca16a2c8 LEN=6
# UVM_INFO ../src/mst/axi4_master_driver.sv(254) @ 805000: uvm_test_top.env.master_agent.drv [axi4_master_driver] Read complete: 7 beats received
# UVM_INFO ../src/slv/axi4_slave_driver.sv(293) @ 805000: uvm_test_top.env.slave_agent.drv [axi4_slave_driver] Read complete: ID=0x9  7 beats sent
# UVM_INFO ../src/mst/axi4_master_monitor.sv(314) @ 805000: uvm_test_top.env.master_agent.mon [axi4_master_monitor] Read complete: ID=0x9 ADDR=0xca16a2c8 7 beats
# UVM_INFO ../src/env/axi4_scoreboard.sv(82) @ 805000: uvm_test_top.env.scb [axi4_scoreboard] Master AXI4_READ received: ID=0x9 ADDR=0xca16a2c8 LEN=6
# UVM_INFO ../src/slv/axi4_slave_monitor.sv(287) @ 805000: uvm_test_top.env.slave_agent.mon [axi4_slave_monitor] Read data sent: ID=0x9 ADDR=0xca16a2c8 7 beats
# UVM_INFO ../src/env/axi4_scoreboard.sv(103) @ 805000: uvm_test_top.env.scb [axi4_scoreboard] Slave AXI4_READ received: ID=0x9 ADDR=0xca16a2c8 LEN=6
# UVM_INFO ../src/env/axi4_scoreboard.sv(154) @ 805000: uvm_test_top.env.scb [axi4_scoreboard] [READ] MATCH #4: ID=0x9 ADDR=0xca16a2c8 LEN=6
# UVM_INFO ../src/seq/axi4_write_read_back_seq.sv(80) @ 805000: uvm_test_top.env.master_agent.sqr@@wr_rd_seq_1 [axi4_write_read_back_seq] Read-back phase: ADDR=0xca16a2c8 LEN=6 - data integrity check via scoreboard
# UVM_INFO ../src/test/axi4_wr_rd_test.sv(52) @ 805000: uvm_test_top [axi4_wr_rd_test] [3/10] ADDR=0xaf9610f9 LEN=10 BURST=AXI4_BURST_INCR
# UVM_INFO ../src/mst/axi4_master_driver.sv(55) @ 805000: uvm_test_top.env.master_agent.drv [axi4_master_driver] Driving AXI4_WRITE  ID=0x6  ADDR=0xaf9610f9  LEN=10
# UVM_INFO ../src/mst/axi4_master_driver.sv(106) @ 805000: uvm_test_top.env.master_agent.drv [axi4_master_driver] Write order: W -> AW (W first)
# UVM_INFO ../src/slv/axi4_slave_driver.sv(159) @ 855000: uvm_test_top.env.slave_agent.drv [axi4_slave_driver] AW received: ID=0x6 ADDR=0xaf9610f9 LEN=10
# UVM_INFO ../src/slv/axi4_slave_monitor.sv(116) @ 855000: uvm_test_top.env.slave_agent.mon [axi4_slave_monitor] AW received: ID=0x6 ADDR=0xaf9610f9 LEN=10
# UVM_INFO ../src/mst/axi4_master_monitor.sv(124) @ 855000: uvm_test_top.env.master_agent.mon [axi4_master_monitor] AW observed: ID=0x6 ADDR=0xaf9610f9 LEN=10
# UVM_INFO ../src/mst/axi4_master_monitor.sv(184) @ 1025000: uvm_test_top.env.master_agent.mon [axi4_master_monitor] W data assembled: ID=0x6 ADDR=0xaf9610f9 11 beats
# UVM_INFO ../src/slv/axi4_slave_monitor.sv(167) @ 1025000: uvm_test_top.env.slave_agent.mon [axi4_slave_monitor] W data assembled: ID=0x6 ADDR=0xaf9610f9 11 beats
# UVM_INFO ../src/mst/axi4_master_driver.sv(197) @ 1055000: uvm_test_top.env.master_agent.drv [axi4_master_driver] Write response: AXI4_RESP_OKAY
# UVM_INFO ../src/slv/axi4_slave_driver.sv(223) @ 1055000: uvm_test_top.env.slave_agent.drv [axi4_slave_driver] Write complete: ID=0x6  11 beats stored
# UVM_INFO ../src/slv/axi4_slave_monitor.sv(189) @ 1055000: uvm_test_top.env.slave_agent.mon [axi4_slave_monitor] Write response sent: ID=0x6 ADDR=0xaf9610f9 RESP=AXI4_RESP_OKAY
# UVM_INFO ../src/env/axi4_scoreboard.sv(103) @ 1055000: uvm_test_top.env.scb [axi4_scoreboard] Slave AXI4_WRITE received: ID=0x6 ADDR=0xaf9610f9 LEN=10
# UVM_INFO ../src/mst/axi4_master_monitor.sv(210) @ 1055000: uvm_test_top.env.master_agent.mon [axi4_master_monitor] Write complete: ID=0x6 ADDR=0xaf9610f9 RESP=AXI4_RESP_OKAY
# UVM_INFO ../src/env/axi4_scoreboard.sv(82) @ 1055000: uvm_test_top.env.scb [axi4_scoreboard] Master AXI4_WRITE received: ID=0x6 ADDR=0xaf9610f9 LEN=10
# UVM_INFO ../src/env/axi4_scoreboard.sv(154) @ 1055000: uvm_test_top.env.scb [axi4_scoreboard] [WRITE] MATCH #5: ID=0x6 ADDR=0xaf9610f9 LEN=10
# UVM_INFO ../src/seq/axi4_write_read_back_seq.sv(60) @ 1055000: uvm_test_top.env.master_agent.sqr@@wr_rd_seq_2 [axi4_write_read_back_seq] Write phase: ADDR=0xaf9610f9 LEN=10 SIZE=AXI4_SIZE_4B BURST=AXI4_BURST_INCR
# UVM_INFO ../src/mst/axi4_master_driver.sv(55) @ 1055000: uvm_test_top.env.master_agent.drv [axi4_master_driver] Driving AXI4_READ  ID=0xe  ADDR=0xaf9610f9  LEN=10
# UVM_INFO ../src/slv/axi4_slave_driver.sv(259) @ 1085000: uvm_test_top.env.slave_agent.drv [axi4_slave_driver] AR received: ID=0xe ADDR=0xaf9610f9 LEN=10
# UVM_INFO ../src/mst/axi4_master_monitor.sv(246) @ 1085000: uvm_test_top.env.master_agent.mon [axi4_master_monitor] AR observed: ID=0xe ADDR=0xaf9610f9 LEN=10
# UVM_INFO ../src/slv/axi4_slave_monitor.sv(224) @ 1085000: uvm_test_top.env.slave_agent.mon [axi4_slave_monitor] AR received: ID=0xe ADDR=0xaf9610f9 LEN=10
# UVM_INFO ../src/mst/axi4_master_driver.sv(254) @ 1305000: uvm_test_top.env.master_agent.drv [axi4_master_driver] Read complete: 11 beats received
# UVM_INFO ../src/slv/axi4_slave_driver.sv(293) @ 1305000: uvm_test_top.env.slave_agent.drv [axi4_slave_driver] Read complete: ID=0xe  11 beats sent
# UVM_INFO ../src/mst/axi4_master_monitor.sv(314) @ 1305000: uvm_test_top.env.master_agent.mon [axi4_master_monitor] Read complete: ID=0xe ADDR=0xaf9610f9 11 beats
# UVM_INFO ../src/env/axi4_scoreboard.sv(82) @ 1305000: uvm_test_top.env.scb [axi4_scoreboard] Master AXI4_READ received: ID=0xe ADDR=0xaf9610f9 LEN=10
# UVM_INFO ../src/slv/axi4_slave_monitor.sv(287) @ 1305000: uvm_test_top.env.slave_agent.mon [axi4_slave_monitor] Read data sent: ID=0xe ADDR=0xaf9610f9 11 beats
# UVM_INFO ../src/env/axi4_scoreboard.sv(103) @ 1305000: uvm_test_top.env.scb [axi4_scoreboard] Slave AXI4_READ received: ID=0xe ADDR=0xaf9610f9 LEN=10
# UVM_INFO ../src/env/axi4_scoreboard.sv(154) @ 1305000: uvm_test_top.env.scb [axi4_scoreboard] [READ] MATCH #6: ID=0xe ADDR=0xaf9610f9 LEN=10
# UVM_INFO ../src/seq/axi4_write_read_back_seq.sv(80) @ 1305000: uvm_test_top.env.master_agent.sqr@@wr_rd_seq_2 [axi4_write_read_back_seq] Read-back phase: ADDR=0xaf9610f9 LEN=10 - data integrity check via scoreboard
# UVM_INFO ../src/test/axi4_wr_rd_test.sv(52) @ 1305000: uvm_test_top [axi4_wr_rd_test] [4/10] ADDR=0xe4a3664d LEN=9 BURST=AXI4_BURST_INCR
# UVM_INFO ../src/mst/axi4_master_driver.sv(55) @ 1305000: uvm_test_top.env.master_agent.drv [axi4_master_driver] Driving AXI4_WRITE  ID=0xf  ADDR=0xe4a3664d  LEN=9
# UVM_INFO ../src/mst/axi4_master_driver.sv(94) @ 1305000: uvm_test_top.env.master_agent.drv [axi4_master_driver] Write order: AW || W (parallel)
# UVM_INFO ../src/slv/axi4_slave_driver.sv(159) @ 1335000: uvm_test_top.env.slave_agent.drv [axi4_slave_driver] AW received: ID=0xf ADDR=0xe4a3664d LEN=9
# UVM_INFO ../src/slv/axi4_slave_monitor.sv(116) @ 1335000: uvm_test_top.env.slave_agent.mon [axi4_slave_monitor] AW received: ID=0xf ADDR=0xe4a3664d LEN=9
# UVM_INFO ../src/mst/axi4_master_monitor.sv(124) @ 1335000: uvm_test_top.env.master_agent.mon [axi4_master_monitor] AW observed: ID=0xf ADDR=0xe4a3664d LEN=9
# UVM_INFO ../src/mst/axi4_master_monitor.sv(184) @ 1505000: uvm_test_top.env.master_agent.mon [axi4_master_monitor] W data assembled: ID=0xf ADDR=0xe4a3664d 10 beats
# UVM_INFO ../src/slv/axi4_slave_monitor.sv(167) @ 1505000: uvm_test_top.env.slave_agent.mon [axi4_slave_monitor] W data assembled: ID=0xf ADDR=0xe4a3664d 10 beats
# UVM_INFO ../src/mst/axi4_master_driver.sv(197) @ 1535000: uvm_test_top.env.master_agent.drv [axi4_master_driver] Write response: AXI4_RESP_OKAY
# UVM_INFO ../src/slv/axi4_slave_driver.sv(223) @ 1535000: uvm_test_top.env.slave_agent.drv [axi4_slave_driver] Write complete: ID=0xf  10 beats stored
# UVM_INFO ../src/slv/axi4_slave_monitor.sv(189) @ 1535000: uvm_test_top.env.slave_agent.mon [axi4_slave_monitor] Write response sent: ID=0xf ADDR=0xe4a3664d RESP=AXI4_RESP_OKAY
# UVM_INFO ../src/env/axi4_scoreboard.sv(103) @ 1535000: uvm_test_top.env.scb [axi4_scoreboard] Slave AXI4_WRITE received: ID=0xf ADDR=0xe4a3664d LEN=9
# UVM_INFO ../src/mst/axi4_master_monitor.sv(210) @ 1535000: uvm_test_top.env.master_agent.mon [axi4_master_monitor] Write complete: ID=0xf ADDR=0xe4a3664d RESP=AXI4_RESP_OKAY
# UVM_INFO ../src/env/axi4_scoreboard.sv(82) @ 1535000: uvm_test_top.env.scb [axi4_scoreboard] Master AXI4_WRITE received: ID=0xf ADDR=0xe4a3664d LEN=9
# UVM_INFO ../src/env/axi4_scoreboard.sv(154) @ 1535000: uvm_test_top.env.scb [axi4_scoreboard] [WRITE] MATCH #7: ID=0xf ADDR=0xe4a3664d LEN=9
# UVM_INFO ../src/seq/axi4_write_read_back_seq.sv(60) @ 1535000: uvm_test_top.env.master_agent.sqr@@wr_rd_seq_3 [axi4_write_read_back_seq] Write phase: ADDR=0xe4a3664d LEN=9 SIZE=AXI4_SIZE_4B BURST=AXI4_BURST_INCR
# UVM_INFO ../src/mst/axi4_master_driver.sv(55) @ 1535000: uvm_test_top.env.master_agent.drv [axi4_master_driver] Driving AXI4_READ  ID=0x4  ADDR=0xe4a3664d  LEN=9
# UVM_INFO ../src/slv/axi4_slave_driver.sv(259) @ 1565000: uvm_test_top.env.slave_agent.drv [axi4_slave_driver] AR received: ID=0x4 ADDR=0xe4a3664d LEN=9
# UVM_INFO ../src/mst/axi4_master_monitor.sv(246) @ 1565000: uvm_test_top.env.master_agent.mon [axi4_master_monitor] AR observed: ID=0x4 ADDR=0xe4a3664d LEN=9
# UVM_INFO ../src/slv/axi4_slave_monitor.sv(224) @ 1565000: uvm_test_top.env.slave_agent.mon [axi4_slave_monitor] AR received: ID=0x4 ADDR=0xe4a3664d LEN=9
# UVM_INFO ../src/mst/axi4_master_driver.sv(254) @ 1765000: uvm_test_top.env.master_agent.drv [axi4_master_driver] Read complete: 10 beats received
# UVM_INFO ../src/slv/axi4_slave_driver.sv(293) @ 1765000: uvm_test_top.env.slave_agent.drv [axi4_slave_driver] Read complete: ID=0x4  10 beats sent
# UVM_INFO ../src/mst/axi4_master_monitor.sv(314) @ 1765000: uvm_test_top.env.master_agent.mon [axi4_master_monitor] Read complete: ID=0x4 ADDR=0xe4a3664d 10 beats
# UVM_INFO ../src/env/axi4_scoreboard.sv(82) @ 1765000: uvm_test_top.env.scb [axi4_scoreboard] Master AXI4_READ received: ID=0x4 ADDR=0xe4a3664d LEN=9
# UVM_INFO ../src/slv/axi4_slave_monitor.sv(287) @ 1765000: uvm_test_top.env.slave_agent.mon [axi4_slave_monitor] Read data sent: ID=0x4 ADDR=0xe4a3664d 10 beats
# UVM_INFO ../src/env/axi4_scoreboard.sv(103) @ 1765000: uvm_test_top.env.scb [axi4_scoreboard] Slave AXI4_READ received: ID=0x4 ADDR=0xe4a3664d LEN=9
# UVM_INFO ../src/env/axi4_scoreboard.sv(154) @ 1765000: uvm_test_top.env.scb [axi4_scoreboard] [READ] MATCH #8: ID=0x4 ADDR=0xe4a3664d LEN=9
# UVM_INFO ../src/seq/axi4_write_read_back_seq.sv(80) @ 1765000: uvm_test_top.env.master_agent.sqr@@wr_rd_seq_3 [axi4_write_read_back_seq] Read-back phase: ADDR=0xe4a3664d LEN=9 - data integrity check via scoreboard
# UVM_INFO ../src/test/axi4_wr_rd_test.sv(52) @ 1765000: uvm_test_top [axi4_wr_rd_test] [5/10] ADDR=0x810033ac LEN=6 BURST=AXI4_BURST_INCR
# UVM_INFO ../src/mst/axi4_master_driver.sv(55) @ 1765000: uvm_test_top.env.master_agent.drv [axi4_master_driver] Driving AXI4_WRITE  ID=0xe  ADDR=0x810033ac  LEN=6
# UVM_INFO ../src/mst/axi4_master_driver.sv(94) @ 1765000: uvm_test_top.env.master_agent.drv [axi4_master_driver] Write order: AW || W (parallel)
# UVM_INFO ../src/slv/axi4_slave_driver.sv(159) @ 1795000: uvm_test_top.env.slave_agent.drv [axi4_slave_driver] AW received: ID=0xe ADDR=0x810033ac LEN=6
# UVM_INFO ../src/slv/axi4_slave_monitor.sv(116) @ 1795000: uvm_test_top.env.slave_agent.mon [axi4_slave_monitor] AW received: ID=0xe ADDR=0x810033ac LEN=6
# UVM_INFO ../src/mst/axi4_master_monitor.sv(124) @ 1795000: uvm_test_top.env.master_agent.mon [axi4_master_monitor] AW observed: ID=0xe ADDR=0x810033ac LEN=6
# UVM_INFO ../src/mst/axi4_master_monitor.sv(184) @ 1905000: uvm_test_top.env.master_agent.mon [axi4_master_monitor] W data assembled: ID=0xe ADDR=0x810033ac 7 beats
# UVM_INFO ../src/slv/axi4_slave_monitor.sv(167) @ 1905000: uvm_test_top.env.slave_agent.mon [axi4_slave_monitor] W data assembled: ID=0xe ADDR=0x810033ac 7 beats
# UVM_INFO ../src/mst/axi4_master_driver.sv(197) @ 1935000: uvm_test_top.env.master_agent.drv [axi4_master_driver] Write response: AXI4_RESP_OKAY
# UVM_INFO ../src/slv/axi4_slave_driver.sv(223) @ 1935000: uvm_test_top.env.slave_agent.drv [axi4_slave_driver] Write complete: ID=0xe  7 beats stored
# UVM_INFO ../src/slv/axi4_slave_monitor.sv(189) @ 1935000: uvm_test_top.env.slave_agent.mon [axi4_slave_monitor] Write response sent: ID=0xe ADDR=0x810033ac RESP=AXI4_RESP_OKAY
# UVM_INFO ../src/env/axi4_scoreboard.sv(103) @ 1935000: uvm_test_top.env.scb [axi4_scoreboard] Slave AXI4_WRITE received: ID=0xe ADDR=0x810033ac LEN=6
# UVM_INFO ../src/mst/axi4_master_monitor.sv(210) @ 1935000: uvm_test_top.env.master_agent.mon [axi4_master_monitor] Write complete: ID=0xe ADDR=0x810033ac RESP=AXI4_RESP_OKAY
# UVM_INFO ../src/env/axi4_scoreboard.sv(82) @ 1935000: uvm_test_top.env.scb [axi4_scoreboard] Master AXI4_WRITE received: ID=0xe ADDR=0x810033ac LEN=6
# UVM_INFO ../src/env/axi4_scoreboard.sv(154) @ 1935000: uvm_test_top.env.scb [axi4_scoreboard] [WRITE] MATCH #9: ID=0xe ADDR=0x810033ac LEN=6
# UVM_INFO ../src/seq/axi4_write_read_back_seq.sv(60) @ 1935000: uvm_test_top.env.master_agent.sqr@@wr_rd_seq_4 [axi4_write_read_back_seq] Write phase: ADDR=0x810033ac LEN=6 SIZE=AXI4_SIZE_4B BURST=AXI4_BURST_INCR
# UVM_INFO ../src/mst/axi4_master_driver.sv(55) @ 1935000: uvm_test_top.env.master_agent.drv [axi4_master_driver] Driving AXI4_READ  ID=0x0  ADDR=0x810033ac  LEN=6
# UVM_INFO ../src/slv/axi4_slave_driver.sv(259) @ 1965000: uvm_test_top.env.slave_agent.drv [axi4_slave_driver] AR received: ID=0x0 ADDR=0x810033ac LEN=6
# UVM_INFO ../src/mst/axi4_master_monitor.sv(246) @ 1965000: uvm_test_top.env.master_agent.mon [axi4_master_monitor] AR observed: ID=0x0 ADDR=0x810033ac LEN=6
# UVM_INFO ../src/slv/axi4_slave_monitor.sv(224) @ 1965000: uvm_test_top.env.slave_agent.mon [axi4_slave_monitor] AR received: ID=0x0 ADDR=0x810033ac LEN=6
# UVM_INFO ../src/mst/axi4_master_driver.sv(254) @ 2105000: uvm_test_top.env.master_agent.drv [axi4_master_driver] Read complete: 7 beats received
# UVM_INFO ../src/slv/axi4_slave_driver.sv(293) @ 2105000: uvm_test_top.env.slave_agent.drv [axi4_slave_driver] Read complete: ID=0x0  7 beats sent
# UVM_INFO ../src/mst/axi4_master_monitor.sv(314) @ 2105000: uvm_test_top.env.master_agent.mon [axi4_master_monitor] Read complete: ID=0x0 ADDR=0x810033ac 7 beats
# UVM_INFO ../src/env/axi4_scoreboard.sv(82) @ 2105000: uvm_test_top.env.scb [axi4_scoreboard] Master AXI4_READ received: ID=0x0 ADDR=0x810033ac LEN=6
# UVM_INFO ../src/slv/axi4_slave_monitor.sv(287) @ 2105000: uvm_test_top.env.slave_agent.mon [axi4_slave_monitor] Read data sent: ID=0x0 ADDR=0x810033ac 7 beats
# UVM_INFO ../src/env/axi4_scoreboard.sv(103) @ 2105000: uvm_test_top.env.scb [axi4_scoreboard] Slave AXI4_READ received: ID=0x0 ADDR=0x810033ac LEN=6
# UVM_INFO ../src/env/axi4_scoreboard.sv(154) @ 2105000: uvm_test_top.env.scb [axi4_scoreboard] [READ] MATCH #10: ID=0x0 ADDR=0x810033ac LEN=6
# UVM_INFO ../src/seq/axi4_write_read_back_seq.sv(80) @ 2105000: uvm_test_top.env.master_agent.sqr@@wr_rd_seq_4 [axi4_write_read_back_seq] Read-back phase: ADDR=0x810033ac LEN=6 - data integrity check via scoreboard
# UVM_INFO ../src/test/axi4_wr_rd_test.sv(52) @ 2105000: uvm_test_top [axi4_wr_rd_test] [6/10] ADDR=0x9901da22 LEN=8 BURST=AXI4_BURST_INCR
# UVM_INFO ../src/mst/axi4_master_driver.sv(55) @ 2105000: uvm_test_top.env.master_agent.drv [axi4_master_driver] Driving AXI4_WRITE  ID=0x5  ADDR=0x9901da22  LEN=8
# UVM_INFO ../src/mst/axi4_master_driver.sv(101) @ 2105000: uvm_test_top.env.master_agent.drv [axi4_master_driver] Write order: AW -> W (sequential)
# UVM_INFO ../src/slv/axi4_slave_driver.sv(159) @ 2135000: uvm_test_top.env.slave_agent.drv [axi4_slave_driver] AW received: ID=0x5 ADDR=0x9901da22 LEN=8
# UVM_INFO ../src/slv/axi4_slave_monitor.sv(116) @ 2135000: uvm_test_top.env.slave_agent.mon [axi4_slave_monitor] AW received: ID=0x5 ADDR=0x9901da22 LEN=8
# UVM_INFO ../src/mst/axi4_master_monitor.sv(124) @ 2135000: uvm_test_top.env.master_agent.mon [axi4_master_monitor] AW observed: ID=0x5 ADDR=0x9901da22 LEN=8
# UVM_INFO ../src/slv/axi4_slave_monitor.sv(167) @ 2315000: uvm_test_top.env.slave_agent.mon [axi4_slave_monitor] W data assembled: ID=0x5 ADDR=0x9901da22 9 beats
# UVM_INFO ../src/mst/axi4_master_monitor.sv(184) @ 2315000: uvm_test_top.env.master_agent.mon [axi4_master_monitor] W data assembled: ID=0x5 ADDR=0x9901da22 9 beats
# UVM_INFO ../src/mst/axi4_master_driver.sv(197) @ 2345000: uvm_test_top.env.master_agent.drv [axi4_master_driver] Write response: AXI4_RESP_OKAY
# UVM_INFO ../src/slv/axi4_slave_driver.sv(223) @ 2345000: uvm_test_top.env.slave_agent.drv [axi4_slave_driver] Write complete: ID=0x5  9 beats stored
# UVM_INFO ../src/mst/axi4_master_monitor.sv(210) @ 2345000: uvm_test_top.env.master_agent.mon [axi4_master_monitor] Write complete: ID=0x5 ADDR=0x9901da22 RESP=AXI4_RESP_OKAY
# UVM_INFO ../src/env/axi4_scoreboard.sv(82) @ 2345000: uvm_test_top.env.scb [axi4_scoreboard] Master AXI4_WRITE received: ID=0x5 ADDR=0x9901da22 LEN=8
# UVM_INFO ../src/slv/axi4_slave_monitor.sv(189) @ 2345000: uvm_test_top.env.slave_agent.mon [axi4_slave_monitor] Write response sent: ID=0x5 ADDR=0x9901da22 RESP=AXI4_RESP_OKAY
# UVM_INFO ../src/env/axi4_scoreboard.sv(103) @ 2345000: uvm_test_top.env.scb [axi4_scoreboard] Slave AXI4_WRITE received: ID=0x5 ADDR=0x9901da22 LEN=8
# UVM_INFO ../src/env/axi4_scoreboard.sv(154) @ 2345000: uvm_test_top.env.scb [axi4_scoreboard] [WRITE] MATCH #11: ID=0x5 ADDR=0x9901da22 LEN=8
# UVM_INFO ../src/seq/axi4_write_read_back_seq.sv(60) @ 2345000: uvm_test_top.env.master_agent.sqr@@wr_rd_seq_5 [axi4_write_read_back_seq] Write phase: ADDR=0x9901da22 LEN=8 SIZE=AXI4_SIZE_4B BURST=AXI4_BURST_INCR
# UVM_INFO ../src/mst/axi4_master_driver.sv(55) @ 2345000: uvm_test_top.env.master_agent.drv [axi4_master_driver] Driving AXI4_READ  ID=0x5  ADDR=0x9901da22  LEN=8
# UVM_INFO ../src/slv/axi4_slave_driver.sv(259) @ 2375000: uvm_test_top.env.slave_agent.drv [axi4_slave_driver] AR received: ID=0x5 ADDR=0x9901da22 LEN=8
# UVM_INFO ../src/slv/axi4_slave_monitor.sv(224) @ 2375000: uvm_test_top.env.slave_agent.mon [axi4_slave_monitor] AR received: ID=0x5 ADDR=0x9901da22 LEN=8
# UVM_INFO ../src/mst/axi4_master_monitor.sv(246) @ 2375000: uvm_test_top.env.master_agent.mon [axi4_master_monitor] AR observed: ID=0x5 ADDR=0x9901da22 LEN=8
# UVM_INFO ../src/mst/axi4_master_driver.sv(254) @ 2555000: uvm_test_top.env.master_agent.drv [axi4_master_driver] Read complete: 9 beats received
# UVM_INFO ../src/slv/axi4_slave_driver.sv(293) @ 2555000: uvm_test_top.env.slave_agent.drv [axi4_slave_driver] Read complete: ID=0x5  9 beats sent
# UVM_INFO ../src/slv/axi4_slave_monitor.sv(287) @ 2555000: uvm_test_top.env.slave_agent.mon [axi4_slave_monitor] Read data sent: ID=0x5 ADDR=0x9901da22 9 beats
# UVM_INFO ../src/env/axi4_scoreboard.sv(103) @ 2555000: uvm_test_top.env.scb [axi4_scoreboard] Slave AXI4_READ received: ID=0x5 ADDR=0x9901da22 LEN=8
# UVM_INFO ../src/mst/axi4_master_monitor.sv(314) @ 2555000: uvm_test_top.env.master_agent.mon [axi4_master_monitor] Read complete: ID=0x5 ADDR=0x9901da22 9 beats
# UVM_INFO ../src/env/axi4_scoreboard.sv(82) @ 2555000: uvm_test_top.env.scb [axi4_scoreboard] Master AXI4_READ received: ID=0x5 ADDR=0x9901da22 LEN=8
# UVM_INFO ../src/env/axi4_scoreboard.sv(154) @ 2555000: uvm_test_top.env.scb [axi4_scoreboard] [READ] MATCH #12: ID=0x5 ADDR=0x9901da22 LEN=8
# UVM_INFO ../src/seq/axi4_write_read_back_seq.sv(80) @ 2555000: uvm_test_top.env.master_agent.sqr@@wr_rd_seq_5 [axi4_write_read_back_seq] Read-back phase: ADDR=0x9901da22 LEN=8 - data integrity check via scoreboard
# UVM_INFO ../src/test/axi4_wr_rd_test.sv(52) @ 2555000: uvm_test_top [axi4_wr_rd_test] [7/10] ADDR=0x958155d7 LEN=0 BURST=AXI4_BURST_INCR
# UVM_INFO ../src/mst/axi4_master_driver.sv(55) @ 2555000: uvm_test_top.env.master_agent.drv [axi4_master_driver] Driving AXI4_WRITE  ID=0x8  ADDR=0x958155d7  LEN=0
# UVM_INFO ../src/mst/axi4_master_driver.sv(94) @ 2555000: uvm_test_top.env.master_agent.drv [axi4_master_driver] Write order: AW || W (parallel)
# UVM_INFO ../src/slv/axi4_slave_driver.sv(159) @ 2585000: uvm_test_top.env.slave_agent.drv [axi4_slave_driver] AW received: ID=0x8 ADDR=0x958155d7 LEN=0
# UVM_INFO ../src/mst/axi4_master_monitor.sv(124) @ 2585000: uvm_test_top.env.master_agent.mon [axi4_master_monitor] AW observed: ID=0x8 ADDR=0x958155d7 LEN=0
# UVM_INFO ../src/slv/axi4_slave_monitor.sv(116) @ 2585000: uvm_test_top.env.slave_agent.mon [axi4_slave_monitor] AW received: ID=0x8 ADDR=0x958155d7 LEN=0
# UVM_INFO ../src/mst/axi4_master_monitor.sv(184) @ 2585000: uvm_test_top.env.master_agent.mon [axi4_master_monitor] W data assembled: ID=0x8 ADDR=0x958155d7 1 beats
# UVM_INFO ../src/slv/axi4_slave_monitor.sv(167) @ 2585000: uvm_test_top.env.slave_agent.mon [axi4_slave_monitor] W data assembled: ID=0x8 ADDR=0x958155d7 1 beats
# UVM_INFO ../src/mst/axi4_master_driver.sv(197) @ 2605000: uvm_test_top.env.master_agent.drv [axi4_master_driver] Write response: AXI4_RESP_OKAY
# UVM_INFO ../src/slv/axi4_slave_driver.sv(223) @ 2605000: uvm_test_top.env.slave_agent.drv [axi4_slave_driver] Write complete: ID=0x8  1 beats stored
# UVM_INFO ../src/mst/axi4_master_monitor.sv(210) @ 2605000: uvm_test_top.env.master_agent.mon [axi4_master_monitor] Write complete: ID=0x8 ADDR=0x958155d7 RESP=AXI4_RESP_OKAY
# UVM_INFO ../src/env/axi4_scoreboard.sv(82) @ 2605000: uvm_test_top.env.scb [axi4_scoreboard] Master AXI4_WRITE received: ID=0x8 ADDR=0x958155d7 LEN=0
# UVM_INFO ../src/slv/axi4_slave_monitor.sv(189) @ 2605000: uvm_test_top.env.slave_agent.mon [axi4_slave_monitor] Write response sent: ID=0x8 ADDR=0x958155d7 RESP=AXI4_RESP_OKAY
# UVM_INFO ../src/env/axi4_scoreboard.sv(103) @ 2605000: uvm_test_top.env.scb [axi4_scoreboard] Slave AXI4_WRITE received: ID=0x8 ADDR=0x958155d7 LEN=0
# UVM_INFO ../src/env/axi4_scoreboard.sv(154) @ 2605000: uvm_test_top.env.scb [axi4_scoreboard] [WRITE] MATCH #13: ID=0x8 ADDR=0x958155d7 LEN=0
# UVM_INFO ../src/seq/axi4_write_read_back_seq.sv(60) @ 2605000: uvm_test_top.env.master_agent.sqr@@wr_rd_seq_6 [axi4_write_read_back_seq] Write phase: ADDR=0x958155d7 LEN=0 SIZE=AXI4_SIZE_4B BURST=AXI4_BURST_INCR
# UVM_INFO ../src/mst/axi4_master_driver.sv(55) @ 2605000: uvm_test_top.env.master_agent.drv [axi4_master_driver] Driving AXI4_READ  ID=0x5  ADDR=0x958155d7  LEN=0
# UVM_INFO ../src/slv/axi4_slave_driver.sv(259) @ 2635000: uvm_test_top.env.slave_agent.drv [axi4_slave_driver] AR received: ID=0x5 ADDR=0x958155d7 LEN=0
# UVM_INFO ../src/slv/axi4_slave_monitor.sv(224) @ 2635000: uvm_test_top.env.slave_agent.mon [axi4_slave_monitor] AR received: ID=0x5 ADDR=0x958155d7 LEN=0
# UVM_INFO ../src/mst/axi4_master_monitor.sv(246) @ 2635000: uvm_test_top.env.master_agent.mon [axi4_master_monitor] AR observed: ID=0x5 ADDR=0x958155d7 LEN=0
# UVM_INFO ../src/mst/axi4_master_driver.sv(254) @ 2655000: uvm_test_top.env.master_agent.drv [axi4_master_driver] Read complete: 1 beats received
# UVM_INFO ../src/slv/axi4_slave_driver.sv(293) @ 2655000: uvm_test_top.env.slave_agent.drv [axi4_slave_driver] Read complete: ID=0x5  1 beats sent
# UVM_INFO ../src/slv/axi4_slave_monitor.sv(287) @ 2655000: uvm_test_top.env.slave_agent.mon [axi4_slave_monitor] Read data sent: ID=0x5 ADDR=0x958155d7 1 beats
# UVM_INFO ../src/env/axi4_scoreboard.sv(103) @ 2655000: uvm_test_top.env.scb [axi4_scoreboard] Slave AXI4_READ received: ID=0x5 ADDR=0x958155d7 LEN=0
# UVM_INFO ../src/mst/axi4_master_monitor.sv(314) @ 2655000: uvm_test_top.env.master_agent.mon [axi4_master_monitor] Read complete: ID=0x5 ADDR=0x958155d7 1 beats
# UVM_INFO ../src/env/axi4_scoreboard.sv(82) @ 2655000: uvm_test_top.env.scb [axi4_scoreboard] Master AXI4_READ received: ID=0x5 ADDR=0x958155d7 LEN=0
# UVM_INFO ../src/env/axi4_scoreboard.sv(154) @ 2655000: uvm_test_top.env.scb [axi4_scoreboard] [READ] MATCH #14: ID=0x5 ADDR=0x958155d7 LEN=0
# UVM_INFO ../src/seq/axi4_write_read_back_seq.sv(80) @ 2655000: uvm_test_top.env.master_agent.sqr@@wr_rd_seq_6 [axi4_write_read_back_seq] Read-back phase: ADDR=0x958155d7 LEN=0 - data integrity check via scoreboard
# UVM_INFO ../src/test/axi4_wr_rd_test.sv(52) @ 2655000: uvm_test_top [axi4_wr_rd_test] [8/10] ADDR=0xbe19babb LEN=11 BURST=AXI4_BURST_INCR
# UVM_INFO ../src/mst/axi4_master_driver.sv(55) @ 2655000: uvm_test_top.env.master_agent.drv [axi4_master_driver] Driving AXI4_WRITE  ID=0xf  ADDR=0xbe19babb  LEN=11
# UVM_INFO ../src/mst/axi4_master_driver.sv(94) @ 2655000: uvm_test_top.env.master_agent.drv [axi4_master_driver] Write order: AW || W (parallel)
# UVM_INFO ../src/slv/axi4_slave_driver.sv(159) @ 2685000: uvm_test_top.env.slave_agent.drv [axi4_slave_driver] AW received: ID=0xf ADDR=0xbe19babb LEN=11
# UVM_INFO ../src/mst/axi4_master_monitor.sv(124) @ 2685000: uvm_test_top.env.master_agent.mon [axi4_master_monitor] AW observed: ID=0xf ADDR=0xbe19babb LEN=11
# UVM_INFO ../src/slv/axi4_slave_monitor.sv(116) @ 2685000: uvm_test_top.env.slave_agent.mon [axi4_slave_monitor] AW received: ID=0xf ADDR=0xbe19babb LEN=11
# UVM_INFO ../src/slv/axi4_slave_monitor.sv(167) @ 2895000: uvm_test_top.env.slave_agent.mon [axi4_slave_monitor] W data assembled: ID=0xf ADDR=0xbe19babb 12 beats
# UVM_INFO ../src/mst/axi4_master_monitor.sv(184) @ 2895000: uvm_test_top.env.master_agent.mon [axi4_master_monitor] W data assembled: ID=0xf ADDR=0xbe19babb 12 beats
# UVM_INFO ../src/mst/axi4_master_driver.sv(197) @ 2925000: uvm_test_top.env.master_agent.drv [axi4_master_driver] Write response: AXI4_RESP_OKAY
# UVM_INFO ../src/slv/axi4_slave_driver.sv(223) @ 2925000: uvm_test_top.env.slave_agent.drv [axi4_slave_driver] Write complete: ID=0xf  12 beats stored
# UVM_INFO ../src/mst/axi4_master_monitor.sv(210) @ 2925000: uvm_test_top.env.master_agent.mon [axi4_master_monitor] Write complete: ID=0xf ADDR=0xbe19babb RESP=AXI4_RESP_OKAY
# UVM_INFO ../src/env/axi4_scoreboard.sv(82) @ 2925000: uvm_test_top.env.scb [axi4_scoreboard] Master AXI4_WRITE received: ID=0xf ADDR=0xbe19babb LEN=11
# UVM_INFO ../src/slv/axi4_slave_monitor.sv(189) @ 2925000: uvm_test_top.env.slave_agent.mon [axi4_slave_monitor] Write response sent: ID=0xf ADDR=0xbe19babb RESP=AXI4_RESP_OKAY
# UVM_INFO ../src/env/axi4_scoreboard.sv(103) @ 2925000: uvm_test_top.env.scb [axi4_scoreboard] Slave AXI4_WRITE received: ID=0xf ADDR=0xbe19babb LEN=11
# UVM_INFO ../src/env/axi4_scoreboard.sv(154) @ 2925000: uvm_test_top.env.scb [axi4_scoreboard] [WRITE] MATCH #15: ID=0xf ADDR=0xbe19babb LEN=11
# UVM_INFO ../src/seq/axi4_write_read_back_seq.sv(60) @ 2925000: uvm_test_top.env.master_agent.sqr@@wr_rd_seq_7 [axi4_write_read_back_seq] Write phase: ADDR=0xbe19babb LEN=11 SIZE=AXI4_SIZE_4B BURST=AXI4_BURST_INCR
# UVM_INFO ../src/mst/axi4_master_driver.sv(55) @ 2925000: uvm_test_top.env.master_agent.drv [axi4_master_driver] Driving AXI4_READ  ID=0x2  ADDR=0xbe19babb  LEN=11
# UVM_INFO ../src/slv/axi4_slave_driver.sv(259) @ 2955000: uvm_test_top.env.slave_agent.drv [axi4_slave_driver] AR received: ID=0x2 ADDR=0xbe19babb LEN=11
# UVM_INFO ../src/slv/axi4_slave_monitor.sv(224) @ 2955000: uvm_test_top.env.slave_agent.mon [axi4_slave_monitor] AR received: ID=0x2 ADDR=0xbe19babb LEN=11
# UVM_INFO ../src/mst/axi4_master_monitor.sv(246) @ 2955000: uvm_test_top.env.master_agent.mon [axi4_master_monitor] AR observed: ID=0x2 ADDR=0xbe19babb LEN=11
# UVM_INFO ../src/mst/axi4_master_driver.sv(254) @ 3195000: uvm_test_top.env.master_agent.drv [axi4_master_driver] Read complete: 12 beats received
# UVM_INFO ../src/slv/axi4_slave_driver.sv(293) @ 3195000: uvm_test_top.env.slave_agent.drv [axi4_slave_driver] Read complete: ID=0x2  12 beats sent
# UVM_INFO ../src/slv/axi4_slave_monitor.sv(287) @ 3195000: uvm_test_top.env.slave_agent.mon [axi4_slave_monitor] Read data sent: ID=0x2 ADDR=0xbe19babb 12 beats
# UVM_INFO ../src/env/axi4_scoreboard.sv(103) @ 3195000: uvm_test_top.env.scb [axi4_scoreboard] Slave AXI4_READ received: ID=0x2 ADDR=0xbe19babb LEN=11
# UVM_INFO ../src/mst/axi4_master_monitor.sv(314) @ 3195000: uvm_test_top.env.master_agent.mon [axi4_master_monitor] Read complete: ID=0x2 ADDR=0xbe19babb 12 beats
# UVM_INFO ../src/env/axi4_scoreboard.sv(82) @ 3195000: uvm_test_top.env.scb [axi4_scoreboard] Master AXI4_READ received: ID=0x2 ADDR=0xbe19babb LEN=11
# UVM_INFO ../src/env/axi4_scoreboard.sv(154) @ 3195000: uvm_test_top.env.scb [axi4_scoreboard] [READ] MATCH #16: ID=0x2 ADDR=0xbe19babb LEN=11
# UVM_INFO ../src/seq/axi4_write_read_back_seq.sv(80) @ 3195000: uvm_test_top.env.master_agent.sqr@@wr_rd_seq_7 [axi4_write_read_back_seq] Read-back phase: ADDR=0xbe19babb LEN=11 - data integrity check via scoreboard
# UVM_INFO ../src/test/axi4_wr_rd_test.sv(52) @ 3195000: uvm_test_top [axi4_wr_rd_test] [9/10] ADDR=0x23bee351 LEN=0 BURST=AXI4_BURST_INCR
# UVM_INFO ../src/mst/axi4_master_driver.sv(55) @ 3195000: uvm_test_top.env.master_agent.drv [axi4_master_driver] Driving AXI4_WRITE  ID=0x8  ADDR=0x23bee351  LEN=0
# UVM_INFO ../src/mst/axi4_master_driver.sv(94) @ 3195000: uvm_test_top.env.master_agent.drv [axi4_master_driver] Write order: AW || W (parallel)
# UVM_INFO ../src/slv/axi4_slave_driver.sv(159) @ 3225000: uvm_test_top.env.slave_agent.drv [axi4_slave_driver] AW received: ID=0x8 ADDR=0x23bee351 LEN=0
# UVM_INFO ../src/mst/axi4_master_monitor.sv(124) @ 3225000: uvm_test_top.env.master_agent.mon [axi4_master_monitor] AW observed: ID=0x8 ADDR=0x23bee351 LEN=0
# UVM_INFO ../src/slv/axi4_slave_monitor.sv(116) @ 3225000: uvm_test_top.env.slave_agent.mon [axi4_slave_monitor] AW received: ID=0x8 ADDR=0x23bee351 LEN=0
# UVM_INFO ../src/mst/axi4_master_monitor.sv(184) @ 3225000: uvm_test_top.env.master_agent.mon [axi4_master_monitor] W data assembled: ID=0x8 ADDR=0x23bee351 1 beats
# UVM_INFO ../src/slv/axi4_slave_monitor.sv(167) @ 3225000: uvm_test_top.env.slave_agent.mon [axi4_slave_monitor] W data assembled: ID=0x8 ADDR=0x23bee351 1 beats
# UVM_INFO ../src/mst/axi4_master_driver.sv(197) @ 3245000: uvm_test_top.env.master_agent.drv [axi4_master_driver] Write response: AXI4_RESP_OKAY
# UVM_INFO ../src/slv/axi4_slave_driver.sv(223) @ 3245000: uvm_test_top.env.slave_agent.drv [axi4_slave_driver] Write complete: ID=0x8  1 beats stored
# UVM_INFO ../src/mst/axi4_master_monitor.sv(210) @ 3245000: uvm_test_top.env.master_agent.mon [axi4_master_monitor] Write complete: ID=0x8 ADDR=0x23bee351 RESP=AXI4_RESP_OKAY
# UVM_INFO ../src/env/axi4_scoreboard.sv(82) @ 3245000: uvm_test_top.env.scb [axi4_scoreboard] Master AXI4_WRITE received: ID=0x8 ADDR=0x23bee351 LEN=0
# UVM_INFO ../src/slv/axi4_slave_monitor.sv(189) @ 3245000: uvm_test_top.env.slave_agent.mon [axi4_slave_monitor] Write response sent: ID=0x8 ADDR=0x23bee351 RESP=AXI4_RESP_OKAY
# UVM_INFO ../src/env/axi4_scoreboard.sv(103) @ 3245000: uvm_test_top.env.scb [axi4_scoreboard] Slave AXI4_WRITE received: ID=0x8 ADDR=0x23bee351 LEN=0
# UVM_INFO ../src/env/axi4_scoreboard.sv(154) @ 3245000: uvm_test_top.env.scb [axi4_scoreboard] [WRITE] MATCH #17: ID=0x8 ADDR=0x23bee351 LEN=0
# UVM_INFO ../src/seq/axi4_write_read_back_seq.sv(60) @ 3245000: uvm_test_top.env.master_agent.sqr@@wr_rd_seq_8 [axi4_write_read_back_seq] Write phase: ADDR=0x23bee351 LEN=0 SIZE=AXI4_SIZE_4B BURST=AXI4_BURST_INCR
# UVM_INFO ../src/mst/axi4_master_driver.sv(55) @ 3245000: uvm_test_top.env.master_agent.drv [axi4_master_driver] Driving AXI4_READ  ID=0xc  ADDR=0x23bee351  LEN=0
# UVM_INFO ../src/slv/axi4_slave_driver.sv(259) @ 3275000: uvm_test_top.env.slave_agent.drv [axi4_slave_driver] AR received: ID=0xc ADDR=0x23bee351 LEN=0
# UVM_INFO ../src/slv/axi4_slave_monitor.sv(224) @ 3275000: uvm_test_top.env.slave_agent.mon [axi4_slave_monitor] AR received: ID=0xc ADDR=0x23bee351 LEN=0
# UVM_INFO ../src/mst/axi4_master_monitor.sv(246) @ 3275000: uvm_test_top.env.master_agent.mon [axi4_master_monitor] AR observed: ID=0xc ADDR=0x23bee351 LEN=0
# UVM_INFO ../src/mst/axi4_master_driver.sv(254) @ 3295000: uvm_test_top.env.master_agent.drv [axi4_master_driver] Read complete: 1 beats received
# UVM_INFO ../src/slv/axi4_slave_driver.sv(293) @ 3295000: uvm_test_top.env.slave_agent.drv [axi4_slave_driver] Read complete: ID=0xc  1 beats sent
# UVM_INFO ../src/slv/axi4_slave_monitor.sv(287) @ 3295000: uvm_test_top.env.slave_agent.mon [axi4_slave_monitor] Read data sent: ID=0xc ADDR=0x23bee351 1 beats
# UVM_INFO ../src/env/axi4_scoreboard.sv(103) @ 3295000: uvm_test_top.env.scb [axi4_scoreboard] Slave AXI4_READ received: ID=0xc ADDR=0x23bee351 LEN=0
# UVM_INFO ../src/mst/axi4_master_monitor.sv(314) @ 3295000: uvm_test_top.env.master_agent.mon [axi4_master_monitor] Read complete: ID=0xc ADDR=0x23bee351 1 beats
# UVM_INFO ../src/env/axi4_scoreboard.sv(82) @ 3295000: uvm_test_top.env.scb [axi4_scoreboard] Master AXI4_READ received: ID=0xc ADDR=0x23bee351 LEN=0
# UVM_INFO ../src/env/axi4_scoreboard.sv(154) @ 3295000: uvm_test_top.env.scb [axi4_scoreboard] [READ] MATCH #18: ID=0xc ADDR=0x23bee351 LEN=0
# UVM_INFO ../src/seq/axi4_write_read_back_seq.sv(80) @ 3295000: uvm_test_top.env.master_agent.sqr@@wr_rd_seq_8 [axi4_write_read_back_seq] Read-back phase: ADDR=0x23bee351 LEN=0 - data integrity check via scoreboard
# UVM_INFO ../src/test/axi4_wr_rd_test.sv(52) @ 3295000: uvm_test_top [axi4_wr_rd_test] [10/10] ADDR=0x8d14c543 LEN=12 BURST=AXI4_BURST_INCR
# UVM_INFO ../src/mst/axi4_master_driver.sv(55) @ 3295000: uvm_test_top.env.master_agent.drv [axi4_master_driver] Driving AXI4_WRITE  ID=0xd  ADDR=0x8d14c543  LEN=12
# UVM_INFO ../src/mst/axi4_master_driver.sv(106) @ 3295000: uvm_test_top.env.master_agent.drv [axi4_master_driver] Write order: W -> AW (W first)
# UVM_INFO ../src/slv/axi4_slave_driver.sv(159) @ 3375000: uvm_test_top.env.slave_agent.drv [axi4_slave_driver] AW received: ID=0xd ADDR=0x8d14c543 LEN=12
# UVM_INFO ../src/slv/axi4_slave_monitor.sv(116) @ 3375000: uvm_test_top.env.slave_agent.mon [axi4_slave_monitor] AW received: ID=0xd ADDR=0x8d14c543 LEN=12
# UVM_INFO ../src/mst/axi4_master_monitor.sv(124) @ 3375000: uvm_test_top.env.master_agent.mon [axi4_master_monitor] AW observed: ID=0xd ADDR=0x8d14c543 LEN=12
# UVM_INFO ../src/slv/axi4_slave_monitor.sv(167) @ 3555000: uvm_test_top.env.slave_agent.mon [axi4_slave_monitor] W data assembled: ID=0xd ADDR=0x8d14c543 13 beats
# UVM_INFO ../src/mst/axi4_master_monitor.sv(184) @ 3555000: uvm_test_top.env.master_agent.mon [axi4_master_monitor] W data assembled: ID=0xd ADDR=0x8d14c543 13 beats
# UVM_INFO ../src/mst/axi4_master_driver.sv(197) @ 3585000: uvm_test_top.env.master_agent.drv [axi4_master_driver] Write response: AXI4_RESP_OKAY
# UVM_INFO ../src/slv/axi4_slave_driver.sv(223) @ 3585000: uvm_test_top.env.slave_agent.drv [axi4_slave_driver] Write complete: ID=0xd  13 beats stored
# UVM_INFO ../src/mst/axi4_master_monitor.sv(210) @ 3585000: uvm_test_top.env.master_agent.mon [axi4_master_monitor] Write complete: ID=0xd ADDR=0x8d14c543 RESP=AXI4_RESP_OKAY
# UVM_INFO ../src/env/axi4_scoreboard.sv(82) @ 3585000: uvm_test_top.env.scb [axi4_scoreboard] Master AXI4_WRITE received: ID=0xd ADDR=0x8d14c543 LEN=12
# UVM_INFO ../src/slv/axi4_slave_monitor.sv(189) @ 3585000: uvm_test_top.env.slave_agent.mon [axi4_slave_monitor] Write response sent: ID=0xd ADDR=0x8d14c543 RESP=AXI4_RESP_OKAY
# UVM_INFO ../src/env/axi4_scoreboard.sv(103) @ 3585000: uvm_test_top.env.scb [axi4_scoreboard] Slave AXI4_WRITE received: ID=0xd ADDR=0x8d14c543 LEN=12
# UVM_INFO ../src/env/axi4_scoreboard.sv(154) @ 3585000: uvm_test_top.env.scb [axi4_scoreboard] [WRITE] MATCH #19: ID=0xd ADDR=0x8d14c543 LEN=12
# UVM_INFO ../src/seq/axi4_write_read_back_seq.sv(60) @ 3585000: uvm_test_top.env.master_agent.sqr@@wr_rd_seq_9 [axi4_write_read_back_seq] Write phase: ADDR=0x8d14c543 LEN=12 SIZE=AXI4_SIZE_4B BURST=AXI4_BURST_INCR
# UVM_INFO ../src/mst/axi4_master_driver.sv(55) @ 3585000: uvm_test_top.env.master_agent.drv [axi4_master_driver] Driving AXI4_READ  ID=0xf  ADDR=0x8d14c543  LEN=12
# UVM_INFO ../src/slv/axi4_slave_driver.sv(259) @ 3615000: uvm_test_top.env.slave_agent.drv [axi4_slave_driver] AR received: ID=0xf ADDR=0x8d14c543 LEN=12
# UVM_INFO ../src/slv/axi4_slave_monitor.sv(224) @ 3615000: uvm_test_top.env.slave_agent.mon [axi4_slave_monitor] AR received: ID=0xf ADDR=0x8d14c543 LEN=12
# UVM_INFO ../src/mst/axi4_master_monitor.sv(246) @ 3615000: uvm_test_top.env.master_agent.mon [axi4_master_monitor] AR observed: ID=0xf ADDR=0x8d14c543 LEN=12
# UVM_INFO ../src/mst/axi4_master_driver.sv(254) @ 3875000: uvm_test_top.env.master_agent.drv [axi4_master_driver] Read complete: 13 beats received
# UVM_INFO ../src/slv/axi4_slave_driver.sv(293) @ 3875000: uvm_test_top.env.slave_agent.drv [axi4_slave_driver] Read complete: ID=0xf  13 beats sent
# UVM_INFO ../src/slv/axi4_slave_monitor.sv(287) @ 3875000: uvm_test_top.env.slave_agent.mon [axi4_slave_monitor] Read data sent: ID=0xf ADDR=0x8d14c543 13 beats
# UVM_INFO ../src/env/axi4_scoreboard.sv(103) @ 3875000: uvm_test_top.env.scb [axi4_scoreboard] Slave AXI4_READ received: ID=0xf ADDR=0x8d14c543 LEN=12
# UVM_INFO ../src/mst/axi4_master_monitor.sv(314) @ 3875000: uvm_test_top.env.master_agent.mon [axi4_master_monitor] Read complete: ID=0xf ADDR=0x8d14c543 13 beats
# UVM_INFO ../src/env/axi4_scoreboard.sv(82) @ 3875000: uvm_test_top.env.scb [axi4_scoreboard] Master AXI4_READ received: ID=0xf ADDR=0x8d14c543 LEN=12
# UVM_INFO ../src/env/axi4_scoreboard.sv(154) @ 3875000: uvm_test_top.env.scb [axi4_scoreboard] [READ] MATCH #20: ID=0xf ADDR=0x8d14c543 LEN=12
# UVM_INFO ../src/seq/axi4_write_read_back_seq.sv(80) @ 3875000: uvm_test_top.env.master_agent.sqr@@wr_rd_seq_9 [axi4_write_read_back_seq] Read-back phase: ADDR=0x8d14c543 LEN=12 - data integrity check via scoreboard
# UVM_INFO ../src/test/axi4_wr_rd_test.sv(62) @ 4375000: uvm_test_top [axi4_wr_rd_test] 10 write-read-back iterations complete
# UVM_INFO verilog_src/uvm-1.1d/src/base/uvm_objection.svh(1268) @ 4375000: reporter [TEST_DONE] 'run' phase is ready to proceed to the 'extract' phase
# UVM_INFO ../src/env/axi4_scoreboard.sv(218) @ 4375000: uvm_test_top.env.scb [axi4_scoreboard] 
# ========================================
#          SCOREBOARD SUMMARY
# ========================================
#   Master transactions : 20
#   Slave transactions  : 20
#   Matches             : 20
#   Mismatches          : 0
#   Unmatched master WR : 0
#   Unmatched master RD : 0
#   Unmatched slave  WR : 0
#   Unmatched slave  RD : 0
# ========================================
#   RESULT : PASS
# ========================================
# UVM_INFO ../src/test/axi4_base_test.sv(91) @ 4375000: uvm_test_top [axi4_wr_rd_test] 
# === TEST PASSED ===
# 
# 
# --- UVM Report Summary ---
# 
# ** Report counts by severity
# UVM_INFO :  304
# UVM_WARNING :    0
# UVM_ERROR :    0
# UVM_FATAL :    0
# ** Report counts by id
# [Questa UVM]     3
# [RNTST]     1
# [TB_TOP]     2
# [TEST_DONE]     1
# [TOP_TB]     1
# [UVMTOP]     1
# [axi4_master_agent]     1
# [axi4_master_driver]    51
# [axi4_master_monitor]    51
# [axi4_scoreboard]    61
# [axi4_slave_agent]     1
# [axi4_slave_driver]    41
# [axi4_slave_monitor]    51
# [axi4_vip_env]     5
# [axi4_wr_rd_test]    13
# [axi4_write_read_back_seq]    20
# ** Note: $finish    : /cadtools/mentor/Questa_10.6b/questasim/linux_x86_64/../verilog_src/uvm-1.1d/src/base/uvm_root.svh(430)
#    Time: 4375 ns  Iteration: 55  Instance: /tb_top
# Saving coverage database on exit...
# End time: 15:31:29 on Jun 04,2026, Elapsed time: 0:00:42
# Errors: 0, Warnings: 0
