# vsim -c -coverage -sv_seed 94242290 "+UVM_TESTNAME=axi4_sanity_test" "+UVM_VERBOSITY=UVM_HIGH" "+DUMP_VCD" -l ./report/logs/axi4_sanity_test_run_4_seed_94242290.log -do "coverage save -onexit ./report/coverage/axi4_sanity_test_run_4_seed_94242290.ucdb; run -all; quit -f" opt_tb_top 
# Start time: 10:53:23 on Jul 09,2026
# //  Questa Sim-64
# //  Version 10.6b linux_x86_64 May 25 2017
# //
# //  Copyright 1991-2017 Mentor Graphics Corporation
# //  All Rights Reserved.
# //
# //  QuestaSim and its associated documentation contain trade
# //  secrets and commercial or financial information that are the property of
# //  Mentor Graphics Corporation and are privileged, confidential,
# //  and exempt from disclosure under the Freedom of Information Act,
# //  5 U.S.C. Section 552. Furthermore, this information
# //  is prohibited from disclosure under the Trade Secrets Act,
# //  18 U.S.C. Section 1905.
# //
# Loading sv_std.std
# Loading work.axi4_if(fast)
# Loading mtiUvm.uvm_pkg
# Loading work.axi4_pkg(fast)
# Loading work.axi4_test_pkg(fast)
# Loading work.tb_top(fast)
# Loading work.axi4_if(fast)
# Loading work.axi4_sva(fast)
# Loading mtiUvm.questa_uvm_pkg(fast)
# Loading /cadtools/mentor/Questa_10.6b/questasim/uvm-1.1d/linux_x86_64/uvm_dpi.so
# coverage save -onexit ./report/coverage/axi4_sanity_test_run_4_seed_94242290.ucdb
#  run -all
# ----------------------------------------------------------------
# UVM-1.1d
# (C) 2007-2013 Mentor Graphics Corporation
# (C) 2007-2013 Cadence Design Systems, Inc.
# (C) 2006-2013 Synopsys, Inc.
# (C) 2011-2013 Cypress Semiconductor Corp.
# ----------------------------------------------------------------
# 
#   ***********       IMPORTANT RELEASE NOTES         ************
# 
#   You are using a version of the UVM library that has been compiled
#   with `UVM_NO_DEPRECATED undefined.
#   See http://www.eda.org/svdb/view.php?id=3313 for more details.
# 
#   You are using a version of the UVM library that has been compiled
#   with `UVM_OBJECT_MUST_HAVE_CONSTRUCTOR undefined.
#   See http://www.eda.org/svdb/view.php?id=3770 for more details.
# 
#       (Specify +UVM_NO_RELNOTES to turn off this notice)
# 
# UVM_INFO verilog_src/questa_uvm_pkg-1.2/src/questa_uvm_pkg.sv(215) @ 0: reporter [Questa UVM] QUESTA_UVM-1.2.3
# UVM_INFO verilog_src/questa_uvm_pkg-1.2/src/questa_uvm_pkg.sv(217) @ 0: reporter [Questa UVM]  questa_uvm::init(+struct)
# UVM_INFO ../src/tb_top.sv(147) @ 0: reporter [TB_TOP] Virtual interface set in config_db
# UVM_INFO @ 0: reporter [RNTST] Running test axi4_sanity_test...
# UVM_INFO ../src/tb_top.sv(161) @ 0: reporter [TB_TOP] Waveform VCD dumping enabled (axi4_vip.vcd)
# UVM_INFO ../src/env/axi4_vip_env.sv(83) @ 0: uvm_test_top.env [axi4_vip_env] slave_vif not set - reusing master_vif (passthrough mode)
# UVM_INFO ../src/env/axi4_vip_env.sv(93) @ 0: uvm_test_top.env [axi4_vip_env] Scoreboard created
# UVM_INFO ../src/env/axi4_vip_env.sv(100) @ 0: uvm_test_top.env [axi4_vip_env] Coverage collectors created
# UVM_INFO ../src/mst/axi4_master_agent.sv(69) @ 0: uvm_test_top.env.master_agent [axi4_master_agent] ACTIVE mode - driver + sequencer created
# UVM_INFO ../src/slv/axi4_slave_agent.sv(82) @ 0: uvm_test_top.env.slave_agent [axi4_slave_agent] ACTIVE mode - ready_delay=[0:0] resp_delay=[0:0]
# UVM_INFO ../src/env/axi4_vip_env.sv(116) @ 0: uvm_test_top.env [axi4_vip_env] Scoreboard connected: master_mon.ap -> scb, slave_mon.ap -> scb
# UVM_INFO ../src/env/axi4_vip_env.sv(124) @ 0: uvm_test_top.env [axi4_vip_env] Coverage connected: master_mon.ap -> master_cov, slave_mon.ap -> slave_cov
# UVM_INFO @ 0: reporter [UVMTOP] UVM testbench topology:
# ---------------------------------------------------------------
# Name                       Type                     Size  Value
# ---------------------------------------------------------------
# uvm_test_top               axi4_sanity_test         -     @475 
#   env                      axi4_vip_env             -     @490 
#     master_agent           axi4_master_agent        -     @505 
#       drv                  axi4_master_driver       -     @569 
#         rsp_port           uvm_analysis_port        -     @584 
#         seq_item_port      uvm_seq_item_pull_port   -     @576 
#       mon                  axi4_master_monitor      -     @561 
#         ap                 uvm_analysis_port        -     @702 
#       sqr                  axi4_master_sequencer    -     @592 
#         rsp_export         uvm_analysis_export      -     @599 
#         seq_item_export    uvm_seq_item_pull_imp    -     @693 
#         arbitration_queue  array                    0     -    
#         lock_queue         array                    0     -    
#         num_last_reqs      integral                 32    'd1  
#         num_last_rsps      integral                 32    'd1  
#     master_cov             axi4_coverage            -     @526 
#       analysis_imp         uvm_analysis_imp         -     @533 
#     scb                    axi4_scoreboard          -     @519 
#       master_export        uvm_analysis_imp_master  -     @716 
#       slave_export         uvm_analysis_imp_slave   -     @724 
#     slave_agent            axi4_slave_agent         -     @512 
#       drv                  axi4_slave_driver        -     @755 
#         rsp_port           uvm_analysis_port        -     @770 
#         seq_item_port      uvm_seq_item_pull_port   -     @762 
#       mon                  axi4_slave_monitor       -     @737 
#         ap                 uvm_analysis_port        -     @894 
#       sqr                  axi4_slave_sequencer     -     @778 
#         rsp_export         uvm_analysis_export      -     @785 
#         seq_item_export    uvm_seq_item_pull_imp    -     @879 
#         arbitration_queue  array                    0     -    
#         lock_queue         array                    0     -    
#         num_last_reqs      integral                 32    'd1  
#         num_last_rsps      integral                 32    'd1  
#     slave_cov              axi4_coverage            -     @541 
#       analysis_imp         uvm_analysis_imp         -     @548 
# ---------------------------------------------------------------
# 
# UVM_INFO verilog_src/questa_uvm_pkg-1.2/src/questa_uvm_pkg.sv(277) @ 0: reporter [Questa UVM] End Of Elaboration
# UVM_INFO ../src/test/axi4_sanity_test.sv(37) @ 0: uvm_test_top [axi4_sanity_test] Starting sanity test with 10 write-read-back iterations
# UVM_INFO ../src/test/axi4_sanity_test.sv(52) @ 0: uvm_test_top [axi4_sanity_test] [1/10] ADDR=0x4b12f0df LEN=8 BURST=AXI4_BURST_INCR
# UVM_INFO ../src/tb_top.sv(49) @ 95000: reporter [TOP_TB] Reset de-asserted
# UVM_INFO ../src/slv/axi4_slave_driver.sv(131) @ 95000: uvm_test_top.env.slave_agent.drv [axi4_slave_driver] Reset deasserted - slave driver active
# UVM_INFO ../src/mst/axi4_master_driver.sv(64) @ 95000: uvm_test_top.env.master_agent.drv [axi4_master_driver] Reset deasserted - master driver active
# UVM_INFO ../src/mst/axi4_master_monitor.sv(77) @ 95000: uvm_test_top.env.master_agent.mon [axi4_master_monitor] Reset deasserted - monitor active
# UVM_INFO ../src/slv/axi4_slave_monitor.sv(71) @ 95000: uvm_test_top.env.slave_agent.mon [axi4_slave_monitor] Reset deasserted - monitor active
# UVM_INFO ../src/mst/axi4_master_driver.sv(73) @ 95000: uvm_test_top.env.master_agent.drv [axi4_master_driver] Driving AXI4_WRITE  ID=0x4  ADDR=0x4b12f0df  LEN=8
# UVM_INFO ../src/slv/axi4_slave_driver.sv(228) @ 145000: uvm_test_top.env.slave_agent.drv [axi4_slave_driver] AW received: ID=0x4 ADDR=0x4b12f0df LEN=8 LOCK=AXI4_LOCK_NORMAL
# UVM_INFO ../src/mst/axi4_master_monitor.sv(124) @ 145000: uvm_test_top.env.master_agent.mon [axi4_master_monitor] AW observed: ID=0x4 ADDR=0x4b12f0df LEN=8
# UVM_INFO ../src/slv/axi4_slave_monitor.sv(116) @ 145000: uvm_test_top.env.slave_agent.mon [axi4_slave_monitor] AW received: ID=0x4 ADDR=0x4b12f0df LEN=8
# UVM_INFO ../src/mst/axi4_master_monitor.sv(184) @ 265000: uvm_test_top.env.master_agent.mon [axi4_master_monitor] W data assembled: ID=0x4 ADDR=0x4b12f0df 9 beats
# UVM_INFO ../src/slv/axi4_slave_monitor.sv(167) @ 265000: uvm_test_top.env.slave_agent.mon [axi4_slave_monitor] W data assembled: ID=0x4 ADDR=0x4b12f0df 9 beats
# UVM_INFO ../src/mst/axi4_master_driver.sv(289) @ 295000: uvm_test_top.env.master_agent.drv [axi4_master_driver] Master driver received B response: ID=0x4 RESP=AXI4_RESP_OKAY
# UVM_INFO ../src/slv/axi4_slave_driver.sv(348) @ 295000: uvm_test_top.env.slave_agent.drv [axi4_slave_driver] Write complete: ID=0x4 RESP=AXI4_RESP_OKAY
# UVM_INFO ../src/slv/axi4_slave_monitor.sv(189) @ 295000: uvm_test_top.env.slave_agent.mon [axi4_slave_monitor] Write response sent: ID=0x4 ADDR=0x4b12f0df RESP=AXI4_RESP_OKAY
# UVM_INFO ../src/env/axi4_scoreboard.sv(108) @ 295000: uvm_test_top.env.scb [axi4_scoreboard] Slave AXI4_WRITE received: ID=0x4 ADDR=0x4b12f0df LEN=8
# UVM_INFO ../src/mst/axi4_master_monitor.sv(210) @ 295000: uvm_test_top.env.master_agent.mon [axi4_master_monitor] Write complete: ID=0x4 ADDR=0x4b12f0df RESP=AXI4_RESP_OKAY
# UVM_INFO ../src/env/axi4_scoreboard.sv(87) @ 295000: uvm_test_top.env.scb [axi4_scoreboard] Master AXI4_WRITE received: ID=0x4 ADDR=0x4b12f0df LEN=8
# UVM_INFO ../src/env/axi4_scoreboard.sv(291) @ 295000: uvm_test_top.env.scb [axi4_scoreboard] [WRITE] MATCH #1: ID=0x4 ADDR=0x4b12f0df LEN=8
# UVM_INFO ../src/env/axi4_scoreboard.sv(219) @ 295000: uvm_test_top.env.scb [axi4_scoreboard] [REF_MEM_WRITE] Addr=0x4b12f0e0 Data=0x50
# UVM_INFO ../src/env/axi4_scoreboard.sv(219) @ 295000: uvm_test_top.env.scb [axi4_scoreboard] [REF_MEM_WRITE] Addr=0x4b12f0e3 Data=0xdf
# UVM_INFO ../src/env/axi4_scoreboard.sv(219) @ 295000: uvm_test_top.env.scb [axi4_scoreboard] [REF_MEM_WRITE] Addr=0x4b12f0e4 Data=0xfc
# UVM_INFO ../src/env/axi4_scoreboard.sv(219) @ 295000: uvm_test_top.env.scb [axi4_scoreboard] [REF_MEM_WRITE] Addr=0x4b12f0ea Data=0x6c
# UVM_INFO ../src/env/axi4_scoreboard.sv(219) @ 295000: uvm_test_top.env.scb [axi4_scoreboard] [REF_MEM_WRITE] Addr=0x4b12f0eb Data=0x61
# UVM_INFO ../src/env/axi4_scoreboard.sv(219) @ 295000: uvm_test_top.env.scb [axi4_scoreboard] [REF_MEM_WRITE] Addr=0x4b12f0ec Data=0xb9
# UVM_INFO ../src/env/axi4_scoreboard.sv(219) @ 295000: uvm_test_top.env.scb [axi4_scoreboard] [REF_MEM_WRITE] Addr=0x4b12f0ed Data=0xf4
# UVM_INFO ../src/env/axi4_scoreboard.sv(219) @ 295000: uvm_test_top.env.scb [axi4_scoreboard] [REF_MEM_WRITE] Addr=0x4b12f0ee Data=0x55
# UVM_INFO ../src/env/axi4_scoreboard.sv(219) @ 295000: uvm_test_top.env.scb [axi4_scoreboard] [REF_MEM_WRITE] Addr=0x4b12f0ef Data=0x3b
# UVM_INFO ../src/env/axi4_scoreboard.sv(219) @ 295000: uvm_test_top.env.scb [axi4_scoreboard] [REF_MEM_WRITE] Addr=0x4b12f0f1 Data=0xf3
# UVM_INFO ../src/env/axi4_scoreboard.sv(219) @ 295000: uvm_test_top.env.scb [axi4_scoreboard] [REF_MEM_WRITE] Addr=0x4b12f0f4 Data=0x53
# UVM_INFO ../src/env/axi4_scoreboard.sv(219) @ 295000: uvm_test_top.env.scb [axi4_scoreboard] [REF_MEM_WRITE] Addr=0x4b12f0f7 Data=0xb6
# UVM_INFO ../src/env/axi4_scoreboard.sv(219) @ 295000: uvm_test_top.env.scb [axi4_scoreboard] [REF_MEM_WRITE] Addr=0x4b12f0f8 Data=0xc0
# UVM_INFO ../src/env/axi4_scoreboard.sv(219) @ 295000: uvm_test_top.env.scb [axi4_scoreboard] [REF_MEM_WRITE] Addr=0x4b12f0f9 Data=0x8b
# UVM_INFO ../src/env/axi4_scoreboard.sv(219) @ 295000: uvm_test_top.env.scb [axi4_scoreboard] [REF_MEM_WRITE] Addr=0x4b12f0fc Data=0x71
# UVM_INFO ../src/env/axi4_scoreboard.sv(219) @ 295000: uvm_test_top.env.scb [axi4_scoreboard] [REF_MEM_WRITE] Addr=0x4b12f0fd Data=0x3e
# UVM_INFO ../src/env/axi4_scoreboard.sv(219) @ 295000: uvm_test_top.env.scb [axi4_scoreboard] [REF_MEM_WRITE] Addr=0x4b12f0ff Data=0x76
# UVM_INFO ../src/seq/axi4_write_read_back_seq.sv(62) @ 295000: uvm_test_top.env.master_agent.sqr@@wr_rd_seq_0 [axi4_write_read_back_seq] Write phase: ADDR=0x4b12f0df LEN=8 SIZE=AXI4_SIZE_4B BURST=AXI4_BURST_INCR
# UVM_INFO ../src/mst/axi4_master_driver.sv(73) @ 295000: uvm_test_top.env.master_agent.drv [axi4_master_driver] Driving AXI4_READ  ID=0x3  ADDR=0x4b12f0df  LEN=8
# UVM_INFO ../src/slv/axi4_slave_driver.sv(386) @ 325000: uvm_test_top.env.slave_agent.drv [axi4_slave_driver] AR received: ID=0x3 ADDR=0x4b12f0df LEN=8 LOCK=AXI4_LOCK_NORMAL
# UVM_INFO ../src/mst/axi4_master_monitor.sv(246) @ 325000: uvm_test_top.env.master_agent.mon [axi4_master_monitor] AR observed: ID=0x3 ADDR=0x4b12f0df LEN=8
# UVM_INFO ../src/slv/axi4_slave_monitor.sv(224) @ 325000: uvm_test_top.env.slave_agent.mon [axi4_slave_monitor] AR received: ID=0x3 ADDR=0x4b12f0df LEN=8
# UVM_INFO ../src/mst/axi4_master_driver.sv(348) @ 505000: uvm_test_top.env.master_agent.drv [axi4_master_driver] Master driver received all R beats for ID=0x3
# UVM_INFO ../src/slv/axi4_slave_driver.sv(501) @ 505000: uvm_test_top.env.slave_agent.drv [axi4_slave_driver] Read complete: ID=0x3 ADDR=0x4b12f0df RESP=AXI4_RESP_OKAY  9 beats sent
# UVM_INFO ../src/mst/axi4_master_monitor.sv(314) @ 505000: uvm_test_top.env.master_agent.mon [axi4_master_monitor] Read complete: ID=0x3 ADDR=0x4b12f0df 9 beats
# UVM_INFO ../src/env/axi4_scoreboard.sv(87) @ 505000: uvm_test_top.env.scb [axi4_scoreboard] Master AXI4_READ received: ID=0x3 ADDR=0x4b12f0df LEN=8
# UVM_INFO ../src/slv/axi4_slave_monitor.sv(287) @ 505000: uvm_test_top.env.slave_agent.mon [axi4_slave_monitor] Read data sent: ID=0x3 ADDR=0x4b12f0df 9 beats
# UVM_INFO ../src/env/axi4_scoreboard.sv(108) @ 505000: uvm_test_top.env.scb [axi4_scoreboard] Slave AXI4_READ received: ID=0x3 ADDR=0x4b12f0df LEN=8
# UVM_INFO ../src/env/axi4_scoreboard.sv(291) @ 505000: uvm_test_top.env.scb [axi4_scoreboard] [READ] MATCH #2: ID=0x3 ADDR=0x4b12f0df LEN=8
# UVM_INFO ../src/seq/axi4_write_read_back_seq.sv(84) @ 505000: uvm_test_top.env.master_agent.sqr@@wr_rd_seq_0 [axi4_write_read_back_seq] Read-back phase: ADDR=0x4b12f0df LEN=8 - data integrity check via scoreboard
# UVM_INFO ../src/test/axi4_sanity_test.sv(52) @ 505000: uvm_test_top [axi4_sanity_test] [2/10] ADDR=0x1bcee0f8 LEN=15 BURST=AXI4_BURST_INCR
# UVM_INFO ../src/mst/axi4_master_driver.sv(73) @ 505000: uvm_test_top.env.master_agent.drv [axi4_master_driver] Driving AXI4_WRITE  ID=0xe  ADDR=0x1bcee0f8  LEN=15
# UVM_INFO ../src/slv/axi4_slave_driver.sv(228) @ 535000: uvm_test_top.env.slave_agent.drv [axi4_slave_driver] AW received: ID=0xe ADDR=0x1bcee0f8 LEN=15 LOCK=AXI4_LOCK_NORMAL
# UVM_INFO ../src/slv/axi4_slave_monitor.sv(116) @ 535000: uvm_test_top.env.slave_agent.mon [axi4_slave_monitor] AW received: ID=0xe ADDR=0x1bcee0f8 LEN=15
# UVM_INFO ../src/mst/axi4_master_monitor.sv(124) @ 535000: uvm_test_top.env.master_agent.mon [axi4_master_monitor] AW observed: ID=0xe ADDR=0x1bcee0f8 LEN=15
# UVM_INFO ../src/mst/axi4_master_monitor.sv(184) @ 825000: uvm_test_top.env.master_agent.mon [axi4_master_monitor] W data assembled: ID=0xe ADDR=0x1bcee0f8 16 beats
# UVM_INFO ../src/slv/axi4_slave_monitor.sv(167) @ 825000: uvm_test_top.env.slave_agent.mon [axi4_slave_monitor] W data assembled: ID=0xe ADDR=0x1bcee0f8 16 beats
# UVM_INFO ../src/mst/axi4_master_driver.sv(289) @ 855000: uvm_test_top.env.master_agent.drv [axi4_master_driver] Master driver received B response: ID=0xe RESP=AXI4_RESP_OKAY
# UVM_INFO ../src/slv/axi4_slave_driver.sv(348) @ 855000: uvm_test_top.env.slave_agent.drv [axi4_slave_driver] Write complete: ID=0xe RESP=AXI4_RESP_OKAY
# UVM_INFO ../src/slv/axi4_slave_monitor.sv(189) @ 855000: uvm_test_top.env.slave_agent.mon [axi4_slave_monitor] Write response sent: ID=0xe ADDR=0x1bcee0f8 RESP=AXI4_RESP_OKAY
# UVM_INFO ../src/env/axi4_scoreboard.sv(108) @ 855000: uvm_test_top.env.scb [axi4_scoreboard] Slave AXI4_WRITE received: ID=0xe ADDR=0x1bcee0f8 LEN=15
# UVM_INFO ../src/mst/axi4_master_monitor.sv(210) @ 855000: uvm_test_top.env.master_agent.mon [axi4_master_monitor] Write complete: ID=0xe ADDR=0x1bcee0f8 RESP=AXI4_RESP_OKAY
# UVM_INFO ../src/env/axi4_scoreboard.sv(87) @ 855000: uvm_test_top.env.scb [axi4_scoreboard] Master AXI4_WRITE received: ID=0xe ADDR=0x1bcee0f8 LEN=15
# UVM_INFO ../src/env/axi4_scoreboard.sv(291) @ 855000: uvm_test_top.env.scb [axi4_scoreboard] [WRITE] MATCH #3: ID=0xe ADDR=0x1bcee0f8 LEN=15
# UVM_INFO ../src/env/axi4_scoreboard.sv(219) @ 855000: uvm_test_top.env.scb [axi4_scoreboard] [REF_MEM_WRITE] Addr=0x1bcee0f9 Data=0x62
# UVM_INFO ../src/env/axi4_scoreboard.sv(219) @ 855000: uvm_test_top.env.scb [axi4_scoreboard] [REF_MEM_WRITE] Addr=0x1bcee0fa Data=0x53
# UVM_INFO ../src/env/axi4_scoreboard.sv(219) @ 855000: uvm_test_top.env.scb [axi4_scoreboard] [REF_MEM_WRITE] Addr=0x1bcee0fb Data=0xb6
# UVM_INFO ../src/env/axi4_scoreboard.sv(219) @ 855000: uvm_test_top.env.scb [axi4_scoreboard] [REF_MEM_WRITE] Addr=0x1bcee0fe Data=0x81
# UVM_INFO ../src/env/axi4_scoreboard.sv(219) @ 855000: uvm_test_top.env.scb [axi4_scoreboard] [REF_MEM_WRITE] Addr=0x1bcee0ff Data=0x5d
# UVM_INFO ../src/env/axi4_scoreboard.sv(219) @ 855000: uvm_test_top.env.scb [axi4_scoreboard] [REF_MEM_WRITE] Addr=0x1bcee101 Data=0x71
# UVM_INFO ../src/env/axi4_scoreboard.sv(219) @ 855000: uvm_test_top.env.scb [axi4_scoreboard] [REF_MEM_WRITE] Addr=0x1bcee103 Data=0x20
# UVM_INFO ../src/env/axi4_scoreboard.sv(219) @ 855000: uvm_test_top.env.scb [axi4_scoreboard] [REF_MEM_WRITE] Addr=0x1bcee105 Data=0x03
# UVM_INFO ../src/env/axi4_scoreboard.sv(219) @ 855000: uvm_test_top.env.scb [axi4_scoreboard] [REF_MEM_WRITE] Addr=0x1bcee106 Data=0x18
# UVM_INFO ../src/env/axi4_scoreboard.sv(219) @ 855000: uvm_test_top.env.scb [axi4_scoreboard] [REF_MEM_WRITE] Addr=0x1bcee107 Data=0xe1
# UVM_INFO ../src/env/axi4_scoreboard.sv(219) @ 855000: uvm_test_top.env.scb [axi4_scoreboard] [REF_MEM_WRITE] Addr=0x1bcee108 Data=0x73
# UVM_INFO ../src/env/axi4_scoreboard.sv(219) @ 855000: uvm_test_top.env.scb [axi4_scoreboard] [REF_MEM_WRITE] Addr=0x1bcee109 Data=0xde
# UVM_INFO ../src/env/axi4_scoreboard.sv(219) @ 855000: uvm_test_top.env.scb [axi4_scoreboard] [REF_MEM_WRITE] Addr=0x1bcee10b Data=0x27
# UVM_INFO ../src/env/axi4_scoreboard.sv(219) @ 855000: uvm_test_top.env.scb [axi4_scoreboard] [REF_MEM_WRITE] Addr=0x1bcee10c Data=0xc9
# UVM_INFO ../src/env/axi4_scoreboard.sv(219) @ 855000: uvm_test_top.env.scb [axi4_scoreboard] [REF_MEM_WRITE] Addr=0x1bcee10d Data=0x27
# UVM_INFO ../src/env/axi4_scoreboard.sv(219) @ 855000: uvm_test_top.env.scb [axi4_scoreboard] [REF_MEM_WRITE] Addr=0x1bcee110 Data=0x5e
# UVM_INFO ../src/env/axi4_scoreboard.sv(219) @ 855000: uvm_test_top.env.scb [axi4_scoreboard] [REF_MEM_WRITE] Addr=0x1bcee113 Data=0xf2
# UVM_INFO ../src/env/axi4_scoreboard.sv(219) @ 855000: uvm_test_top.env.scb [axi4_scoreboard] [REF_MEM_WRITE] Addr=0x1bcee114 Data=0xef
# UVM_INFO ../src/env/axi4_scoreboard.sv(219) @ 855000: uvm_test_top.env.scb [axi4_scoreboard] [REF_MEM_WRITE] Addr=0x1bcee117 Data=0xdb
# UVM_INFO ../src/env/axi4_scoreboard.sv(219) @ 855000: uvm_test_top.env.scb [axi4_scoreboard] [REF_MEM_WRITE] Addr=0x1bcee119 Data=0xfb
# UVM_INFO ../src/env/axi4_scoreboard.sv(219) @ 855000: uvm_test_top.env.scb [axi4_scoreboard] [REF_MEM_WRITE] Addr=0x1bcee11b Data=0x57
# UVM_INFO ../src/env/axi4_scoreboard.sv(219) @ 855000: uvm_test_top.env.scb [axi4_scoreboard] [REF_MEM_WRITE] Addr=0x1bcee11e Data=0x6f
# UVM_INFO ../src/env/axi4_scoreboard.sv(219) @ 855000: uvm_test_top.env.scb [axi4_scoreboard] [REF_MEM_WRITE] Addr=0x1bcee11f Data=0x95
# UVM_INFO ../src/env/axi4_scoreboard.sv(219) @ 855000: uvm_test_top.env.scb [axi4_scoreboard] [REF_MEM_WRITE] Addr=0x1bcee121 Data=0xc8
# UVM_INFO ../src/env/axi4_scoreboard.sv(219) @ 855000: uvm_test_top.env.scb [axi4_scoreboard] [REF_MEM_WRITE] Addr=0x1bcee122 Data=0xca
# UVM_INFO ../src/env/axi4_scoreboard.sv(219) @ 855000: uvm_test_top.env.scb [axi4_scoreboard] [REF_MEM_WRITE] Addr=0x1bcee125 Data=0x62
# UVM_INFO ../src/env/axi4_scoreboard.sv(219) @ 855000: uvm_test_top.env.scb [axi4_scoreboard] [REF_MEM_WRITE] Addr=0x1bcee126 Data=0xd0
# UVM_INFO ../src/env/axi4_scoreboard.sv(219) @ 855000: uvm_test_top.env.scb [axi4_scoreboard] [REF_MEM_WRITE] Addr=0x1bcee127 Data=0x0d
# UVM_INFO ../src/env/axi4_scoreboard.sv(219) @ 855000: uvm_test_top.env.scb [axi4_scoreboard] [REF_MEM_WRITE] Addr=0x1bcee129 Data=0x5a
# UVM_INFO ../src/env/axi4_scoreboard.sv(219) @ 855000: uvm_test_top.env.scb [axi4_scoreboard] [REF_MEM_WRITE] Addr=0x1bcee12a Data=0x83
# UVM_INFO ../src/env/axi4_scoreboard.sv(219) @ 855000: uvm_test_top.env.scb [axi4_scoreboard] [REF_MEM_WRITE] Addr=0x1bcee12e Data=0xe0
# UVM_INFO ../src/env/axi4_scoreboard.sv(219) @ 855000: uvm_test_top.env.scb [axi4_scoreboard] [REF_MEM_WRITE] Addr=0x1bcee12f Data=0xc2
# UVM_INFO ../src/env/axi4_scoreboard.sv(219) @ 855000: uvm_test_top.env.scb [axi4_scoreboard] [REF_MEM_WRITE] Addr=0x1bcee131 Data=0x58
# UVM_INFO ../src/env/axi4_scoreboard.sv(219) @ 855000: uvm_test_top.env.scb [axi4_scoreboard] [REF_MEM_WRITE] Addr=0x1bcee133 Data=0x49
# UVM_INFO ../src/env/axi4_scoreboard.sv(219) @ 855000: uvm_test_top.env.scb [axi4_scoreboard] [REF_MEM_WRITE] Addr=0x1bcee135 Data=0xf2
# UVM_INFO ../src/env/axi4_scoreboard.sv(219) @ 855000: uvm_test_top.env.scb [axi4_scoreboard] [REF_MEM_WRITE] Addr=0x1bcee136 Data=0xea
# UVM_INFO ../src/env/axi4_scoreboard.sv(219) @ 855000: uvm_test_top.env.scb [axi4_scoreboard] [REF_MEM_WRITE] Addr=0x1bcee137 Data=0x91
# UVM_INFO ../src/seq/axi4_write_read_back_seq.sv(62) @ 855000: uvm_test_top.env.master_agent.sqr@@wr_rd_seq_1 [axi4_write_read_back_seq] Write phase: ADDR=0x1bcee0f8 LEN=15 SIZE=AXI4_SIZE_4B BURST=AXI4_BURST_INCR
# UVM_INFO ../src/mst/axi4_master_driver.sv(73) @ 855000: uvm_test_top.env.master_agent.drv [axi4_master_driver] Driving AXI4_READ  ID=0x3  ADDR=0x1bcee0f8  LEN=15
# UVM_INFO ../src/slv/axi4_slave_driver.sv(386) @ 885000: uvm_test_top.env.slave_agent.drv [axi4_slave_driver] AR received: ID=0x3 ADDR=0x1bcee0f8 LEN=15 LOCK=AXI4_LOCK_NORMAL
# UVM_INFO ../src/mst/axi4_master_monitor.sv(246) @ 885000: uvm_test_top.env.master_agent.mon [axi4_master_monitor] AR observed: ID=0x3 ADDR=0x1bcee0f8 LEN=15
# UVM_INFO ../src/slv/axi4_slave_monitor.sv(224) @ 885000: uvm_test_top.env.slave_agent.mon [axi4_slave_monitor] AR received: ID=0x3 ADDR=0x1bcee0f8 LEN=15
# UVM_INFO ../src/mst/axi4_master_driver.sv(348) @ 1205000: uvm_test_top.env.master_agent.drv [axi4_master_driver] Master driver received all R beats for ID=0x3
# UVM_INFO ../src/slv/axi4_slave_driver.sv(501) @ 1205000: uvm_test_top.env.slave_agent.drv [axi4_slave_driver] Read complete: ID=0x3 ADDR=0x1bcee0f8 RESP=AXI4_RESP_OKAY  16 beats sent
# UVM_INFO ../src/mst/axi4_master_monitor.sv(314) @ 1205000: uvm_test_top.env.master_agent.mon [axi4_master_monitor] Read complete: ID=0x3 ADDR=0x1bcee0f8 16 beats
# UVM_INFO ../src/env/axi4_scoreboard.sv(87) @ 1205000: uvm_test_top.env.scb [axi4_scoreboard] Master AXI4_READ received: ID=0x3 ADDR=0x1bcee0f8 LEN=15
# UVM_INFO ../src/slv/axi4_slave_monitor.sv(287) @ 1205000: uvm_test_top.env.slave_agent.mon [axi4_slave_monitor] Read data sent: ID=0x3 ADDR=0x1bcee0f8 16 beats
# UVM_INFO ../src/env/axi4_scoreboard.sv(108) @ 1205000: uvm_test_top.env.scb [axi4_scoreboard] Slave AXI4_READ received: ID=0x3 ADDR=0x1bcee0f8 LEN=15
# UVM_INFO ../src/env/axi4_scoreboard.sv(291) @ 1205000: uvm_test_top.env.scb [axi4_scoreboard] [READ] MATCH #4: ID=0x3 ADDR=0x1bcee0f8 LEN=15
# UVM_INFO ../src/seq/axi4_write_read_back_seq.sv(84) @ 1205000: uvm_test_top.env.master_agent.sqr@@wr_rd_seq_1 [axi4_write_read_back_seq] Read-back phase: ADDR=0x1bcee0f8 LEN=15 - data integrity check via scoreboard
# UVM_INFO ../src/test/axi4_sanity_test.sv(52) @ 1205000: uvm_test_top [axi4_sanity_test] [3/10] ADDR=0x03a3b80c LEN=2 BURST=AXI4_BURST_INCR
# UVM_INFO ../src/mst/axi4_master_driver.sv(73) @ 1205000: uvm_test_top.env.master_agent.drv [axi4_master_driver] Driving AXI4_WRITE  ID=0x5  ADDR=0x03a3b80c  LEN=2
# UVM_INFO ../src/slv/axi4_slave_driver.sv(228) @ 1235000: uvm_test_top.env.slave_agent.drv [axi4_slave_driver] AW received: ID=0x5 ADDR=0x03a3b80c LEN=2 LOCK=AXI4_LOCK_NORMAL
# UVM_INFO ../src/slv/axi4_slave_monitor.sv(116) @ 1235000: uvm_test_top.env.slave_agent.mon [axi4_slave_monitor] AW received: ID=0x5 ADDR=0x03a3b80c LEN=2
# UVM_INFO ../src/mst/axi4_master_monitor.sv(124) @ 1235000: uvm_test_top.env.master_agent.mon [axi4_master_monitor] AW observed: ID=0x5 ADDR=0x03a3b80c LEN=2
# UVM_INFO ../src/slv/axi4_slave_monitor.sv(167) @ 1295000: uvm_test_top.env.slave_agent.mon [axi4_slave_monitor] W data assembled: ID=0x5 ADDR=0x03a3b80c 3 beats
# UVM_INFO ../src/mst/axi4_master_monitor.sv(184) @ 1295000: uvm_test_top.env.master_agent.mon [axi4_master_monitor] W data assembled: ID=0x5 ADDR=0x03a3b80c 3 beats
# UVM_INFO ../src/mst/axi4_master_driver.sv(289) @ 1325000: uvm_test_top.env.master_agent.drv [axi4_master_driver] Master driver received B response: ID=0x5 RESP=AXI4_RESP_OKAY
# UVM_INFO ../src/slv/axi4_slave_driver.sv(348) @ 1325000: uvm_test_top.env.slave_agent.drv [axi4_slave_driver] Write complete: ID=0x5 RESP=AXI4_RESP_OKAY
# UVM_INFO ../src/mst/axi4_master_monitor.sv(210) @ 1325000: uvm_test_top.env.master_agent.mon [axi4_master_monitor] Write complete: ID=0x5 ADDR=0x03a3b80c RESP=AXI4_RESP_OKAY
# UVM_INFO ../src/env/axi4_scoreboard.sv(87) @ 1325000: uvm_test_top.env.scb [axi4_scoreboard] Master AXI4_WRITE received: ID=0x5 ADDR=0x03a3b80c LEN=2
# UVM_INFO ../src/slv/axi4_slave_monitor.sv(189) @ 1325000: uvm_test_top.env.slave_agent.mon [axi4_slave_monitor] Write response sent: ID=0x5 ADDR=0x03a3b80c RESP=AXI4_RESP_OKAY
# UVM_INFO ../src/env/axi4_scoreboard.sv(108) @ 1325000: uvm_test_top.env.scb [axi4_scoreboard] Slave AXI4_WRITE received: ID=0x5 ADDR=0x03a3b80c LEN=2
# UVM_INFO ../src/env/axi4_scoreboard.sv(291) @ 1325000: uvm_test_top.env.scb [axi4_scoreboard] [WRITE] MATCH #5: ID=0x5 ADDR=0x03a3b80c LEN=2
# UVM_INFO ../src/env/axi4_scoreboard.sv(219) @ 1325000: uvm_test_top.env.scb [axi4_scoreboard] [REF_MEM_WRITE] Addr=0x03a3b810 Data=0xc0
# UVM_INFO ../src/env/axi4_scoreboard.sv(219) @ 1325000: uvm_test_top.env.scb [axi4_scoreboard] [REF_MEM_WRITE] Addr=0x03a3b811 Data=0xe9
# UVM_INFO ../src/env/axi4_scoreboard.sv(219) @ 1325000: uvm_test_top.env.scb [axi4_scoreboard] [REF_MEM_WRITE] Addr=0x03a3b813 Data=0x3e
# UVM_INFO ../src/env/axi4_scoreboard.sv(219) @ 1325000: uvm_test_top.env.scb [axi4_scoreboard] [REF_MEM_WRITE] Addr=0x03a3b815 Data=0x95
# UVM_INFO ../src/env/axi4_scoreboard.sv(219) @ 1325000: uvm_test_top.env.scb [axi4_scoreboard] [REF_MEM_WRITE] Addr=0x03a3b817 Data=0x84
# UVM_INFO ../src/seq/axi4_write_read_back_seq.sv(62) @ 1325000: uvm_test_top.env.master_agent.sqr@@wr_rd_seq_2 [axi4_write_read_back_seq] Write phase: ADDR=0x03a3b80c LEN=2 SIZE=AXI4_SIZE_4B BURST=AXI4_BURST_INCR
# UVM_INFO ../src/mst/axi4_master_driver.sv(73) @ 1325000: uvm_test_top.env.master_agent.drv [axi4_master_driver] Driving AXI4_READ  ID=0x7  ADDR=0x03a3b80c  LEN=2
# UVM_INFO ../src/slv/axi4_slave_driver.sv(386) @ 1355000: uvm_test_top.env.slave_agent.drv [axi4_slave_driver] AR received: ID=0x7 ADDR=0x03a3b80c LEN=2 LOCK=AXI4_LOCK_NORMAL
# UVM_INFO ../src/slv/axi4_slave_monitor.sv(224) @ 1355000: uvm_test_top.env.slave_agent.mon [axi4_slave_monitor] AR received: ID=0x7 ADDR=0x03a3b80c LEN=2
# UVM_INFO ../src/mst/axi4_master_monitor.sv(246) @ 1355000: uvm_test_top.env.master_agent.mon [axi4_master_monitor] AR observed: ID=0x7 ADDR=0x03a3b80c LEN=2
# UVM_INFO ../src/mst/axi4_master_driver.sv(348) @ 1415000: uvm_test_top.env.master_agent.drv [axi4_master_driver] Master driver received all R beats for ID=0x7
# UVM_INFO ../src/slv/axi4_slave_driver.sv(501) @ 1415000: uvm_test_top.env.slave_agent.drv [axi4_slave_driver] Read complete: ID=0x7 ADDR=0x03a3b80c RESP=AXI4_RESP_OKAY  3 beats sent
# UVM_INFO ../src/slv/axi4_slave_monitor.sv(287) @ 1415000: uvm_test_top.env.slave_agent.mon [axi4_slave_monitor] Read data sent: ID=0x7 ADDR=0x03a3b80c 3 beats
# UVM_INFO ../src/env/axi4_scoreboard.sv(108) @ 1415000: uvm_test_top.env.scb [axi4_scoreboard] Slave AXI4_READ received: ID=0x7 ADDR=0x03a3b80c LEN=2
# UVM_INFO ../src/mst/axi4_master_monitor.sv(314) @ 1415000: uvm_test_top.env.master_agent.mon [axi4_master_monitor] Read complete: ID=0x7 ADDR=0x03a3b80c 3 beats
# UVM_INFO ../src/env/axi4_scoreboard.sv(87) @ 1415000: uvm_test_top.env.scb [axi4_scoreboard] Master AXI4_READ received: ID=0x7 ADDR=0x03a3b80c LEN=2
# UVM_INFO ../src/env/axi4_scoreboard.sv(291) @ 1415000: uvm_test_top.env.scb [axi4_scoreboard] [READ] MATCH #6: ID=0x7 ADDR=0x03a3b80c LEN=2
# UVM_INFO ../src/seq/axi4_write_read_back_seq.sv(84) @ 1415000: uvm_test_top.env.master_agent.sqr@@wr_rd_seq_2 [axi4_write_read_back_seq] Read-back phase: ADDR=0x03a3b80c LEN=2 - data integrity check via scoreboard
# UVM_INFO ../src/test/axi4_sanity_test.sv(52) @ 1415000: uvm_test_top [axi4_sanity_test] [4/10] ADDR=0x8e0c9df0 LEN=7 BURST=AXI4_BURST_INCR
# UVM_INFO ../src/mst/axi4_master_driver.sv(73) @ 1415000: uvm_test_top.env.master_agent.drv [axi4_master_driver] Driving AXI4_WRITE  ID=0x3  ADDR=0x8e0c9df0  LEN=7
# UVM_INFO ../src/slv/axi4_slave_driver.sv(228) @ 1495000: uvm_test_top.env.slave_agent.drv [axi4_slave_driver] AW received: ID=0x3 ADDR=0x8e0c9df0 LEN=7 LOCK=AXI4_LOCK_NORMAL
# UVM_INFO ../src/slv/axi4_slave_monitor.sv(116) @ 1495000: uvm_test_top.env.slave_agent.mon [axi4_slave_monitor] AW received: ID=0x3 ADDR=0x8e0c9df0 LEN=7
# UVM_INFO ../src/mst/axi4_master_monitor.sv(124) @ 1495000: uvm_test_top.env.master_agent.mon [axi4_master_monitor] AW observed: ID=0x3 ADDR=0x8e0c9df0 LEN=7
# UVM_INFO ../src/slv/axi4_slave_monitor.sv(167) @ 1575000: uvm_test_top.env.slave_agent.mon [axi4_slave_monitor] W data assembled: ID=0x3 ADDR=0x8e0c9df0 8 beats
# UVM_INFO ../src/mst/axi4_master_monitor.sv(184) @ 1575000: uvm_test_top.env.master_agent.mon [axi4_master_monitor] W data assembled: ID=0x3 ADDR=0x8e0c9df0 8 beats
# UVM_INFO ../src/mst/axi4_master_driver.sv(289) @ 1605000: uvm_test_top.env.master_agent.drv [axi4_master_driver] Master driver received B response: ID=0x3 RESP=AXI4_RESP_OKAY
# UVM_INFO ../src/slv/axi4_slave_driver.sv(348) @ 1605000: uvm_test_top.env.slave_agent.drv [axi4_slave_driver] Write complete: ID=0x3 RESP=AXI4_RESP_OKAY
# UVM_INFO ../src/mst/axi4_master_monitor.sv(210) @ 1605000: uvm_test_top.env.master_agent.mon [axi4_master_monitor] Write complete: ID=0x3 ADDR=0x8e0c9df0 RESP=AXI4_RESP_OKAY
# UVM_INFO ../src/env/axi4_scoreboard.sv(87) @ 1605000: uvm_test_top.env.scb [axi4_scoreboard] Master AXI4_WRITE received: ID=0x3 ADDR=0x8e0c9df0 LEN=7
# UVM_INFO ../src/slv/axi4_slave_monitor.sv(189) @ 1605000: uvm_test_top.env.slave_agent.mon [axi4_slave_monitor] Write response sent: ID=0x3 ADDR=0x8e0c9df0 RESP=AXI4_RESP_OKAY
# UVM_INFO ../src/env/axi4_scoreboard.sv(108) @ 1605000: uvm_test_top.env.scb [axi4_scoreboard] Slave AXI4_WRITE received: ID=0x3 ADDR=0x8e0c9df0 LEN=7
# UVM_INFO ../src/env/axi4_scoreboard.sv(291) @ 1605000: uvm_test_top.env.scb [axi4_scoreboard] [WRITE] MATCH #7: ID=0x3 ADDR=0x8e0c9df0 LEN=7
# UVM_INFO ../src/env/axi4_scoreboard.sv(219) @ 1605000: uvm_test_top.env.scb [axi4_scoreboard] [REF_MEM_WRITE] Addr=0x8e0c9df0 Data=0x31
# UVM_INFO ../src/env/axi4_scoreboard.sv(219) @ 1605000: uvm_test_top.env.scb [axi4_scoreboard] [REF_MEM_WRITE] Addr=0x8e0c9df3 Data=0x52
# UVM_INFO ../src/env/axi4_scoreboard.sv(219) @ 1605000: uvm_test_top.env.scb [axi4_scoreboard] [REF_MEM_WRITE] Addr=0x8e0c9df4 Data=0xcf
# UVM_INFO ../src/env/axi4_scoreboard.sv(219) @ 1605000: uvm_test_top.env.scb [axi4_scoreboard] [REF_MEM_WRITE] Addr=0x8e0c9dfa Data=0x38
# UVM_INFO ../src/env/axi4_scoreboard.sv(219) @ 1605000: uvm_test_top.env.scb [axi4_scoreboard] [REF_MEM_WRITE] Addr=0x8e0c9dfc Data=0x84
# UVM_INFO ../src/env/axi4_scoreboard.sv(219) @ 1605000: uvm_test_top.env.scb [axi4_scoreboard] [REF_MEM_WRITE] Addr=0x8e0c9dff Data=0x26
# UVM_INFO ../src/env/axi4_scoreboard.sv(219) @ 1605000: uvm_test_top.env.scb [axi4_scoreboard] [REF_MEM_WRITE] Addr=0x8e0c9e00 Data=0x2c
# UVM_INFO ../src/env/axi4_scoreboard.sv(219) @ 1605000: uvm_test_top.env.scb [axi4_scoreboard] [REF_MEM_WRITE] Addr=0x8e0c9e01 Data=0xba
# UVM_INFO ../src/env/axi4_scoreboard.sv(219) @ 1605000: uvm_test_top.env.scb [axi4_scoreboard] [REF_MEM_WRITE] Addr=0x8e0c9e03 Data=0xe3
# UVM_INFO ../src/env/axi4_scoreboard.sv(219) @ 1605000: uvm_test_top.env.scb [axi4_scoreboard] [REF_MEM_WRITE] Addr=0x8e0c9e09 Data=0xfd
# UVM_INFO ../src/env/axi4_scoreboard.sv(219) @ 1605000: uvm_test_top.env.scb [axi4_scoreboard] [REF_MEM_WRITE] Addr=0x8e0c9e0a Data=0x7b
# UVM_INFO ../src/env/axi4_scoreboard.sv(219) @ 1605000: uvm_test_top.env.scb [axi4_scoreboard] [REF_MEM_WRITE] Addr=0x8e0c9e0b Data=0x4c
# UVM_INFO ../src/seq/axi4_write_read_back_seq.sv(62) @ 1605000: uvm_test_top.env.master_agent.sqr@@wr_rd_seq_3 [axi4_write_read_back_seq] Write phase: ADDR=0x8e0c9df0 LEN=7 SIZE=AXI4_SIZE_4B BURST=AXI4_BURST_INCR
# UVM_INFO ../src/mst/axi4_master_driver.sv(73) @ 1605000: uvm_test_top.env.master_agent.drv [axi4_master_driver] Driving AXI4_READ  ID=0xa  ADDR=0x8e0c9df0  LEN=7
# UVM_INFO ../src/slv/axi4_slave_driver.sv(386) @ 1635000: uvm_test_top.env.slave_agent.drv [axi4_slave_driver] AR received: ID=0xa ADDR=0x8e0c9df0 LEN=7 LOCK=AXI4_LOCK_NORMAL
# UVM_INFO ../src/slv/axi4_slave_monitor.sv(224) @ 1635000: uvm_test_top.env.slave_agent.mon [axi4_slave_monitor] AR received: ID=0xa ADDR=0x8e0c9df0 LEN=7
# UVM_INFO ../src/mst/axi4_master_monitor.sv(246) @ 1635000: uvm_test_top.env.master_agent.mon [axi4_master_monitor] AR observed: ID=0xa ADDR=0x8e0c9df0 LEN=7
# UVM_INFO ../src/mst/axi4_master_driver.sv(348) @ 1795000: uvm_test_top.env.master_agent.drv [axi4_master_driver] Master driver received all R beats for ID=0xa
# UVM_INFO ../src/slv/axi4_slave_driver.sv(501) @ 1795000: uvm_test_top.env.slave_agent.drv [axi4_slave_driver] Read complete: ID=0xa ADDR=0x8e0c9df0 RESP=AXI4_RESP_OKAY  8 beats sent
# UVM_INFO ../src/slv/axi4_slave_monitor.sv(287) @ 1795000: uvm_test_top.env.slave_agent.mon [axi4_slave_monitor] Read data sent: ID=0xa ADDR=0x8e0c9df0 8 beats
# UVM_INFO ../src/env/axi4_scoreboard.sv(108) @ 1795000: uvm_test_top.env.scb [axi4_scoreboard] Slave AXI4_READ received: ID=0xa ADDR=0x8e0c9df0 LEN=7
# UVM_INFO ../src/mst/axi4_master_monitor.sv(314) @ 1795000: uvm_test_top.env.master_agent.mon [axi4_master_monitor] Read complete: ID=0xa ADDR=0x8e0c9df0 8 beats
# UVM_INFO ../src/env/axi4_scoreboard.sv(87) @ 1795000: uvm_test_top.env.scb [axi4_scoreboard] Master AXI4_READ received: ID=0xa ADDR=0x8e0c9df0 LEN=7
# UVM_INFO ../src/env/axi4_scoreboard.sv(291) @ 1795000: uvm_test_top.env.scb [axi4_scoreboard] [READ] MATCH #8: ID=0xa ADDR=0x8e0c9df0 LEN=7
# UVM_INFO ../src/seq/axi4_write_read_back_seq.sv(84) @ 1795000: uvm_test_top.env.master_agent.sqr@@wr_rd_seq_3 [axi4_write_read_back_seq] Read-back phase: ADDR=0x8e0c9df0 LEN=7 - data integrity check via scoreboard
# UVM_INFO ../src/test/axi4_sanity_test.sv(52) @ 1795000: uvm_test_top [axi4_sanity_test] [5/10] ADDR=0xbeca304a LEN=8 BURST=AXI4_BURST_INCR
# UVM_INFO ../src/mst/axi4_master_driver.sv(73) @ 1795000: uvm_test_top.env.master_agent.drv [axi4_master_driver] Driving AXI4_WRITE  ID=0xb  ADDR=0xbeca304a  LEN=8
# UVM_INFO ../src/slv/axi4_slave_driver.sv(228) @ 1825000: uvm_test_top.env.slave_agent.drv [axi4_slave_driver] AW received: ID=0xb ADDR=0xbeca304a LEN=8 LOCK=AXI4_LOCK_NORMAL
# UVM_INFO ../src/mst/axi4_master_monitor.sv(124) @ 1825000: uvm_test_top.env.master_agent.mon [axi4_master_monitor] AW observed: ID=0xb ADDR=0xbeca304a LEN=8
# UVM_INFO ../src/slv/axi4_slave_monitor.sv(116) @ 1825000: uvm_test_top.env.slave_agent.mon [axi4_slave_monitor] AW received: ID=0xb ADDR=0xbeca304a LEN=8
# UVM_INFO ../src/slv/axi4_slave_monitor.sv(167) @ 1975000: uvm_test_top.env.slave_agent.mon [axi4_slave_monitor] W data assembled: ID=0xb ADDR=0xbeca304a 9 beats
# UVM_INFO ../src/mst/axi4_master_monitor.sv(184) @ 1975000: uvm_test_top.env.master_agent.mon [axi4_master_monitor] W data assembled: ID=0xb ADDR=0xbeca304a 9 beats
# UVM_INFO ../src/mst/axi4_master_driver.sv(289) @ 2005000: uvm_test_top.env.master_agent.drv [axi4_master_driver] Master driver received B response: ID=0xb RESP=AXI4_RESP_OKAY
# UVM_INFO ../src/slv/axi4_slave_driver.sv(348) @ 2005000: uvm_test_top.env.slave_agent.drv [axi4_slave_driver] Write complete: ID=0xb RESP=AXI4_RESP_OKAY
# UVM_INFO ../src/mst/axi4_master_monitor.sv(210) @ 2005000: uvm_test_top.env.master_agent.mon [axi4_master_monitor] Write complete: ID=0xb ADDR=0xbeca304a RESP=AXI4_RESP_OKAY
# UVM_INFO ../src/env/axi4_scoreboard.sv(87) @ 2005000: uvm_test_top.env.scb [axi4_scoreboard] Master AXI4_WRITE received: ID=0xb ADDR=0xbeca304a LEN=8
# UVM_INFO ../src/slv/axi4_slave_monitor.sv(189) @ 2005000: uvm_test_top.env.slave_agent.mon [axi4_slave_monitor] Write response sent: ID=0xb ADDR=0xbeca304a RESP=AXI4_RESP_OKAY
# UVM_INFO ../src/env/axi4_scoreboard.sv(108) @ 2005000: uvm_test_top.env.scb [axi4_scoreboard] Slave AXI4_WRITE received: ID=0xb ADDR=0xbeca304a LEN=8
# UVM_INFO ../src/env/axi4_scoreboard.sv(291) @ 2005000: uvm_test_top.env.scb [axi4_scoreboard] [WRITE] MATCH #9: ID=0xb ADDR=0xbeca304a LEN=8
# UVM_INFO ../src/env/axi4_scoreboard.sv(219) @ 2005000: uvm_test_top.env.scb [axi4_scoreboard] [REF_MEM_WRITE] Addr=0xbeca3048 Data=0x60
# UVM_INFO ../src/env/axi4_scoreboard.sv(219) @ 2005000: uvm_test_top.env.scb [axi4_scoreboard] [REF_MEM_WRITE] Addr=0xbeca3049 Data=0x31
# UVM_INFO ../src/env/axi4_scoreboard.sv(219) @ 2005000: uvm_test_top.env.scb [axi4_scoreboard] [REF_MEM_WRITE] Addr=0xbeca304c Data=0xe7
# UVM_INFO ../src/env/axi4_scoreboard.sv(219) @ 2005000: uvm_test_top.env.scb [axi4_scoreboard] [REF_MEM_WRITE] Addr=0xbeca304e Data=0xef
# UVM_INFO ../src/env/axi4_scoreboard.sv(219) @ 2005000: uvm_test_top.env.scb [axi4_scoreboard] [REF_MEM_WRITE] Addr=0xbeca3050 Data=0xfd
# UVM_INFO ../src/env/axi4_scoreboard.sv(219) @ 2005000: uvm_test_top.env.scb [axi4_scoreboard] [REF_MEM_WRITE] Addr=0xbeca3052 Data=0x7a
# UVM_INFO ../src/env/axi4_scoreboard.sv(219) @ 2005000: uvm_test_top.env.scb [axi4_scoreboard] [REF_MEM_WRITE] Addr=0xbeca3053 Data=0x03
# UVM_INFO ../src/env/axi4_scoreboard.sv(219) @ 2005000: uvm_test_top.env.scb [axi4_scoreboard] [REF_MEM_WRITE] Addr=0xbeca3056 Data=0x94
# UVM_INFO ../src/env/axi4_scoreboard.sv(219) @ 2005000: uvm_test_top.env.scb [axi4_scoreboard] [REF_MEM_WRITE] Addr=0xbeca305c Data=0xac
# UVM_INFO ../src/env/axi4_scoreboard.sv(219) @ 2005000: uvm_test_top.env.scb [axi4_scoreboard] [REF_MEM_WRITE] Addr=0xbeca305f Data=0x89
# UVM_INFO ../src/env/axi4_scoreboard.sv(219) @ 2005000: uvm_test_top.env.scb [axi4_scoreboard] [REF_MEM_WRITE] Addr=0xbeca3061 Data=0xdb
# UVM_INFO ../src/env/axi4_scoreboard.sv(219) @ 2005000: uvm_test_top.env.scb [axi4_scoreboard] [REF_MEM_WRITE] Addr=0xbeca3062 Data=0x1f
# UVM_INFO ../src/env/axi4_scoreboard.sv(219) @ 2005000: uvm_test_top.env.scb [axi4_scoreboard] [REF_MEM_WRITE] Addr=0xbeca3063 Data=0x40
# UVM_INFO ../src/env/axi4_scoreboard.sv(219) @ 2005000: uvm_test_top.env.scb [axi4_scoreboard] [REF_MEM_WRITE] Addr=0xbeca3069 Data=0xa6
# UVM_INFO ../src/env/axi4_scoreboard.sv(219) @ 2005000: uvm_test_top.env.scb [axi4_scoreboard] [REF_MEM_WRITE] Addr=0xbeca306b Data=0x97
# UVM_INFO ../src/seq/axi4_write_read_back_seq.sv(62) @ 2005000: uvm_test_top.env.master_agent.sqr@@wr_rd_seq_4 [axi4_write_read_back_seq] Write phase: ADDR=0xbeca304a LEN=8 SIZE=AXI4_SIZE_4B BURST=AXI4_BURST_INCR
# UVM_INFO ../src/mst/axi4_master_driver.sv(73) @ 2005000: uvm_test_top.env.master_agent.drv [axi4_master_driver] Driving AXI4_READ  ID=0xd  ADDR=0xbeca304a  LEN=8
# UVM_INFO ../src/slv/axi4_slave_driver.sv(386) @ 2035000: uvm_test_top.env.slave_agent.drv [axi4_slave_driver] AR received: ID=0xd ADDR=0xbeca304a LEN=8 LOCK=AXI4_LOCK_NORMAL
# UVM_INFO ../src/slv/axi4_slave_monitor.sv(224) @ 2035000: uvm_test_top.env.slave_agent.mon [axi4_slave_monitor] AR received: ID=0xd ADDR=0xbeca304a LEN=8
# UVM_INFO ../src/mst/axi4_master_monitor.sv(246) @ 2035000: uvm_test_top.env.master_agent.mon [axi4_master_monitor] AR observed: ID=0xd ADDR=0xbeca304a LEN=8
# UVM_INFO ../src/mst/axi4_master_driver.sv(348) @ 2215000: uvm_test_top.env.master_agent.drv [axi4_master_driver] Master driver received all R beats for ID=0xd
# UVM_INFO ../src/slv/axi4_slave_driver.sv(501) @ 2215000: uvm_test_top.env.slave_agent.drv [axi4_slave_driver] Read complete: ID=0xd ADDR=0xbeca304a RESP=AXI4_RESP_OKAY  9 beats sent
# UVM_INFO ../src/slv/axi4_slave_monitor.sv(287) @ 2215000: uvm_test_top.env.slave_agent.mon [axi4_slave_monitor] Read data sent: ID=0xd ADDR=0xbeca304a 9 beats
# UVM_INFO ../src/env/axi4_scoreboard.sv(108) @ 2215000: uvm_test_top.env.scb [axi4_scoreboard] Slave AXI4_READ received: ID=0xd ADDR=0xbeca304a LEN=8
# UVM_INFO ../src/mst/axi4_master_monitor.sv(314) @ 2215000: uvm_test_top.env.master_agent.mon [axi4_master_monitor] Read complete: ID=0xd ADDR=0xbeca304a 9 beats
# UVM_INFO ../src/env/axi4_scoreboard.sv(87) @ 2215000: uvm_test_top.env.scb [axi4_scoreboard] Master AXI4_READ received: ID=0xd ADDR=0xbeca304a LEN=8
# UVM_INFO ../src/env/axi4_scoreboard.sv(291) @ 2215000: uvm_test_top.env.scb [axi4_scoreboard] [READ] MATCH #10: ID=0xd ADDR=0xbeca304a LEN=8
# UVM_INFO ../src/seq/axi4_write_read_back_seq.sv(84) @ 2215000: uvm_test_top.env.master_agent.sqr@@wr_rd_seq_4 [axi4_write_read_back_seq] Read-back phase: ADDR=0xbeca304a LEN=8 - data integrity check via scoreboard
# UVM_INFO ../src/test/axi4_sanity_test.sv(52) @ 2215000: uvm_test_top [axi4_sanity_test] [6/10] ADDR=0x989d5617 LEN=1 BURST=AXI4_BURST_INCR
# UVM_INFO ../src/mst/axi4_master_driver.sv(73) @ 2215000: uvm_test_top.env.master_agent.drv [axi4_master_driver] Driving AXI4_WRITE  ID=0x3  ADDR=0x989d5617  LEN=1
# UVM_INFO ../src/slv/axi4_slave_driver.sv(228) @ 2265000: uvm_test_top.env.slave_agent.drv [axi4_slave_driver] AW received: ID=0x3 ADDR=0x989d5617 LEN=1 LOCK=AXI4_LOCK_NORMAL
# UVM_INFO ../src/mst/axi4_master_monitor.sv(124) @ 2265000: uvm_test_top.env.master_agent.mon [axi4_master_monitor] AW observed: ID=0x3 ADDR=0x989d5617 LEN=1
# UVM_INFO ../src/slv/axi4_slave_monitor.sv(116) @ 2265000: uvm_test_top.env.slave_agent.mon [axi4_slave_monitor] AW received: ID=0x3 ADDR=0x989d5617 LEN=1
# UVM_INFO ../src/mst/axi4_master_monitor.sv(184) @ 2265000: uvm_test_top.env.master_agent.mon [axi4_master_monitor] W data assembled: ID=0x3 ADDR=0x989d5617 2 beats
# UVM_INFO ../src/slv/axi4_slave_monitor.sv(167) @ 2265000: uvm_test_top.env.slave_agent.mon [axi4_slave_monitor] W data assembled: ID=0x3 ADDR=0x989d5617 2 beats
# UVM_INFO ../src/mst/axi4_master_driver.sv(289) @ 2285000: uvm_test_top.env.master_agent.drv [axi4_master_driver] Master driver received B response: ID=0x3 RESP=AXI4_RESP_OKAY
# UVM_INFO ../src/slv/axi4_slave_driver.sv(348) @ 2285000: uvm_test_top.env.slave_agent.drv [axi4_slave_driver] Write complete: ID=0x3 RESP=AXI4_RESP_OKAY
# UVM_INFO ../src/mst/axi4_master_monitor.sv(210) @ 2285000: uvm_test_top.env.master_agent.mon [axi4_master_monitor] Write complete: ID=0x3 ADDR=0x989d5617 RESP=AXI4_RESP_OKAY
# UVM_INFO ../src/env/axi4_scoreboard.sv(87) @ 2285000: uvm_test_top.env.scb [axi4_scoreboard] Master AXI4_WRITE received: ID=0x3 ADDR=0x989d5617 LEN=1
# UVM_INFO ../src/slv/axi4_slave_monitor.sv(189) @ 2285000: uvm_test_top.env.slave_agent.mon [axi4_slave_monitor] Write response sent: ID=0x3 ADDR=0x989d5617 RESP=AXI4_RESP_OKAY
# UVM_INFO ../src/env/axi4_scoreboard.sv(108) @ 2285000: uvm_test_top.env.scb [axi4_scoreboard] Slave AXI4_WRITE received: ID=0x3 ADDR=0x989d5617 LEN=1
# UVM_INFO ../src/env/axi4_scoreboard.sv(291) @ 2285000: uvm_test_top.env.scb [axi4_scoreboard] [WRITE] MATCH #11: ID=0x3 ADDR=0x989d5617 LEN=1
# UVM_INFO ../src/env/axi4_scoreboard.sv(219) @ 2285000: uvm_test_top.env.scb [axi4_scoreboard] [REF_MEM_WRITE] Addr=0x989d5614 Data=0xb0
# UVM_INFO ../src/env/axi4_scoreboard.sv(219) @ 2285000: uvm_test_top.env.scb [axi4_scoreboard] [REF_MEM_WRITE] Addr=0x989d5615 Data=0x2d
# UVM_INFO ../src/env/axi4_scoreboard.sv(219) @ 2285000: uvm_test_top.env.scb [axi4_scoreboard] [REF_MEM_WRITE] Addr=0x989d5616 Data=0x19
# UVM_INFO ../src/env/axi4_scoreboard.sv(219) @ 2285000: uvm_test_top.env.scb [axi4_scoreboard] [REF_MEM_WRITE] Addr=0x989d5618 Data=0x3c
# UVM_INFO ../src/env/axi4_scoreboard.sv(219) @ 2285000: uvm_test_top.env.scb [axi4_scoreboard] [REF_MEM_WRITE] Addr=0x989d561a Data=0x4a
# UVM_INFO ../src/env/axi4_scoreboard.sv(219) @ 2285000: uvm_test_top.env.scb [axi4_scoreboard] [REF_MEM_WRITE] Addr=0x989d561b Data=0xb0
# UVM_INFO ../src/seq/axi4_write_read_back_seq.sv(62) @ 2285000: uvm_test_top.env.master_agent.sqr@@wr_rd_seq_5 [axi4_write_read_back_seq] Write phase: ADDR=0x989d5617 LEN=1 SIZE=AXI4_SIZE_4B BURST=AXI4_BURST_INCR
# UVM_INFO ../src/mst/axi4_master_driver.sv(73) @ 2285000: uvm_test_top.env.master_agent.drv [axi4_master_driver] Driving AXI4_READ  ID=0x5  ADDR=0x989d5617  LEN=1
# UVM_INFO ../src/slv/axi4_slave_driver.sv(386) @ 2315000: uvm_test_top.env.slave_agent.drv [axi4_slave_driver] AR received: ID=0x5 ADDR=0x989d5617 LEN=1 LOCK=AXI4_LOCK_NORMAL
# UVM_INFO ../src/slv/axi4_slave_monitor.sv(224) @ 2315000: uvm_test_top.env.slave_agent.mon [axi4_slave_monitor] AR received: ID=0x5 ADDR=0x989d5617 LEN=1
# UVM_INFO ../src/mst/axi4_master_monitor.sv(246) @ 2315000: uvm_test_top.env.master_agent.mon [axi4_master_monitor] AR observed: ID=0x5 ADDR=0x989d5617 LEN=1
# UVM_INFO ../src/mst/axi4_master_driver.sv(348) @ 2355000: uvm_test_top.env.master_agent.drv [axi4_master_driver] Master driver received all R beats for ID=0x5
# UVM_INFO ../src/slv/axi4_slave_driver.sv(501) @ 2355000: uvm_test_top.env.slave_agent.drv [axi4_slave_driver] Read complete: ID=0x5 ADDR=0x989d5617 RESP=AXI4_RESP_OKAY  2 beats sent
# UVM_INFO ../src/slv/axi4_slave_monitor.sv(287) @ 2355000: uvm_test_top.env.slave_agent.mon [axi4_slave_monitor] Read data sent: ID=0x5 ADDR=0x989d5617 2 beats
# UVM_INFO ../src/env/axi4_scoreboard.sv(108) @ 2355000: uvm_test_top.env.scb [axi4_scoreboard] Slave AXI4_READ received: ID=0x5 ADDR=0x989d5617 LEN=1
# UVM_INFO ../src/mst/axi4_master_monitor.sv(314) @ 2355000: uvm_test_top.env.master_agent.mon [axi4_master_monitor] Read complete: ID=0x5 ADDR=0x989d5617 2 beats
# UVM_INFO ../src/env/axi4_scoreboard.sv(87) @ 2355000: uvm_test_top.env.scb [axi4_scoreboard] Master AXI4_READ received: ID=0x5 ADDR=0x989d5617 LEN=1
# UVM_INFO ../src/env/axi4_scoreboard.sv(291) @ 2355000: uvm_test_top.env.scb [axi4_scoreboard] [READ] MATCH #12: ID=0x5 ADDR=0x989d5617 LEN=1
# UVM_INFO ../src/seq/axi4_write_read_back_seq.sv(84) @ 2355000: uvm_test_top.env.master_agent.sqr@@wr_rd_seq_5 [axi4_write_read_back_seq] Read-back phase: ADDR=0x989d5617 LEN=1 - data integrity check via scoreboard
# UVM_INFO ../src/test/axi4_sanity_test.sv(52) @ 2355000: uvm_test_top [axi4_sanity_test] [7/10] ADDR=0x18af1e69 LEN=0 BURST=AXI4_BURST_INCR
# UVM_INFO ../src/mst/axi4_master_driver.sv(73) @ 2355000: uvm_test_top.env.master_agent.drv [axi4_master_driver] Driving AXI4_WRITE  ID=0xb  ADDR=0x18af1e69  LEN=0
# UVM_INFO ../src/slv/axi4_slave_driver.sv(228) @ 2385000: uvm_test_top.env.slave_agent.drv [axi4_slave_driver] AW received: ID=0xb ADDR=0x18af1e69 LEN=0 LOCK=AXI4_LOCK_NORMAL
# UVM_INFO ../src/mst/axi4_master_monitor.sv(124) @ 2385000: uvm_test_top.env.master_agent.mon [axi4_master_monitor] AW observed: ID=0xb ADDR=0x18af1e69 LEN=0
# UVM_INFO ../src/slv/axi4_slave_monitor.sv(116) @ 2385000: uvm_test_top.env.slave_agent.mon [axi4_slave_monitor] AW received: ID=0xb ADDR=0x18af1e69 LEN=0
# UVM_INFO ../src/mst/axi4_master_monitor.sv(184) @ 2385000: uvm_test_top.env.master_agent.mon [axi4_master_monitor] W data assembled: ID=0xb ADDR=0x18af1e69 1 beats
# UVM_INFO ../src/slv/axi4_slave_monitor.sv(167) @ 2385000: uvm_test_top.env.slave_agent.mon [axi4_slave_monitor] W data assembled: ID=0xb ADDR=0x18af1e69 1 beats
# UVM_INFO ../src/mst/axi4_master_driver.sv(289) @ 2405000: uvm_test_top.env.master_agent.drv [axi4_master_driver] Master driver received B response: ID=0xb RESP=AXI4_RESP_OKAY
# UVM_INFO ../src/slv/axi4_slave_driver.sv(348) @ 2405000: uvm_test_top.env.slave_agent.drv [axi4_slave_driver] Write complete: ID=0xb RESP=AXI4_RESP_OKAY
# UVM_INFO ../src/mst/axi4_master_monitor.sv(210) @ 2405000: uvm_test_top.env.master_agent.mon [axi4_master_monitor] Write complete: ID=0xb ADDR=0x18af1e69 RESP=AXI4_RESP_OKAY
# UVM_INFO ../src/env/axi4_scoreboard.sv(87) @ 2405000: uvm_test_top.env.scb [axi4_scoreboard] Master AXI4_WRITE received: ID=0xb ADDR=0x18af1e69 LEN=0
# UVM_INFO ../src/slv/axi4_slave_monitor.sv(189) @ 2405000: uvm_test_top.env.slave_agent.mon [axi4_slave_monitor] Write response sent: ID=0xb ADDR=0x18af1e69 RESP=AXI4_RESP_OKAY
# UVM_INFO ../src/env/axi4_scoreboard.sv(108) @ 2405000: uvm_test_top.env.scb [axi4_scoreboard] Slave AXI4_WRITE received: ID=0xb ADDR=0x18af1e69 LEN=0
# UVM_INFO ../src/env/axi4_scoreboard.sv(291) @ 2405000: uvm_test_top.env.scb [axi4_scoreboard] [WRITE] MATCH #13: ID=0xb ADDR=0x18af1e69 LEN=0
# UVM_INFO ../src/env/axi4_scoreboard.sv(219) @ 2405000: uvm_test_top.env.scb [axi4_scoreboard] [REF_MEM_WRITE] Addr=0x18af1e68 Data=0xcf
# UVM_INFO ../src/env/axi4_scoreboard.sv(219) @ 2405000: uvm_test_top.env.scb [axi4_scoreboard] [REF_MEM_WRITE] Addr=0x18af1e69 Data=0x01
# UVM_INFO ../src/env/axi4_scoreboard.sv(219) @ 2405000: uvm_test_top.env.scb [axi4_scoreboard] [REF_MEM_WRITE] Addr=0x18af1e6b Data=0xd1
# UVM_INFO ../src/seq/axi4_write_read_back_seq.sv(62) @ 2405000: uvm_test_top.env.master_agent.sqr@@wr_rd_seq_6 [axi4_write_read_back_seq] Write phase: ADDR=0x18af1e69 LEN=0 SIZE=AXI4_SIZE_4B BURST=AXI4_BURST_INCR
# UVM_INFO ../src/mst/axi4_master_driver.sv(73) @ 2405000: uvm_test_top.env.master_agent.drv [axi4_master_driver] Driving AXI4_READ  ID=0xc  ADDR=0x18af1e69  LEN=0
# UVM_INFO ../src/slv/axi4_slave_driver.sv(386) @ 2435000: uvm_test_top.env.slave_agent.drv [axi4_slave_driver] AR received: ID=0xc ADDR=0x18af1e69 LEN=0 LOCK=AXI4_LOCK_NORMAL
# UVM_INFO ../src/slv/axi4_slave_monitor.sv(224) @ 2435000: uvm_test_top.env.slave_agent.mon [axi4_slave_monitor] AR received: ID=0xc ADDR=0x18af1e69 LEN=0
# UVM_INFO ../src/mst/axi4_master_monitor.sv(246) @ 2435000: uvm_test_top.env.master_agent.mon [axi4_master_monitor] AR observed: ID=0xc ADDR=0x18af1e69 LEN=0
# UVM_INFO ../src/mst/axi4_master_driver.sv(348) @ 2455000: uvm_test_top.env.master_agent.drv [axi4_master_driver] Master driver received all R beats for ID=0xc
# UVM_INFO ../src/slv/axi4_slave_driver.sv(501) @ 2455000: uvm_test_top.env.slave_agent.drv [axi4_slave_driver] Read complete: ID=0xc ADDR=0x18af1e69 RESP=AXI4_RESP_OKAY  1 beats sent
# UVM_INFO ../src/slv/axi4_slave_monitor.sv(287) @ 2455000: uvm_test_top.env.slave_agent.mon [axi4_slave_monitor] Read data sent: ID=0xc ADDR=0x18af1e69 1 beats
# UVM_INFO ../src/env/axi4_scoreboard.sv(108) @ 2455000: uvm_test_top.env.scb [axi4_scoreboard] Slave AXI4_READ received: ID=0xc ADDR=0x18af1e69 LEN=0
# UVM_INFO ../src/mst/axi4_master_monitor.sv(314) @ 2455000: uvm_test_top.env.master_agent.mon [axi4_master_monitor] Read complete: ID=0xc ADDR=0x18af1e69 1 beats
# UVM_INFO ../src/env/axi4_scoreboard.sv(87) @ 2455000: uvm_test_top.env.scb [axi4_scoreboard] Master AXI4_READ received: ID=0xc ADDR=0x18af1e69 LEN=0
# UVM_INFO ../src/env/axi4_scoreboard.sv(291) @ 2455000: uvm_test_top.env.scb [axi4_scoreboard] [READ] MATCH #14: ID=0xc ADDR=0x18af1e69 LEN=0
# UVM_INFO ../src/seq/axi4_write_read_back_seq.sv(84) @ 2455000: uvm_test_top.env.master_agent.sqr@@wr_rd_seq_6 [axi4_write_read_back_seq] Read-back phase: ADDR=0x18af1e69 LEN=0 - data integrity check via scoreboard
# UVM_INFO ../src/test/axi4_sanity_test.sv(52) @ 2455000: uvm_test_top [axi4_sanity_test] [8/10] ADDR=0xf9908ad1 LEN=10 BURST=AXI4_BURST_INCR
# UVM_INFO ../src/mst/axi4_master_driver.sv(73) @ 2455000: uvm_test_top.env.master_agent.drv [axi4_master_driver] Driving AXI4_WRITE  ID=0x5  ADDR=0xf9908ad1  LEN=10
# UVM_INFO ../src/slv/axi4_slave_driver.sv(228) @ 2485000: uvm_test_top.env.slave_agent.drv [axi4_slave_driver] AW received: ID=0x5 ADDR=0xf9908ad1 LEN=10 LOCK=AXI4_LOCK_NORMAL
# UVM_INFO ../src/mst/axi4_master_monitor.sv(124) @ 2485000: uvm_test_top.env.master_agent.mon [axi4_master_monitor] AW observed: ID=0x5 ADDR=0xf9908ad1 LEN=10
# UVM_INFO ../src/slv/axi4_slave_monitor.sv(116) @ 2485000: uvm_test_top.env.slave_agent.mon [axi4_slave_monitor] AW received: ID=0x5 ADDR=0xf9908ad1 LEN=10
# UVM_INFO ../src/slv/axi4_slave_monitor.sv(167) @ 2675000: uvm_test_top.env.slave_agent.mon [axi4_slave_monitor] W data assembled: ID=0x5 ADDR=0xf9908ad1 11 beats
# UVM_INFO ../src/mst/axi4_master_monitor.sv(184) @ 2675000: uvm_test_top.env.master_agent.mon [axi4_master_monitor] W data assembled: ID=0x5 ADDR=0xf9908ad1 11 beats
# UVM_INFO ../src/mst/axi4_master_driver.sv(289) @ 2705000: uvm_test_top.env.master_agent.drv [axi4_master_driver] Master driver received B response: ID=0x5 RESP=AXI4_RESP_DECERR
# UVM_INFO ../src/slv/axi4_slave_driver.sv(348) @ 2705000: uvm_test_top.env.slave_agent.drv [axi4_slave_driver] Write complete: ID=0x5 RESP=AXI4_RESP_DECERR
# UVM_INFO ../src/mst/axi4_master_monitor.sv(210) @ 2705000: uvm_test_top.env.master_agent.mon [axi4_master_monitor] Write complete: ID=0x5 ADDR=0xf9908ad1 RESP=AXI4_RESP_DECERR
# UVM_INFO ../src/env/axi4_scoreboard.sv(87) @ 2705000: uvm_test_top.env.scb [axi4_scoreboard] Master AXI4_WRITE received: ID=0x5 ADDR=0xf9908ad1 LEN=10
# UVM_INFO ../src/slv/axi4_slave_monitor.sv(189) @ 2705000: uvm_test_top.env.slave_agent.mon [axi4_slave_monitor] Write response sent: ID=0x5 ADDR=0xf9908ad1 RESP=AXI4_RESP_DECERR
# UVM_INFO ../src/env/axi4_scoreboard.sv(108) @ 2705000: uvm_test_top.env.scb [axi4_scoreboard] Slave AXI4_WRITE received: ID=0x5 ADDR=0xf9908ad1 LEN=10
# UVM_INFO ../src/env/axi4_scoreboard.sv(291) @ 2705000: uvm_test_top.env.scb [axi4_scoreboard] [WRITE] MATCH #15: ID=0x5 ADDR=0xf9908ad1 LEN=10
# UVM_INFO ../src/env/axi4_scoreboard.sv(226) @ 2705000: uvm_test_top.env.scb [axi4_scoreboard] [REF_MEM_WRITE_IGNORED] Write ignored for ADDR=0xf9908ad1 LOCK=AXI4_LOCK_NORMAL RESP=AXI4_RESP_DECERR
# UVM_INFO ../src/seq/axi4_write_read_back_seq.sv(62) @ 2705000: uvm_test_top.env.master_agent.sqr@@wr_rd_seq_7 [axi4_write_read_back_seq] Write phase: ADDR=0xf9908ad1 LEN=10 SIZE=AXI4_SIZE_4B BURST=AXI4_BURST_INCR
# UVM_INFO ../src/mst/axi4_master_driver.sv(73) @ 2705000: uvm_test_top.env.master_agent.drv [axi4_master_driver] Driving AXI4_READ  ID=0x3  ADDR=0xf9908ad1  LEN=10
# UVM_INFO ../src/slv/axi4_slave_driver.sv(386) @ 2735000: uvm_test_top.env.slave_agent.drv [axi4_slave_driver] AR received: ID=0x3 ADDR=0xf9908ad1 LEN=10 LOCK=AXI4_LOCK_NORMAL
# UVM_INFO ../src/slv/axi4_slave_monitor.sv(224) @ 2735000: uvm_test_top.env.slave_agent.mon [axi4_slave_monitor] AR received: ID=0x3 ADDR=0xf9908ad1 LEN=10
# UVM_INFO ../src/mst/axi4_master_monitor.sv(246) @ 2735000: uvm_test_top.env.master_agent.mon [axi4_master_monitor] AR observed: ID=0x3 ADDR=0xf9908ad1 LEN=10
# UVM_INFO ../src/mst/axi4_master_driver.sv(348) @ 2955000: uvm_test_top.env.master_agent.drv [axi4_master_driver] Master driver received all R beats for ID=0x3
# UVM_INFO ../src/slv/axi4_slave_driver.sv(501) @ 2955000: uvm_test_top.env.slave_agent.drv [axi4_slave_driver] Read complete: ID=0x3 ADDR=0xf9908ad1 RESP=AXI4_RESP_DECERR  11 beats sent
# UVM_INFO ../src/slv/axi4_slave_monitor.sv(287) @ 2955000: uvm_test_top.env.slave_agent.mon [axi4_slave_monitor] Read data sent: ID=0x3 ADDR=0xf9908ad1 11 beats
# UVM_INFO ../src/env/axi4_scoreboard.sv(108) @ 2955000: uvm_test_top.env.scb [axi4_scoreboard] Slave AXI4_READ received: ID=0x3 ADDR=0xf9908ad1 LEN=10
# UVM_INFO ../src/mst/axi4_master_monitor.sv(314) @ 2955000: uvm_test_top.env.master_agent.mon [axi4_master_monitor] Read complete: ID=0x3 ADDR=0xf9908ad1 11 beats
# UVM_INFO ../src/env/axi4_scoreboard.sv(87) @ 2955000: uvm_test_top.env.scb [axi4_scoreboard] Master AXI4_READ received: ID=0x3 ADDR=0xf9908ad1 LEN=10
# UVM_INFO ../src/env/axi4_scoreboard.sv(291) @ 2955000: uvm_test_top.env.scb [axi4_scoreboard] [READ] MATCH #16: ID=0x3 ADDR=0xf9908ad1 LEN=10
# UVM_INFO ../src/seq/axi4_write_read_back_seq.sv(84) @ 2955000: uvm_test_top.env.master_agent.sqr@@wr_rd_seq_7 [axi4_write_read_back_seq] Read-back phase: ADDR=0xf9908ad1 LEN=10 - data integrity check via scoreboard
# UVM_INFO ../src/test/axi4_sanity_test.sv(52) @ 2955000: uvm_test_top [axi4_sanity_test] [9/10] ADDR=0x2e5dcfd1 LEN=0 BURST=AXI4_BURST_INCR
# UVM_INFO ../src/mst/axi4_master_driver.sv(73) @ 2955000: uvm_test_top.env.master_agent.drv [axi4_master_driver] Driving AXI4_WRITE  ID=0x5  ADDR=0x2e5dcfd1  LEN=0
# UVM_INFO ../src/slv/axi4_slave_driver.sv(228) @ 3015000: uvm_test_top.env.slave_agent.drv [axi4_slave_driver] AW received: ID=0x5 ADDR=0x2e5dcfd1 LEN=0 LOCK=AXI4_LOCK_NORMAL
# UVM_INFO ../src/slv/axi4_slave_monitor.sv(116) @ 3015000: uvm_test_top.env.slave_agent.mon [axi4_slave_monitor] AW received: ID=0x5 ADDR=0x2e5dcfd1 LEN=0
# UVM_INFO ../src/mst/axi4_master_monitor.sv(124) @ 3015000: uvm_test_top.env.master_agent.mon [axi4_master_monitor] AW observed: ID=0x5 ADDR=0x2e5dcfd1 LEN=0
# UVM_INFO ../src/slv/axi4_slave_monitor.sv(167) @ 3015000: uvm_test_top.env.slave_agent.mon [axi4_slave_monitor] W data assembled: ID=0x5 ADDR=0x2e5dcfd1 1 beats
# UVM_INFO ../src/mst/axi4_master_monitor.sv(184) @ 3015000: uvm_test_top.env.master_agent.mon [axi4_master_monitor] W data assembled: ID=0x5 ADDR=0x2e5dcfd1 1 beats
# UVM_INFO ../src/mst/axi4_master_driver.sv(289) @ 3035000: uvm_test_top.env.master_agent.drv [axi4_master_driver] Master driver received B response: ID=0x5 RESP=AXI4_RESP_OKAY
# UVM_INFO ../src/slv/axi4_slave_driver.sv(348) @ 3035000: uvm_test_top.env.slave_agent.drv [axi4_slave_driver] Write complete: ID=0x5 RESP=AXI4_RESP_OKAY
# UVM_INFO ../src/slv/axi4_slave_monitor.sv(189) @ 3035000: uvm_test_top.env.slave_agent.mon [axi4_slave_monitor] Write response sent: ID=0x5 ADDR=0x2e5dcfd1 RESP=AXI4_RESP_OKAY
# UVM_INFO ../src/env/axi4_scoreboard.sv(108) @ 3035000: uvm_test_top.env.scb [axi4_scoreboard] Slave AXI4_WRITE received: ID=0x5 ADDR=0x2e5dcfd1 LEN=0
# UVM_INFO ../src/mst/axi4_master_monitor.sv(210) @ 3035000: uvm_test_top.env.master_agent.mon [axi4_master_monitor] Write complete: ID=0x5 ADDR=0x2e5dcfd1 RESP=AXI4_RESP_OKAY
# UVM_INFO ../src/env/axi4_scoreboard.sv(87) @ 3035000: uvm_test_top.env.scb [axi4_scoreboard] Master AXI4_WRITE received: ID=0x5 ADDR=0x2e5dcfd1 LEN=0
# UVM_INFO ../src/env/axi4_scoreboard.sv(291) @ 3035000: uvm_test_top.env.scb [axi4_scoreboard] [WRITE] MATCH #17: ID=0x5 ADDR=0x2e5dcfd1 LEN=0
# UVM_INFO ../src/env/axi4_scoreboard.sv(219) @ 3035000: uvm_test_top.env.scb [axi4_scoreboard] [REF_MEM_WRITE] Addr=0x2e5dcfd0 Data=0xf3
# UVM_INFO ../src/env/axi4_scoreboard.sv(219) @ 3035000: uvm_test_top.env.scb [axi4_scoreboard] [REF_MEM_WRITE] Addr=0x2e5dcfd2 Data=0x69
# UVM_INFO ../src/seq/axi4_write_read_back_seq.sv(62) @ 3035000: uvm_test_top.env.master_agent.sqr@@wr_rd_seq_8 [axi4_write_read_back_seq] Write phase: ADDR=0x2e5dcfd1 LEN=0 SIZE=AXI4_SIZE_4B BURST=AXI4_BURST_INCR
# UVM_INFO ../src/mst/axi4_master_driver.sv(73) @ 3035000: uvm_test_top.env.master_agent.drv [axi4_master_driver] Driving AXI4_READ  ID=0xb  ADDR=0x2e5dcfd1  LEN=0
# UVM_INFO ../src/slv/axi4_slave_driver.sv(386) @ 3065000: uvm_test_top.env.slave_agent.drv [axi4_slave_driver] AR received: ID=0xb ADDR=0x2e5dcfd1 LEN=0 LOCK=AXI4_LOCK_NORMAL
# UVM_INFO ../src/mst/axi4_master_monitor.sv(246) @ 3065000: uvm_test_top.env.master_agent.mon [axi4_master_monitor] AR observed: ID=0xb ADDR=0x2e5dcfd1 LEN=0
# UVM_INFO ../src/slv/axi4_slave_monitor.sv(224) @ 3065000: uvm_test_top.env.slave_agent.mon [axi4_slave_monitor] AR received: ID=0xb ADDR=0x2e5dcfd1 LEN=0
# UVM_INFO ../src/mst/axi4_master_driver.sv(348) @ 3085000: uvm_test_top.env.master_agent.drv [axi4_master_driver] Master driver received all R beats for ID=0xb
# UVM_INFO ../src/slv/axi4_slave_driver.sv(501) @ 3085000: uvm_test_top.env.slave_agent.drv [axi4_slave_driver] Read complete: ID=0xb ADDR=0x2e5dcfd1 RESP=AXI4_RESP_OKAY  1 beats sent
# UVM_INFO ../src/mst/axi4_master_monitor.sv(314) @ 3085000: uvm_test_top.env.master_agent.mon [axi4_master_monitor] Read complete: ID=0xb ADDR=0x2e5dcfd1 1 beats
# UVM_INFO ../src/env/axi4_scoreboard.sv(87) @ 3085000: uvm_test_top.env.scb [axi4_scoreboard] Master AXI4_READ received: ID=0xb ADDR=0x2e5dcfd1 LEN=0
# UVM_INFO ../src/slv/axi4_slave_monitor.sv(287) @ 3085000: uvm_test_top.env.slave_agent.mon [axi4_slave_monitor] Read data sent: ID=0xb ADDR=0x2e5dcfd1 1 beats
# UVM_INFO ../src/env/axi4_scoreboard.sv(108) @ 3085000: uvm_test_top.env.scb [axi4_scoreboard] Slave AXI4_READ received: ID=0xb ADDR=0x2e5dcfd1 LEN=0
# UVM_INFO ../src/env/axi4_scoreboard.sv(291) @ 3085000: uvm_test_top.env.scb [axi4_scoreboard] [READ] MATCH #18: ID=0xb ADDR=0x2e5dcfd1 LEN=0
# UVM_INFO ../src/seq/axi4_write_read_back_seq.sv(84) @ 3085000: uvm_test_top.env.master_agent.sqr@@wr_rd_seq_8 [axi4_write_read_back_seq] Read-back phase: ADDR=0x2e5dcfd1 LEN=0 - data integrity check via scoreboard
# UVM_INFO ../src/test/axi4_sanity_test.sv(52) @ 3085000: uvm_test_top [axi4_sanity_test] [10/10] ADDR=0xeb0283f0 LEN=3 BURST=AXI4_BURST_INCR
# UVM_INFO ../src/mst/axi4_master_driver.sv(73) @ 3085000: uvm_test_top.env.master_agent.drv [axi4_master_driver] Driving AXI4_WRITE  ID=0xc  ADDR=0xeb0283f0  LEN=3
# UVM_INFO ../src/slv/axi4_slave_driver.sv(228) @ 3115000: uvm_test_top.env.slave_agent.drv [axi4_slave_driver] AW received: ID=0xc ADDR=0xeb0283f0 LEN=3 LOCK=AXI4_LOCK_NORMAL
# UVM_INFO ../src/slv/axi4_slave_monitor.sv(116) @ 3115000: uvm_test_top.env.slave_agent.mon [axi4_slave_monitor] AW received: ID=0xc ADDR=0xeb0283f0 LEN=3
# UVM_INFO ../src/mst/axi4_master_monitor.sv(124) @ 3115000: uvm_test_top.env.master_agent.mon [axi4_master_monitor] AW observed: ID=0xc ADDR=0xeb0283f0 LEN=3
# UVM_INFO ../src/slv/axi4_slave_monitor.sv(167) @ 3195000: uvm_test_top.env.slave_agent.mon [axi4_slave_monitor] W data assembled: ID=0xc ADDR=0xeb0283f0 4 beats
# UVM_INFO ../src/mst/axi4_master_monitor.sv(184) @ 3195000: uvm_test_top.env.master_agent.mon [axi4_master_monitor] W data assembled: ID=0xc ADDR=0xeb0283f0 4 beats
# UVM_INFO ../src/mst/axi4_master_driver.sv(289) @ 3225000: uvm_test_top.env.master_agent.drv [axi4_master_driver] Master driver received B response: ID=0xc RESP=AXI4_RESP_SLVERR
# UVM_INFO ../src/slv/axi4_slave_driver.sv(348) @ 3225000: uvm_test_top.env.slave_agent.drv [axi4_slave_driver] Write complete: ID=0xc RESP=AXI4_RESP_SLVERR
# UVM_INFO ../src/mst/axi4_master_monitor.sv(210) @ 3225000: uvm_test_top.env.master_agent.mon [axi4_master_monitor] Write complete: ID=0xc ADDR=0xeb0283f0 RESP=AXI4_RESP_SLVERR
# UVM_INFO ../src/env/axi4_scoreboard.sv(87) @ 3225000: uvm_test_top.env.scb [axi4_scoreboard] Master AXI4_WRITE received: ID=0xc ADDR=0xeb0283f0 LEN=3
# UVM_INFO ../src/slv/axi4_slave_monitor.sv(189) @ 3225000: uvm_test_top.env.slave_agent.mon [axi4_slave_monitor] Write response sent: ID=0xc ADDR=0xeb0283f0 RESP=AXI4_RESP_SLVERR
# UVM_INFO ../src/env/axi4_scoreboard.sv(108) @ 3225000: uvm_test_top.env.scb [axi4_scoreboard] Slave AXI4_WRITE received: ID=0xc ADDR=0xeb0283f0 LEN=3
# UVM_INFO ../src/env/axi4_scoreboard.sv(291) @ 3225000: uvm_test_top.env.scb [axi4_scoreboard] [WRITE] MATCH #19: ID=0xc ADDR=0xeb0283f0 LEN=3
# UVM_INFO ../src/env/axi4_scoreboard.sv(226) @ 3225000: uvm_test_top.env.scb [axi4_scoreboard] [REF_MEM_WRITE_IGNORED] Write ignored for ADDR=0xeb0283f0 LOCK=AXI4_LOCK_NORMAL RESP=AXI4_RESP_SLVERR
# UVM_INFO ../src/seq/axi4_write_read_back_seq.sv(62) @ 3225000: uvm_test_top.env.master_agent.sqr@@wr_rd_seq_9 [axi4_write_read_back_seq] Write phase: ADDR=0xeb0283f0 LEN=3 SIZE=AXI4_SIZE_4B BURST=AXI4_BURST_INCR
# UVM_INFO ../src/mst/axi4_master_driver.sv(73) @ 3225000: uvm_test_top.env.master_agent.drv [axi4_master_driver] Driving AXI4_READ  ID=0xa  ADDR=0xeb0283f0  LEN=3
# UVM_INFO ../src/slv/axi4_slave_driver.sv(386) @ 3255000: uvm_test_top.env.slave_agent.drv [axi4_slave_driver] AR received: ID=0xa ADDR=0xeb0283f0 LEN=3 LOCK=AXI4_LOCK_NORMAL
# UVM_INFO ../src/slv/axi4_slave_monitor.sv(224) @ 3255000: uvm_test_top.env.slave_agent.mon [axi4_slave_monitor] AR received: ID=0xa ADDR=0xeb0283f0 LEN=3
# UVM_INFO ../src/mst/axi4_master_monitor.sv(246) @ 3255000: uvm_test_top.env.master_agent.mon [axi4_master_monitor] AR observed: ID=0xa ADDR=0xeb0283f0 LEN=3
# UVM_INFO ../src/mst/axi4_master_driver.sv(348) @ 3335000: uvm_test_top.env.master_agent.drv [axi4_master_driver] Master driver received all R beats for ID=0xa
# UVM_INFO ../src/slv/axi4_slave_driver.sv(501) @ 3335000: uvm_test_top.env.slave_agent.drv [axi4_slave_driver] Read complete: ID=0xa ADDR=0xeb0283f0 RESP=AXI4_RESP_SLVERR  4 beats sent
# UVM_INFO ../src/slv/axi4_slave_monitor.sv(287) @ 3335000: uvm_test_top.env.slave_agent.mon [axi4_slave_monitor] Read data sent: ID=0xa ADDR=0xeb0283f0 4 beats
# UVM_INFO ../src/env/axi4_scoreboard.sv(108) @ 3335000: uvm_test_top.env.scb [axi4_scoreboard] Slave AXI4_READ received: ID=0xa ADDR=0xeb0283f0 LEN=3
# UVM_INFO ../src/mst/axi4_master_monitor.sv(314) @ 3335000: uvm_test_top.env.master_agent.mon [axi4_master_monitor] Read complete: ID=0xa ADDR=0xeb0283f0 4 beats
# UVM_INFO ../src/env/axi4_scoreboard.sv(87) @ 3335000: uvm_test_top.env.scb [axi4_scoreboard] Master AXI4_READ received: ID=0xa ADDR=0xeb0283f0 LEN=3
# UVM_INFO ../src/env/axi4_scoreboard.sv(291) @ 3335000: uvm_test_top.env.scb [axi4_scoreboard] [READ] MATCH #20: ID=0xa ADDR=0xeb0283f0 LEN=3
# UVM_INFO ../src/seq/axi4_write_read_back_seq.sv(84) @ 3335000: uvm_test_top.env.master_agent.sqr@@wr_rd_seq_9 [axi4_write_read_back_seq] Read-back phase: ADDR=0xeb0283f0 LEN=3 - data integrity check via scoreboard
# UVM_INFO ../src/test/axi4_sanity_test.sv(62) @ 3835000: uvm_test_top [axi4_sanity_test] Sanity test complete: 10 write-read-back iterations verified
# UVM_INFO verilog_src/uvm-1.1d/src/base/uvm_objection.svh(1268) @ 3835000: reporter [TEST_DONE] 'run' phase is ready to proceed to the 'extract' phase
# UVM_INFO ../src/env/axi4_scoreboard.sv(360) @ 3835000: uvm_test_top.env.scb [axi4_scoreboard] 
# ========================================
#          SCOREBOARD SUMMARY
# ========================================
#   Master transactions : 20
#   Slave transactions  : 20
#   Matches             : 20
#   Mismatches          : 0
#   Unmatched master WR : 0
#   Unmatched master RD : 0
#   Unmatched slave  WR : 0
#   Unmatched slave  RD : 0
# ========================================
#   RESULT : PASS
# ========================================
# UVM_INFO ../src/test/axi4_base_test.sv(91) @ 3835000: uvm_test_top [axi4_sanity_test] 
# === TEST PASSED ===
# 
# 
# --- UVM Report Summary ---
# 
# ** Report counts by severity
# UVM_INFO :  393
# UVM_WARNING :    0
# UVM_ERROR :    0
# UVM_FATAL :    0
# ** Report counts by id
# [Questa UVM]     3
# [RNTST]     1
# [TB_TOP]     2
# [TEST_DONE]     1
# [TOP_TB]     1
# [UVMTOP]     1
# [axi4_master_agent]     1
# [axi4_master_driver]    41
# [axi4_master_monitor]    51
# [axi4_sanity_test]    13
# [axi4_scoreboard]   160
# [axi4_slave_agent]     1
# [axi4_slave_driver]    41
# [axi4_slave_monitor]    51
# [axi4_vip_env]     5
# [axi4_write_read_back_seq]    20
# ** Note: $finish    : /cadtools/mentor/Questa_10.6b/questasim/linux_x86_64/../verilog_src/uvm-1.1d/src/base/uvm_root.svh(430)
#    Time: 3835 ns  Iteration: 55  Instance: /tb_top
# Saving coverage database on exit...
# End time: 10:53:25 on Jul 09,2026, Elapsed time: 0:00:02
# Errors: 0, Warnings: 0
