# vsim -c -coverage -sv_seed 20192866 "+UVM_TESTNAME=axi4_burst_sweep_test" "+UVM_VERBOSITY=UVM_HIGH" "+DUMP_VCD" -l ./report/logs/axi4_burst_sweep_test_run_4_seed_20192866.log -do "coverage save -onexit ./report/coverage/axi4_burst_sweep_test_run_4_seed_20192866.ucdb; run -all; quit -f" opt_tb_top 
# Start time: 10:00:13 on Jun 11,2026
# //  Questa Sim-64
# //  Version 10.6b linux_x86_64 May 25 2017
# //
# //  Copyright 1991-2017 Mentor Graphics Corporation
# //  All Rights Reserved.
# //
# //  QuestaSim and its associated documentation contain trade
# //  secrets and commercial or financial information that are the property of
# //  Mentor Graphics Corporation and are privileged, confidential,
# //  and exempt from disclosure under the Freedom of Information Act,
# //  5 U.S.C. Section 552. Furthermore, this information
# //  is prohibited from disclosure under the Trade Secrets Act,
# //  18 U.S.C. Section 1905.
# //
# Loading sv_std.std
# Loading work.axi4_if(fast)
# Loading mtiUvm.uvm_pkg
# Loading work.axi4_pkg(fast)
# Loading work.axi4_test_pkg(fast)
# Loading work.tb_top(fast)
# Loading work.axi4_if(fast)
# Loading work.axi4_sva(fast)
# Loading mtiUvm.questa_uvm_pkg(fast)
# Loading /cadtools/mentor/Questa_10.6b/questasim/uvm-1.1d/linux_x86_64/uvm_dpi.so
# coverage save -onexit ./report/coverage/axi4_burst_sweep_test_run_4_seed_20192866.ucdb
#  run -all
# ----------------------------------------------------------------
# UVM-1.1d
# (C) 2007-2013 Mentor Graphics Corporation
# (C) 2007-2013 Cadence Design Systems, Inc.
# (C) 2006-2013 Synopsys, Inc.
# (C) 2011-2013 Cypress Semiconductor Corp.
# ----------------------------------------------------------------
# 
#   ***********       IMPORTANT RELEASE NOTES         ************
# 
#   You are using a version of the UVM library that has been compiled
#   with `UVM_NO_DEPRECATED undefined.
#   See http://www.eda.org/svdb/view.php?id=3313 for more details.
# 
#   You are using a version of the UVM library that has been compiled
#   with `UVM_OBJECT_MUST_HAVE_CONSTRUCTOR undefined.
#   See http://www.eda.org/svdb/view.php?id=3770 for more details.
# 
#       (Specify +UVM_NO_RELNOTES to turn off this notice)
# 
# UVM_INFO verilog_src/questa_uvm_pkg-1.2/src/questa_uvm_pkg.sv(215) @ 0: reporter [Questa UVM] QUESTA_UVM-1.2.3
# UVM_INFO verilog_src/questa_uvm_pkg-1.2/src/questa_uvm_pkg.sv(217) @ 0: reporter [Questa UVM]  questa_uvm::init(+struct)
# UVM_INFO ../src/tb_top.sv(128) @ 0: reporter [TB_TOP] Virtual interface set in config_db
# UVM_INFO @ 0: reporter [RNTST] Running test axi4_burst_sweep_test...
# UVM_INFO ../src/tb_top.sv(142) @ 0: reporter [TB_TOP] Waveform VCD dumping enabled (axi4_vip.vcd)
# UVM_INFO ../src/env/axi4_vip_env.sv(83) @ 0: uvm_test_top.env [axi4_vip_env] slave_vif not set - reusing master_vif (passthrough mode)
# UVM_INFO ../src/env/axi4_vip_env.sv(93) @ 0: uvm_test_top.env [axi4_vip_env] Scoreboard created
# UVM_INFO ../src/env/axi4_vip_env.sv(100) @ 0: uvm_test_top.env [axi4_vip_env] Coverage collectors created
# UVM_INFO ../src/mst/axi4_master_agent.sv(69) @ 0: uvm_test_top.env.master_agent [axi4_master_agent] ACTIVE mode - driver + sequencer created
# UVM_INFO ../src/slv/axi4_slave_agent.sv(82) @ 0: uvm_test_top.env.slave_agent [axi4_slave_agent] ACTIVE mode — ready_delay=[0:0] resp_delay=[0:0]
# UVM_INFO ../src/env/axi4_vip_env.sv(116) @ 0: uvm_test_top.env [axi4_vip_env] Scoreboard connected: master_mon.ap -> scb, slave_mon.ap -> scb
# UVM_INFO ../src/env/axi4_vip_env.sv(124) @ 0: uvm_test_top.env [axi4_vip_env] Coverage connected: master_mon.ap -> master_cov, slave_mon.ap -> slave_cov
# UVM_INFO @ 0: reporter [UVMTOP] UVM testbench topology:
# ---------------------------------------------------------------
# Name                       Type                     Size  Value
# ---------------------------------------------------------------
# uvm_test_top               axi4_burst_sweep_test    -     @473 
#   env                      axi4_vip_env             -     @488 
#     master_agent           axi4_master_agent        -     @503 
#       drv                  axi4_master_driver       -     @567 
#         rsp_port           uvm_analysis_port        -     @582 
#         seq_item_port      uvm_seq_item_pull_port   -     @574 
#       mon                  axi4_master_monitor      -     @559 
#         ap                 uvm_analysis_port        -     @700 
#       sqr                  axi4_master_sequencer    -     @590 
#         rsp_export         uvm_analysis_export      -     @597 
#         seq_item_export    uvm_seq_item_pull_imp    -     @691 
#         arbitration_queue  array                    0     -    
#         lock_queue         array                    0     -    
#         num_last_reqs      integral                 32    'd1  
#         num_last_rsps      integral                 32    'd1  
#     master_cov             axi4_coverage            -     @524 
#       analysis_imp         uvm_analysis_imp         -     @531 
#     scb                    axi4_scoreboard          -     @517 
#       master_export        uvm_analysis_imp_master  -     @714 
#       slave_export         uvm_analysis_imp_slave   -     @722 
#     slave_agent            axi4_slave_agent         -     @510 
#       drv                  axi4_slave_driver        -     @753 
#         rsp_port           uvm_analysis_port        -     @768 
#         seq_item_port      uvm_seq_item_pull_port   -     @760 
#       mon                  axi4_slave_monitor       -     @735 
#         ap                 uvm_analysis_port        -     @892 
#       sqr                  axi4_slave_sequencer     -     @776 
#         rsp_export         uvm_analysis_export      -     @783 
#         seq_item_export    uvm_seq_item_pull_imp    -     @877 
#         arbitration_queue  array                    0     -    
#         lock_queue         array                    0     -    
#         num_last_reqs      integral                 32    'd1  
#         num_last_rsps      integral                 32    'd1  
#     slave_cov              axi4_coverage            -     @539 
#       analysis_imp         uvm_analysis_imp         -     @546 
# ---------------------------------------------------------------
# 
# UVM_INFO verilog_src/questa_uvm_pkg-1.2/src/questa_uvm_pkg.sv(277) @ 0: reporter [Questa UVM] End Of Elaboration
# UVM_INFO ../src/test/axi4_burst_sweep_test.sv(24) @ 0: uvm_test_top [axi4_burst_sweep_test] Starting burst parameters sweep test (including error injection)
# UVM_INFO ../src/seq/axi4_burst_sweep_seq.sv(35) @ 0: uvm_test_top.env.master_agent.sqr@@sweep_seq [axi4_burst_sweep_seq] Starting burst type, size, and length sweep sequence
# UVM_INFO ../src/tb_top.sv(49) @ 95000: reporter [TOP_TB] Reset de-asserted
# UVM_INFO ../src/slv/axi4_slave_driver.sv(122) @ 95000: uvm_test_top.env.slave_agent.drv [axi4_slave_driver] Reset deasserted - slave driver active
# UVM_INFO ../src/mst/axi4_master_driver.sv(64) @ 95000: uvm_test_top.env.master_agent.drv [axi4_master_driver] Reset deasserted - master driver active
# UVM_INFO ../src/mst/axi4_master_monitor.sv(77) @ 95000: uvm_test_top.env.master_agent.mon [axi4_master_monitor] Reset deasserted - monitor active
# UVM_INFO ../src/slv/axi4_slave_monitor.sv(71) @ 95000: uvm_test_top.env.slave_agent.mon [axi4_slave_monitor] Reset deasserted - monitor active
# UVM_INFO ../src/mst/axi4_master_driver.sv(73) @ 95000: uvm_test_top.env.master_agent.drv [axi4_master_driver] Driving AXI4_WRITE  ID=0x5  ADDR=0xc0dd6fb0  LEN=0
# UVM_INFO ../src/mst/axi4_master_driver.sv(73) @ 95000: uvm_test_top.env.master_agent.drv [axi4_master_driver] Driving AXI4_READ  ID=0xb  ADDR=0x206a8f0c  LEN=0
# UVM_INFO ../src/mst/axi4_master_driver.sv(73) @ 95000: uvm_test_top.env.master_agent.drv [axi4_master_driver] Driving AXI4_WRITE  ID=0xc  ADDR=0x50de0356  LEN=0
# UVM_INFO ../src/mst/axi4_master_driver.sv(73) @ 95000: uvm_test_top.env.master_agent.drv [axi4_master_driver] Driving AXI4_READ  ID=0xc  ADDR=0x60884eb9  LEN=0
# UVM_INFO ../src/mst/axi4_master_driver.sv(73) @ 95000: uvm_test_top.env.master_agent.drv [axi4_master_driver] Driving AXI4_WRITE  ID=0xc  ADDR=0x131e3aee  LEN=0
# UVM_INFO ../src/mst/axi4_master_driver.sv(73) @ 95000: uvm_test_top.env.master_agent.drv [axi4_master_driver] Driving AXI4_READ  ID=0x0  ADDR=0x864f8e47  LEN=0
# UVM_INFO ../src/mst/axi4_master_driver.sv(73) @ 95000: uvm_test_top.env.master_agent.drv [axi4_master_driver] Driving AXI4_WRITE  ID=0xf  ADDR=0x691b1b75  LEN=1
# UVM_INFO ../src/mst/axi4_master_driver.sv(73) @ 95000: uvm_test_top.env.master_agent.drv [axi4_master_driver] Driving AXI4_READ  ID=0xa  ADDR=0xcd245d7c  LEN=1
# UVM_INFO ../src/mst/axi4_master_driver.sv(73) @ 95000: uvm_test_top.env.master_agent.drv [axi4_master_driver] Driving AXI4_WRITE  ID=0xb  ADDR=0xc18b7530  LEN=1
# UVM_INFO ../src/mst/axi4_master_driver.sv(73) @ 95000: uvm_test_top.env.master_agent.drv [axi4_master_driver] Driving AXI4_READ  ID=0xd  ADDR=0x0d566e36  LEN=1
# UVM_INFO ../src/mst/axi4_master_driver.sv(73) @ 95000: uvm_test_top.env.master_agent.drv [axi4_master_driver] Driving AXI4_WRITE  ID=0x9  ADDR=0xb14244f7  LEN=1
# UVM_INFO ../src/mst/axi4_master_driver.sv(73) @ 95000: uvm_test_top.env.master_agent.drv [axi4_master_driver] Driving AXI4_READ  ID=0x6  ADDR=0x6533b7c8  LEN=1
# UVM_INFO ../src/mst/axi4_master_driver.sv(73) @ 95000: uvm_test_top.env.master_agent.drv [axi4_master_driver] Driving AXI4_WRITE  ID=0xf  ADDR=0x9c4560c8  LEN=3
# UVM_INFO ../src/mst/axi4_master_driver.sv(73) @ 95000: uvm_test_top.env.master_agent.drv [axi4_master_driver] Driving AXI4_READ  ID=0x4  ADDR=0xd44a1f76  LEN=3
# UVM_INFO ../src/mst/axi4_master_driver.sv(73) @ 95000: uvm_test_top.env.master_agent.drv [axi4_master_driver] Driving AXI4_WRITE  ID=0x5  ADDR=0xc0e6f842  LEN=3
# UVM_INFO ../src/mst/axi4_master_driver.sv(73) @ 95000: uvm_test_top.env.master_agent.drv [axi4_master_driver] Driving AXI4_READ  ID=0xd  ADDR=0xadcf3abb  LEN=3
# UVM_INFO ../src/mst/axi4_master_driver.sv(73) @ 95000: uvm_test_top.env.master_agent.drv [axi4_master_driver] Driving AXI4_WRITE  ID=0x1  ADDR=0x426c4be5  LEN=3
# UVM_INFO ../src/mst/axi4_master_driver.sv(73) @ 95000: uvm_test_top.env.master_agent.drv [axi4_master_driver] Driving AXI4_READ  ID=0x4  ADDR=0x3271e7c7  LEN=3
# UVM_INFO ../src/mst/axi4_master_driver.sv(73) @ 95000: uvm_test_top.env.master_agent.drv [axi4_master_driver] Driving AXI4_WRITE  ID=0xb  ADDR=0x55ceaa95  LEN=7
# UVM_INFO ../src/mst/axi4_master_driver.sv(73) @ 95000: uvm_test_top.env.master_agent.drv [axi4_master_driver] Driving AXI4_READ  ID=0xe  ADDR=0xa2371658  LEN=7
# UVM_INFO ../src/mst/axi4_master_driver.sv(73) @ 95000: uvm_test_top.env.master_agent.drv [axi4_master_driver] Driving AXI4_WRITE  ID=0x8  ADDR=0x275f5e8a  LEN=7
# UVM_INFO ../src/mst/axi4_master_driver.sv(73) @ 95000: uvm_test_top.env.master_agent.drv [axi4_master_driver] Driving AXI4_READ  ID=0x2  ADDR=0x26e159aa  LEN=7
# UVM_INFO ../src/mst/axi4_master_driver.sv(73) @ 95000: uvm_test_top.env.master_agent.drv [axi4_master_driver] Driving AXI4_WRITE  ID=0xf  ADDR=0xc045e001  LEN=7
# UVM_INFO ../src/mst/axi4_master_driver.sv(73) @ 95000: uvm_test_top.env.master_agent.drv [axi4_master_driver] Driving AXI4_READ  ID=0x8  ADDR=0x65322fd4  LEN=7
# UVM_INFO ../src/mst/axi4_master_driver.sv(73) @ 95000: uvm_test_top.env.master_agent.drv [axi4_master_driver] Driving AXI4_WRITE  ID=0x1  ADDR=0x40a6a7e5  LEN=15
# UVM_INFO ../src/mst/axi4_master_driver.sv(73) @ 95000: uvm_test_top.env.master_agent.drv [axi4_master_driver] Driving AXI4_READ  ID=0x3  ADDR=0x804fc423  LEN=15
# UVM_INFO ../src/mst/axi4_master_driver.sv(73) @ 95000: uvm_test_top.env.master_agent.drv [axi4_master_driver] Driving AXI4_WRITE  ID=0xc  ADDR=0x165d4760  LEN=15
# UVM_INFO ../src/mst/axi4_master_driver.sv(73) @ 95000: uvm_test_top.env.master_agent.drv [axi4_master_driver] Driving AXI4_READ  ID=0x7  ADDR=0xbb09f5ef  LEN=15
# UVM_INFO ../src/mst/axi4_master_driver.sv(73) @ 95000: uvm_test_top.env.master_agent.drv [axi4_master_driver] Driving AXI4_WRITE  ID=0xf  ADDR=0x9940f13f  LEN=15
# UVM_INFO ../src/mst/axi4_master_driver.sv(73) @ 95000: uvm_test_top.env.master_agent.drv [axi4_master_driver] Driving AXI4_READ  ID=0x6  ADDR=0x89158d75  LEN=15
# UVM_INFO ../src/mst/axi4_master_driver.sv(73) @ 95000: uvm_test_top.env.master_agent.drv [axi4_master_driver] Driving AXI4_WRITE  ID=0xe  ADDR=0x5214f0a9  LEN=1
# UVM_INFO ../src/mst/axi4_master_driver.sv(73) @ 95000: uvm_test_top.env.master_agent.drv [axi4_master_driver] Driving AXI4_READ  ID=0x6  ADDR=0xa702017d  LEN=1
# UVM_INFO ../src/mst/axi4_master_driver.sv(73) @ 95000: uvm_test_top.env.master_agent.drv [axi4_master_driver] Driving AXI4_WRITE  ID=0xe  ADDR=0x429ffff0  LEN=1
# UVM_INFO ../src/mst/axi4_master_driver.sv(73) @ 95000: uvm_test_top.env.master_agent.drv [axi4_master_driver] Driving AXI4_READ  ID=0xe  ADDR=0xd2fa00c4  LEN=1
# UVM_INFO ../src/mst/axi4_master_driver.sv(73) @ 95000: uvm_test_top.env.master_agent.drv [axi4_master_driver] Driving AXI4_WRITE  ID=0xb  ADDR=0xa9f107d0  LEN=1
# UVM_INFO ../src/mst/axi4_master_driver.sv(73) @ 95000: uvm_test_top.env.master_agent.drv [axi4_master_driver] Driving AXI4_READ  ID=0x1  ADDR=0x27547520  LEN=1
# UVM_INFO ../src/mst/axi4_master_driver.sv(73) @ 95000: uvm_test_top.env.master_agent.drv [axi4_master_driver] Driving AXI4_WRITE  ID=0xc  ADDR=0x5dbe0227  LEN=3
# UVM_INFO ../src/mst/axi4_master_driver.sv(73) @ 95000: uvm_test_top.env.master_agent.drv [axi4_master_driver] Driving AXI4_READ  ID=0xa  ADDR=0xba18eb3c  LEN=3
# UVM_INFO ../src/mst/axi4_master_driver.sv(73) @ 95000: uvm_test_top.env.master_agent.drv [axi4_master_driver] Driving AXI4_WRITE  ID=0x5  ADDR=0xa1b46e22  LEN=3
# UVM_INFO ../src/mst/axi4_master_driver.sv(73) @ 95000: uvm_test_top.env.master_agent.drv [axi4_master_driver] Driving AXI4_READ  ID=0xa  ADDR=0x62e47d84  LEN=3
# UVM_INFO ../src/mst/axi4_master_driver.sv(73) @ 95000: uvm_test_top.env.master_agent.drv [axi4_master_driver] Driving AXI4_WRITE  ID=0xf  ADDR=0x51022f54  LEN=3
# UVM_INFO ../src/mst/axi4_master_driver.sv(73) @ 95000: uvm_test_top.env.master_agent.drv [axi4_master_driver] Driving AXI4_READ  ID=0x0  ADDR=0xb40c5560  LEN=3
# UVM_INFO ../src/mst/axi4_master_driver.sv(73) @ 95000: uvm_test_top.env.master_agent.drv [axi4_master_driver] Driving AXI4_WRITE  ID=0xb  ADDR=0x990e21ec  LEN=7
# UVM_INFO ../src/mst/axi4_master_driver.sv(73) @ 95000: uvm_test_top.env.master_agent.drv [axi4_master_driver] Driving AXI4_READ  ID=0xc  ADDR=0x6480eb66  LEN=7
# UVM_INFO ../src/mst/axi4_master_driver.sv(73) @ 95000: uvm_test_top.env.master_agent.drv [axi4_master_driver] Driving AXI4_WRITE  ID=0x3  ADDR=0x75c39342  LEN=7
# UVM_INFO ../src/mst/axi4_master_driver.sv(73) @ 95000: uvm_test_top.env.master_agent.drv [axi4_master_driver] Driving AXI4_READ  ID=0xc  ADDR=0x5fba1e74  LEN=7
# UVM_INFO ../src/mst/axi4_master_driver.sv(73) @ 95000: uvm_test_top.env.master_agent.drv [axi4_master_driver] Driving AXI4_WRITE  ID=0x8  ADDR=0xdaacf244  LEN=7
# UVM_INFO ../src/mst/axi4_master_driver.sv(73) @ 95000: uvm_test_top.env.master_agent.drv [axi4_master_driver] Driving AXI4_READ  ID=0x9  ADDR=0x2fd8ee9c  LEN=7
# UVM_INFO ../src/mst/axi4_master_driver.sv(73) @ 95000: uvm_test_top.env.master_agent.drv [axi4_master_driver] Driving AXI4_WRITE  ID=0x9  ADDR=0x8cb8b84b  LEN=15
# UVM_INFO ../src/mst/axi4_master_driver.sv(73) @ 95000: uvm_test_top.env.master_agent.drv [axi4_master_driver] Driving AXI4_READ  ID=0x8  ADDR=0x7d89ba72  LEN=15
# UVM_INFO ../src/mst/axi4_master_driver.sv(73) @ 95000: uvm_test_top.env.master_agent.drv [axi4_master_driver] Driving AXI4_WRITE  ID=0xd  ADDR=0x3eabd248  LEN=15
# UVM_INFO ../src/mst/axi4_master_driver.sv(73) @ 95000: uvm_test_top.env.master_agent.drv [axi4_master_driver] Driving AXI4_READ  ID=0xd  ADDR=0x44334846  LEN=15
# UVM_INFO ../src/mst/axi4_master_driver.sv(73) @ 95000: uvm_test_top.env.master_agent.drv [axi4_master_driver] Driving AXI4_WRITE  ID=0xd  ADDR=0x7c7abb74  LEN=15
# UVM_INFO ../src/mst/axi4_master_driver.sv(73) @ 95000: uvm_test_top.env.master_agent.drv [axi4_master_driver] Driving AXI4_READ  ID=0xe  ADDR=0xa07ddb8c  LEN=15
# UVM_INFO ../src/mst/axi4_master_driver.sv(73) @ 95000: uvm_test_top.env.master_agent.drv [axi4_master_driver] Driving AXI4_WRITE  ID=0x9  ADDR=0x1d333a2b  LEN=0
# UVM_INFO ../src/mst/axi4_master_driver.sv(73) @ 95000: uvm_test_top.env.master_agent.drv [axi4_master_driver] Driving AXI4_READ  ID=0x3  ADDR=0xb830c8fd  LEN=0
# UVM_INFO ../src/mst/axi4_master_driver.sv(73) @ 95000: uvm_test_top.env.master_agent.drv [axi4_master_driver] Driving AXI4_WRITE  ID=0xf  ADDR=0xd0a89ac3  LEN=0
# UVM_INFO ../src/mst/axi4_master_driver.sv(73) @ 95000: uvm_test_top.env.master_agent.drv [axi4_master_driver] Driving AXI4_READ  ID=0xa  ADDR=0xc4482609  LEN=0
# UVM_INFO ../src/mst/axi4_master_driver.sv(73) @ 95000: uvm_test_top.env.master_agent.drv [axi4_master_driver] Driving AXI4_WRITE  ID=0x9  ADDR=0x46f6b093  LEN=0
# UVM_INFO ../src/mst/axi4_master_driver.sv(73) @ 95000: uvm_test_top.env.master_agent.drv [axi4_master_driver] Driving AXI4_READ  ID=0x9  ADDR=0x6e79a4ed  LEN=0
# UVM_INFO ../src/mst/axi4_master_driver.sv(73) @ 95000: uvm_test_top.env.master_agent.drv [axi4_master_driver] Driving AXI4_WRITE  ID=0x2  ADDR=0x9f93e671  LEN=2
# UVM_INFO ../src/mst/axi4_master_driver.sv(73) @ 95000: uvm_test_top.env.master_agent.drv [axi4_master_driver] Driving AXI4_READ  ID=0x3  ADDR=0x22dca07d  LEN=2
# UVM_INFO ../src/mst/axi4_master_driver.sv(73) @ 95000: uvm_test_top.env.master_agent.drv [axi4_master_driver] Driving AXI4_WRITE  ID=0xa  ADDR=0x94bcbbdb  LEN=2
# UVM_INFO ../src/mst/axi4_master_driver.sv(73) @ 95000: uvm_test_top.env.master_agent.drv [axi4_master_driver] Driving AXI4_READ  ID=0x3  ADDR=0x4dc23113  LEN=2
# UVM_INFO ../src/mst/axi4_master_driver.sv(73) @ 95000: uvm_test_top.env.master_agent.drv [axi4_master_driver] Driving AXI4_WRITE  ID=0xf  ADDR=0xa19819bd  LEN=2
# UVM_INFO ../src/mst/axi4_master_driver.sv(73) @ 95000: uvm_test_top.env.master_agent.drv [axi4_master_driver] Driving AXI4_READ  ID=0xc  ADDR=0x945de240  LEN=2
# UVM_INFO ../src/mst/axi4_master_driver.sv(73) @ 95000: uvm_test_top.env.master_agent.drv [axi4_master_driver] Driving AXI4_WRITE  ID=0xb  ADDR=0x68bc8335  LEN=10
# UVM_INFO ../src/mst/axi4_master_driver.sv(73) @ 95000: uvm_test_top.env.master_agent.drv [axi4_master_driver] Driving AXI4_READ  ID=0xb  ADDR=0xb1d08145  LEN=10
# UVM_INFO ../src/mst/axi4_master_driver.sv(73) @ 95000: uvm_test_top.env.master_agent.drv [axi4_master_driver] Driving AXI4_WRITE  ID=0x1  ADDR=0x68540d85  LEN=10
# UVM_INFO ../src/mst/axi4_master_driver.sv(73) @ 95000: uvm_test_top.env.master_agent.drv [axi4_master_driver] Driving AXI4_READ  ID=0x5  ADDR=0x83a538d0  LEN=10
# UVM_INFO ../src/mst/axi4_master_driver.sv(73) @ 95000: uvm_test_top.env.master_agent.drv [axi4_master_driver] Driving AXI4_WRITE  ID=0x3  ADDR=0x1c411635  LEN=10
# UVM_INFO ../src/mst/axi4_master_driver.sv(73) @ 95000: uvm_test_top.env.master_agent.drv [axi4_master_driver] Driving AXI4_READ  ID=0xa  ADDR=0x25af777a  LEN=10
# UVM_INFO ../src/mst/axi4_master_driver.sv(73) @ 95000: uvm_test_top.env.master_agent.drv [axi4_master_driver] Driving AXI4_WRITE  ID=0xf  ADDR=0x5b4ff75b  LEN=32
# UVM_INFO ../src/mst/axi4_master_driver.sv(73) @ 95000: uvm_test_top.env.master_agent.drv [axi4_master_driver] Driving AXI4_READ  ID=0x1  ADDR=0x5501d944  LEN=32
# UVM_INFO ../src/mst/axi4_master_driver.sv(73) @ 95000: uvm_test_top.env.master_agent.drv [axi4_master_driver] Driving AXI4_WRITE  ID=0x6  ADDR=0x58543557  LEN=32
# UVM_INFO ../src/mst/axi4_master_driver.sv(73) @ 95000: uvm_test_top.env.master_agent.drv [axi4_master_driver] Driving AXI4_READ  ID=0xc  ADDR=0xbc4f206c  LEN=32
# UVM_INFO ../src/mst/axi4_master_driver.sv(73) @ 95000: uvm_test_top.env.master_agent.drv [axi4_master_driver] Driving AXI4_WRITE  ID=0x9  ADDR=0x1ea5d2fd  LEN=32
# UVM_INFO ../src/mst/axi4_master_driver.sv(73) @ 95000: uvm_test_top.env.master_agent.drv [axi4_master_driver] Driving AXI4_READ  ID=0x3  ADDR=0x82c182cb  LEN=32
# UVM_INFO ../src/mst/axi4_master_driver.sv(73) @ 95000: uvm_test_top.env.master_agent.drv [axi4_master_driver] Driving AXI4_WRITE  ID=0xc  ADDR=0x5b42095f  LEN=100
# UVM_INFO ../src/mst/axi4_master_driver.sv(73) @ 95000: uvm_test_top.env.master_agent.drv [axi4_master_driver] Driving AXI4_READ  ID=0xa  ADDR=0xa3ffaf75  LEN=100
# UVM_INFO ../src/mst/axi4_master_driver.sv(73) @ 95000: uvm_test_top.env.master_agent.drv [axi4_master_driver] Driving AXI4_WRITE  ID=0x1  ADDR=0xa49835f7  LEN=100
# UVM_INFO ../src/mst/axi4_master_driver.sv(73) @ 95000: uvm_test_top.env.master_agent.drv [axi4_master_driver] Driving AXI4_READ  ID=0x0  ADDR=0xdd21c814  LEN=100
# UVM_INFO ../src/mst/axi4_master_driver.sv(73) @ 95000: uvm_test_top.env.master_agent.drv [axi4_master_driver] Driving AXI4_WRITE  ID=0x5  ADDR=0xa69031ed  LEN=100
# UVM_INFO ../src/mst/axi4_master_driver.sv(73) @ 95000: uvm_test_top.env.master_agent.drv [axi4_master_driver] Driving AXI4_READ  ID=0xe  ADDR=0xc01feca4  LEN=100
# UVM_INFO ../src/mst/axi4_master_driver.sv(73) @ 95000: uvm_test_top.env.master_agent.drv [axi4_master_driver] Driving AXI4_WRITE  ID=0xf  ADDR=0x8e69bd97  LEN=255
# UVM_INFO ../src/mst/axi4_master_driver.sv(73) @ 95000: uvm_test_top.env.master_agent.drv [axi4_master_driver] Driving AXI4_READ  ID=0xa  ADDR=0x6d7ec898  LEN=255
# UVM_INFO ../src/mst/axi4_master_driver.sv(73) @ 95000: uvm_test_top.env.master_agent.drv [axi4_master_driver] Driving AXI4_WRITE  ID=0x5  ADDR=0x33b8e08d  LEN=255
# UVM_INFO ../src/mst/axi4_master_driver.sv(73) @ 95000: uvm_test_top.env.master_agent.drv [axi4_master_driver] Driving AXI4_READ  ID=0xd  ADDR=0x2887e033  LEN=255
# UVM_INFO ../src/mst/axi4_master_driver.sv(73) @ 95000: uvm_test_top.env.master_agent.drv [axi4_master_driver] Driving AXI4_WRITE  ID=0x5  ADDR=0x720c9b67  LEN=255
# UVM_INFO ../src/mst/axi4_master_driver.sv(73) @ 95000: uvm_test_top.env.master_agent.drv [axi4_master_driver] Driving AXI4_READ  ID=0xe  ADDR=0x029ef50c  LEN=255
# UVM_INFO ../src/mst/axi4_master_driver.sv(73) @ 95000: uvm_test_top.env.master_agent.drv [axi4_master_driver] Driving AXI4_WRITE  ID=0xd  ADDR=0xe0000000  LEN=0
# UVM_INFO ../src/mst/axi4_master_driver.sv(73) @ 95000: uvm_test_top.env.master_agent.drv [axi4_master_driver] Driving AXI4_READ  ID=0x1  ADDR=0xe0000000  LEN=0
# UVM_INFO ../src/mst/axi4_master_driver.sv(73) @ 95000: uvm_test_top.env.master_agent.drv [axi4_master_driver] Driving AXI4_WRITE  ID=0xd  ADDR=0xf0000000  LEN=0
# UVM_INFO ../src/mst/axi4_master_driver.sv(73) @ 95000: uvm_test_top.env.master_agent.drv [axi4_master_driver] Driving AXI4_READ  ID=0xb  ADDR=0xf0000000  LEN=0
# UVM_INFO ../src/seq/axi4_burst_sweep_seq.sv(170) @ 95000: uvm_test_top.env.master_agent.sqr@@sweep_seq [axi4_burst_sweep_seq] Burst sweep sequence complete: sent 94 transactions
# UVM_INFO ../src/slv/axi4_slave_driver.sv(358) @ 115000: uvm_test_top.env.slave_agent.drv [axi4_slave_driver] AR received: ID=0xb ADDR=0x206a8f0c LEN=0 LOCK=AXI4_LOCK_NORMAL
# UVM_INFO ../src/slv/axi4_slave_driver.sv(212) @ 115000: uvm_test_top.env.slave_agent.drv [axi4_slave_driver] AW received: ID=0x5 ADDR=0xc0dd6fb0 LEN=0 LOCK=AXI4_LOCK_NORMAL
# UVM_INFO ../src/slv/axi4_slave_monitor.sv(224) @ 115000: uvm_test_top.env.slave_agent.mon [axi4_slave_monitor] AR received: ID=0xb ADDR=0x206a8f0c LEN=0
# UVM_INFO ../src/slv/axi4_slave_monitor.sv(116) @ 115000: uvm_test_top.env.slave_agent.mon [axi4_slave_monitor] AW received: ID=0x5 ADDR=0xc0dd6fb0 LEN=0
# UVM_INFO ../src/mst/axi4_master_monitor.sv(246) @ 115000: uvm_test_top.env.master_agent.mon [axi4_master_monitor] AR observed: ID=0xb ADDR=0x206a8f0c LEN=0
# UVM_INFO ../src/mst/axi4_master_monitor.sv(124) @ 115000: uvm_test_top.env.master_agent.mon [axi4_master_monitor] AW observed: ID=0x5 ADDR=0xc0dd6fb0 LEN=0
# UVM_INFO ../src/mst/axi4_master_driver.sv(348) @ 135000: uvm_test_top.env.master_agent.drv [axi4_master_driver] Master driver received all R beats for ID=0xb
# UVM_INFO ../src/slv/axi4_slave_driver.sv(464) @ 135000: uvm_test_top.env.slave_agent.drv [axi4_slave_driver] Read complete: ID=0xb ADDR=0x206a8f0c RESP=AXI4_RESP_OKAY  1 beats sent
# UVM_INFO ../src/slv/axi4_slave_monitor.sv(287) @ 135000: uvm_test_top.env.slave_agent.mon [axi4_slave_monitor] Read data sent: ID=0xb ADDR=0x206a8f0c 1 beats
# UVM_INFO ../src/env/axi4_scoreboard.sv(108) @ 135000: uvm_test_top.env.scb [axi4_scoreboard] Slave AXI4_READ received: ID=0xb ADDR=0x206a8f0c LEN=0
# UVM_INFO ../src/mst/axi4_master_monitor.sv(314) @ 135000: uvm_test_top.env.master_agent.mon [axi4_master_monitor] Read complete: ID=0xb ADDR=0x206a8f0c 1 beats
# UVM_INFO ../src/env/axi4_scoreboard.sv(87) @ 135000: uvm_test_top.env.scb [axi4_scoreboard] Master AXI4_READ received: ID=0xb ADDR=0x206a8f0c LEN=0
# UVM_INFO ../src/env/axi4_scoreboard.sv(291) @ 135000: uvm_test_top.env.scb [axi4_scoreboard] [READ] MATCH #1: ID=0xb ADDR=0x206a8f0c LEN=0
# UVM_INFO ../src/slv/axi4_slave_monitor.sv(167) @ 135000: uvm_test_top.env.slave_agent.mon [axi4_slave_monitor] W data assembled: ID=0x5 ADDR=0xc0dd6fb0 1 beats
# UVM_INFO ../src/mst/axi4_master_monitor.sv(184) @ 135000: uvm_test_top.env.master_agent.mon [axi4_master_monitor] W data assembled: ID=0x5 ADDR=0xc0dd6fb0 1 beats
# UVM_INFO ../src/slv/axi4_slave_driver.sv(358) @ 145000: uvm_test_top.env.slave_agent.drv [axi4_slave_driver] AR received: ID=0xc ADDR=0x60884eb9 LEN=0 LOCK=AXI4_LOCK_NORMAL
# UVM_INFO ../src/mst/axi4_master_monitor.sv(246) @ 145000: uvm_test_top.env.master_agent.mon [axi4_master_monitor] AR observed: ID=0xc ADDR=0x60884eb9 LEN=0
# UVM_INFO ../src/slv/axi4_slave_monitor.sv(224) @ 145000: uvm_test_top.env.slave_agent.mon [axi4_slave_monitor] AR received: ID=0xc ADDR=0x60884eb9 LEN=0
# UVM_INFO ../src/mst/axi4_master_driver.sv(289) @ 165000: uvm_test_top.env.master_agent.drv [axi4_master_driver] Master driver received B response: ID=0x5 RESP=AXI4_RESP_OKAY
# UVM_INFO ../src/mst/axi4_master_driver.sv(348) @ 165000: uvm_test_top.env.master_agent.drv [axi4_master_driver] Master driver received all R beats for ID=0xc
# UVM_INFO ../src/slv/axi4_slave_driver.sv(464) @ 165000: uvm_test_top.env.slave_agent.drv [axi4_slave_driver] Read complete: ID=0xc ADDR=0x60884eb9 RESP=AXI4_RESP_OKAY  1 beats sent
# UVM_INFO ../src/slv/axi4_slave_driver.sv(320) @ 165000: uvm_test_top.env.slave_agent.drv [axi4_slave_driver] Write complete: ID=0x5 RESP=AXI4_RESP_OKAY
# UVM_INFO ../src/mst/axi4_master_monitor.sv(210) @ 165000: uvm_test_top.env.master_agent.mon [axi4_master_monitor] Write complete: ID=0x5 ADDR=0xc0dd6fb0 RESP=AXI4_RESP_OKAY
# UVM_INFO ../src/env/axi4_scoreboard.sv(87) @ 165000: uvm_test_top.env.scb [axi4_scoreboard] Master AXI4_WRITE received: ID=0x5 ADDR=0xc0dd6fb0 LEN=0
# UVM_INFO ../src/mst/axi4_master_monitor.sv(314) @ 165000: uvm_test_top.env.master_agent.mon [axi4_master_monitor] Read complete: ID=0xc ADDR=0x60884eb9 1 beats
# UVM_INFO ../src/env/axi4_scoreboard.sv(87) @ 165000: uvm_test_top.env.scb [axi4_scoreboard] Master AXI4_READ received: ID=0xc ADDR=0x60884eb9 LEN=0
# UVM_INFO ../src/slv/axi4_slave_monitor.sv(189) @ 165000: uvm_test_top.env.slave_agent.mon [axi4_slave_monitor] Write response sent: ID=0x5 ADDR=0xc0dd6fb0 RESP=AXI4_RESP_OKAY
# UVM_INFO ../src/env/axi4_scoreboard.sv(108) @ 165000: uvm_test_top.env.scb [axi4_scoreboard] Slave AXI4_WRITE received: ID=0x5 ADDR=0xc0dd6fb0 LEN=0
# UVM_INFO ../src/env/axi4_scoreboard.sv(291) @ 165000: uvm_test_top.env.scb [axi4_scoreboard] [WRITE] MATCH #2: ID=0x5 ADDR=0xc0dd6fb0 LEN=0
# UVM_INFO ../src/env/axi4_scoreboard.sv(219) @ 165000: uvm_test_top.env.scb [axi4_scoreboard] [REF_MEM_WRITE] Addr=0xc0dd6fb0 Data=0xb5
# UVM_INFO ../src/env/axi4_scoreboard.sv(219) @ 165000: uvm_test_top.env.scb [axi4_scoreboard] [REF_MEM_WRITE] Addr=0xc0dd6fb1 Data=0x2e
# UVM_INFO ../src/env/axi4_scoreboard.sv(219) @ 165000: uvm_test_top.env.scb [axi4_scoreboard] [REF_MEM_WRITE] Addr=0xc0dd6fb3 Data=0xf1
# UVM_INFO ../src/slv/axi4_slave_monitor.sv(287) @ 165000: uvm_test_top.env.slave_agent.mon [axi4_slave_monitor] Read data sent: ID=0xc ADDR=0x60884eb9 1 beats
# UVM_INFO ../src/env/axi4_scoreboard.sv(108) @ 165000: uvm_test_top.env.scb [axi4_scoreboard] Slave AXI4_READ received: ID=0xc ADDR=0x60884eb9 LEN=0
# UVM_INFO ../src/env/axi4_scoreboard.sv(291) @ 165000: uvm_test_top.env.scb [axi4_scoreboard] [READ] MATCH #3: ID=0xc ADDR=0x60884eb9 LEN=0
# UVM_INFO ../src/slv/axi4_slave_driver.sv(358) @ 175000: uvm_test_top.env.slave_agent.drv [axi4_slave_driver] AR received: ID=0x0 ADDR=0x864f8e47 LEN=0 LOCK=AXI4_LOCK_EXCLUSIVE
# UVM_INFO ../src/slv/axi4_slave_monitor.sv(224) @ 175000: uvm_test_top.env.slave_agent.mon [axi4_slave_monitor] AR received: ID=0x0 ADDR=0x864f8e47 LEN=0
# UVM_INFO ../src/mst/axi4_master_monitor.sv(246) @ 175000: uvm_test_top.env.master_agent.mon [axi4_master_monitor] AR observed: ID=0x0 ADDR=0x864f8e47 LEN=0
# UVM_INFO ../src/mst/axi4_master_driver.sv(348) @ 195000: uvm_test_top.env.master_agent.drv [axi4_master_driver] Master driver received all R beats for ID=0x0
# UVM_INFO ../src/slv/axi4_slave_driver.sv(464) @ 195000: uvm_test_top.env.slave_agent.drv [axi4_slave_driver] Read complete: ID=0x0 ADDR=0x864f8e47 RESP=AXI4_RESP_EXOKAY  1 beats sent
# UVM_INFO ../src/slv/axi4_slave_monitor.sv(287) @ 195000: uvm_test_top.env.slave_agent.mon [axi4_slave_monitor] Read data sent: ID=0x0 ADDR=0x864f8e47 1 beats
# UVM_INFO ../src/env/axi4_scoreboard.sv(108) @ 195000: uvm_test_top.env.scb [axi4_scoreboard] Slave AXI4_READ received: ID=0x0 ADDR=0x864f8e47 LEN=0
# UVM_INFO ../src/mst/axi4_master_monitor.sv(314) @ 195000: uvm_test_top.env.master_agent.mon [axi4_master_monitor] Read complete: ID=0x0 ADDR=0x864f8e47 1 beats
# UVM_INFO ../src/env/axi4_scoreboard.sv(87) @ 195000: uvm_test_top.env.scb [axi4_scoreboard] Master AXI4_READ received: ID=0x0 ADDR=0x864f8e47 LEN=0
# UVM_INFO ../src/env/axi4_scoreboard.sv(291) @ 195000: uvm_test_top.env.scb [axi4_scoreboard] [READ] MATCH #4: ID=0x0 ADDR=0x864f8e47 LEN=0
# UVM_INFO ../src/slv/axi4_slave_driver.sv(212) @ 205000: uvm_test_top.env.slave_agent.drv [axi4_slave_driver] AW received: ID=0xc ADDR=0x50de0356 LEN=0 LOCK=AXI4_LOCK_EXCLUSIVE
# UVM_INFO ../src/slv/axi4_slave_driver.sv(358) @ 205000: uvm_test_top.env.slave_agent.drv [axi4_slave_driver] AR received: ID=0xa ADDR=0xcd245d7c LEN=1 LOCK=AXI4_LOCK_EXCLUSIVE
# UVM_INFO ../src/mst/axi4_master_monitor.sv(124) @ 205000: uvm_test_top.env.master_agent.mon [axi4_master_monitor] AW observed: ID=0xc ADDR=0x50de0356 LEN=0
# UVM_INFO ../src/mst/axi4_master_monitor.sv(246) @ 205000: uvm_test_top.env.master_agent.mon [axi4_master_monitor] AR observed: ID=0xa ADDR=0xcd245d7c LEN=1
# UVM_INFO ../src/slv/axi4_slave_monitor.sv(116) @ 205000: uvm_test_top.env.slave_agent.mon [axi4_slave_monitor] AW received: ID=0xc ADDR=0x50de0356 LEN=0
# UVM_INFO ../src/slv/axi4_slave_monitor.sv(224) @ 205000: uvm_test_top.env.slave_agent.mon [axi4_slave_monitor] AR received: ID=0xa ADDR=0xcd245d7c LEN=1
# UVM_INFO ../src/mst/axi4_master_monitor.sv(184) @ 205000: uvm_test_top.env.master_agent.mon [axi4_master_monitor] W data assembled: ID=0xc ADDR=0x50de0356 1 beats
# UVM_INFO ../src/slv/axi4_slave_monitor.sv(167) @ 205000: uvm_test_top.env.slave_agent.mon [axi4_slave_monitor] W data assembled: ID=0xc ADDR=0x50de0356 1 beats
# UVM_INFO ../src/mst/axi4_master_driver.sv(289) @ 225000: uvm_test_top.env.master_agent.drv [axi4_master_driver] Master driver received B response: ID=0xc RESP=AXI4_RESP_OKAY
# UVM_INFO ../src/slv/axi4_slave_driver.sv(320) @ 225000: uvm_test_top.env.slave_agent.drv [axi4_slave_driver] Write complete: ID=0xc RESP=AXI4_RESP_OKAY
# UVM_INFO ../src/mst/axi4_master_monitor.sv(210) @ 225000: uvm_test_top.env.master_agent.mon [axi4_master_monitor] Write complete: ID=0xc ADDR=0x50de0356 RESP=AXI4_RESP_OKAY
# UVM_INFO ../src/env/axi4_scoreboard.sv(87) @ 225000: uvm_test_top.env.scb [axi4_scoreboard] Master AXI4_WRITE received: ID=0xc ADDR=0x50de0356 LEN=0
# UVM_INFO ../src/slv/axi4_slave_monitor.sv(189) @ 225000: uvm_test_top.env.slave_agent.mon [axi4_slave_monitor] Write response sent: ID=0xc ADDR=0x50de0356 RESP=AXI4_RESP_OKAY
# UVM_INFO ../src/env/axi4_scoreboard.sv(108) @ 225000: uvm_test_top.env.scb [axi4_scoreboard] Slave AXI4_WRITE received: ID=0xc ADDR=0x50de0356 LEN=0
# UVM_INFO ../src/env/axi4_scoreboard.sv(291) @ 225000: uvm_test_top.env.scb [axi4_scoreboard] [WRITE] MATCH #5: ID=0xc ADDR=0x50de0356 LEN=0
# UVM_INFO ../src/env/axi4_scoreboard.sv(226) @ 225000: uvm_test_top.env.scb [axi4_scoreboard] [REF_MEM_WRITE_IGNORED] Write ignored for ADDR=0x50de0356 LOCK=AXI4_LOCK_EXCLUSIVE RESP=AXI4_RESP_OKAY
# UVM_INFO ../src/slv/axi4_slave_driver.sv(358) @ 235000: uvm_test_top.env.slave_agent.drv [axi4_slave_driver] AR received: ID=0xd ADDR=0x0d566e36 LEN=1 LOCK=AXI4_LOCK_NORMAL
# UVM_INFO ../src/slv/axi4_slave_driver.sv(212) @ 235000: uvm_test_top.env.slave_agent.drv [axi4_slave_driver] AW received: ID=0xc ADDR=0x131e3aee LEN=0 LOCK=AXI4_LOCK_EXCLUSIVE
# UVM_INFO ../src/slv/axi4_slave_monitor.sv(224) @ 235000: uvm_test_top.env.slave_agent.mon [axi4_slave_monitor] AR received: ID=0xd ADDR=0x0d566e36 LEN=1
# UVM_INFO ../src/slv/axi4_slave_monitor.sv(116) @ 235000: uvm_test_top.env.slave_agent.mon [axi4_slave_monitor] AW received: ID=0xc ADDR=0x131e3aee LEN=0
# UVM_INFO ../src/mst/axi4_master_monitor.sv(246) @ 235000: uvm_test_top.env.master_agent.mon [axi4_master_monitor] AR observed: ID=0xd ADDR=0x0d566e36 LEN=1
# UVM_INFO ../src/mst/axi4_master_monitor.sv(124) @ 235000: uvm_test_top.env.master_agent.mon [axi4_master_monitor] AW observed: ID=0xc ADDR=0x131e3aee LEN=0
# UVM_INFO ../src/slv/axi4_slave_monitor.sv(167) @ 235000: uvm_test_top.env.slave_agent.mon [axi4_slave_monitor] W data assembled: ID=0xc ADDR=0x131e3aee 1 beats
# UVM_INFO ../src/mst/axi4_master_monitor.sv(184) @ 235000: uvm_test_top.env.master_agent.mon [axi4_master_monitor] W data assembled: ID=0xc ADDR=0x131e3aee 1 beats
# UVM_INFO ../src/mst/axi4_master_driver.sv(348) @ 245000: uvm_test_top.env.master_agent.drv [axi4_master_driver] Master driver received all R beats for ID=0xa
# UVM_INFO ../src/slv/axi4_slave_driver.sv(464) @ 245000: uvm_test_top.env.slave_agent.drv [axi4_slave_driver] Read complete: ID=0xa ADDR=0xcd245d7c RESP=AXI4_RESP_EXOKAY  2 beats sent
# UVM_INFO ../src/mst/axi4_master_monitor.sv(314) @ 245000: uvm_test_top.env.master_agent.mon [axi4_master_monitor] Read complete: ID=0xa ADDR=0xcd245d7c 2 beats
# UVM_INFO ../src/env/axi4_scoreboard.sv(87) @ 245000: uvm_test_top.env.scb [axi4_scoreboard] Master AXI4_READ received: ID=0xa ADDR=0xcd245d7c LEN=1
# UVM_INFO ../src/slv/axi4_slave_monitor.sv(287) @ 245000: uvm_test_top.env.slave_agent.mon [axi4_slave_monitor] Read data sent: ID=0xa ADDR=0xcd245d7c 2 beats
# UVM_INFO ../src/env/axi4_scoreboard.sv(108) @ 245000: uvm_test_top.env.scb [axi4_scoreboard] Slave AXI4_READ received: ID=0xa ADDR=0xcd245d7c LEN=1
# UVM_INFO ../src/env/axi4_scoreboard.sv(291) @ 245000: uvm_test_top.env.scb [axi4_scoreboard] [READ] MATCH #6: ID=0xa ADDR=0xcd245d7c LEN=1
# UVM_INFO ../src/mst/axi4_master_driver.sv(289) @ 255000: uvm_test_top.env.master_agent.drv [axi4_master_driver] Master driver received B response: ID=0xc RESP=AXI4_RESP_OKAY
# UVM_INFO ../src/slv/axi4_slave_driver.sv(320) @ 255000: uvm_test_top.env.slave_agent.drv [axi4_slave_driver] Write complete: ID=0xc RESP=AXI4_RESP_OKAY
# UVM_INFO ../src/slv/axi4_slave_monitor.sv(189) @ 255000: uvm_test_top.env.slave_agent.mon [axi4_slave_monitor] Write response sent: ID=0xc ADDR=0x131e3aee RESP=AXI4_RESP_OKAY
# UVM_INFO ../src/env/axi4_scoreboard.sv(108) @ 255000: uvm_test_top.env.scb [axi4_scoreboard] Slave AXI4_WRITE received: ID=0xc ADDR=0x131e3aee LEN=0
# UVM_INFO ../src/mst/axi4_master_monitor.sv(210) @ 255000: uvm_test_top.env.master_agent.mon [axi4_master_monitor] Write complete: ID=0xc ADDR=0x131e3aee RESP=AXI4_RESP_OKAY
# UVM_INFO ../src/env/axi4_scoreboard.sv(87) @ 255000: uvm_test_top.env.scb [axi4_scoreboard] Master AXI4_WRITE received: ID=0xc ADDR=0x131e3aee LEN=0
# UVM_INFO ../src/env/axi4_scoreboard.sv(291) @ 255000: uvm_test_top.env.scb [axi4_scoreboard] [WRITE] MATCH #7: ID=0xc ADDR=0x131e3aee LEN=0
# UVM_INFO ../src/env/axi4_scoreboard.sv(226) @ 255000: uvm_test_top.env.scb [axi4_scoreboard] [REF_MEM_WRITE_IGNORED] Write ignored for ADDR=0x131e3aee LOCK=AXI4_LOCK_EXCLUSIVE RESP=AXI4_RESP_OKAY
# UVM_INFO ../src/slv/axi4_slave_driver.sv(358) @ 265000: uvm_test_top.env.slave_agent.drv [axi4_slave_driver] AR received: ID=0x6 ADDR=0x6533b7c8 LEN=1 LOCK=AXI4_LOCK_EXCLUSIVE
# UVM_INFO ../src/mst/axi4_master_monitor.sv(246) @ 265000: uvm_test_top.env.master_agent.mon [axi4_master_monitor] AR observed: ID=0x6 ADDR=0x6533b7c8 LEN=1
# UVM_INFO ../src/slv/axi4_slave_monitor.sv(224) @ 265000: uvm_test_top.env.slave_agent.mon [axi4_slave_monitor] AR received: ID=0x6 ADDR=0x6533b7c8 LEN=1
# UVM_INFO ../src/mst/axi4_master_driver.sv(348) @ 285000: uvm_test_top.env.master_agent.drv [axi4_master_driver] Master driver received all R beats for ID=0xd
# UVM_INFO ../src/slv/axi4_slave_driver.sv(464) @ 285000: uvm_test_top.env.slave_agent.drv [axi4_slave_driver] Read complete: ID=0xd ADDR=0x0d566e36 RESP=AXI4_RESP_OKAY  2 beats sent
# UVM_INFO ../src/mst/axi4_master_monitor.sv(314) @ 285000: uvm_test_top.env.master_agent.mon [axi4_master_monitor] Read complete: ID=0xd ADDR=0x0d566e36 2 beats
# UVM_INFO ../src/env/axi4_scoreboard.sv(87) @ 285000: uvm_test_top.env.scb [axi4_scoreboard] Master AXI4_READ received: ID=0xd ADDR=0x0d566e36 LEN=1
# UVM_INFO ../src/slv/axi4_slave_monitor.sv(287) @ 285000: uvm_test_top.env.slave_agent.mon [axi4_slave_monitor] Read data sent: ID=0xd ADDR=0x0d566e36 2 beats
# UVM_INFO ../src/env/axi4_scoreboard.sv(108) @ 285000: uvm_test_top.env.scb [axi4_scoreboard] Slave AXI4_READ received: ID=0xd ADDR=0x0d566e36 LEN=1
# UVM_INFO ../src/env/axi4_scoreboard.sv(291) @ 285000: uvm_test_top.env.scb [axi4_scoreboard] [READ] MATCH #8: ID=0xd ADDR=0x0d566e36 LEN=1
# UVM_INFO ../src/slv/axi4_slave_driver.sv(358) @ 295000: uvm_test_top.env.slave_agent.drv [axi4_slave_driver] AR received: ID=0x4 ADDR=0xd44a1f76 LEN=3 LOCK=AXI4_LOCK_EXCLUSIVE
# UVM_INFO ../src/slv/axi4_slave_monitor.sv(224) @ 295000: uvm_test_top.env.slave_agent.mon [axi4_slave_monitor] AR received: ID=0x4 ADDR=0xd44a1f76 LEN=3
# UVM_INFO ../src/mst/axi4_master_monitor.sv(246) @ 295000: uvm_test_top.env.master_agent.mon [axi4_master_monitor] AR observed: ID=0x4 ADDR=0xd44a1f76 LEN=3
# UVM_INFO ../src/slv/axi4_slave_driver.sv(212) @ 305000: uvm_test_top.env.slave_agent.drv [axi4_slave_driver] AW received: ID=0xf ADDR=0x691b1b75 LEN=1 LOCK=AXI4_LOCK_EXCLUSIVE
# UVM_INFO ../src/mst/axi4_master_monitor.sv(124) @ 305000: uvm_test_top.env.master_agent.mon [axi4_master_monitor] AW observed: ID=0xf ADDR=0x691b1b75 LEN=1
# UVM_INFO ../src/slv/axi4_slave_monitor.sv(116) @ 305000: uvm_test_top.env.slave_agent.mon [axi4_slave_monitor] AW received: ID=0xf ADDR=0x691b1b75 LEN=1
# UVM_INFO ../src/mst/axi4_master_monitor.sv(184) @ 305000: uvm_test_top.env.master_agent.mon [axi4_master_monitor] W data assembled: ID=0xf ADDR=0x691b1b75 2 beats
# UVM_INFO ../src/slv/axi4_slave_monitor.sv(167) @ 305000: uvm_test_top.env.slave_agent.mon [axi4_slave_monitor] W data assembled: ID=0xf ADDR=0x691b1b75 2 beats
# UVM_INFO ../src/mst/axi4_master_driver.sv(289) @ 325000: uvm_test_top.env.master_agent.drv [axi4_master_driver] Master driver received B response: ID=0xf RESP=AXI4_RESP_OKAY
# UVM_INFO ../src/mst/axi4_master_driver.sv(348) @ 325000: uvm_test_top.env.master_agent.drv [axi4_master_driver] Master driver received all R beats for ID=0x6
# UVM_INFO ../src/slv/axi4_slave_driver.sv(358) @ 325000: uvm_test_top.env.slave_agent.drv [axi4_slave_driver] AR received: ID=0xd ADDR=0xadcf3abb LEN=3 LOCK=AXI4_LOCK_EXCLUSIVE
# UVM_INFO ../src/slv/axi4_slave_driver.sv(464) @ 325000: uvm_test_top.env.slave_agent.drv [axi4_slave_driver] Read complete: ID=0x6 ADDR=0x6533b7c8 RESP=AXI4_RESP_EXOKAY  2 beats sent
# UVM_INFO ../src/slv/axi4_slave_driver.sv(320) @ 325000: uvm_test_top.env.slave_agent.drv [axi4_slave_driver] Write complete: ID=0xf RESP=AXI4_RESP_OKAY
# UVM_INFO ../src/mst/axi4_master_monitor.sv(210) @ 325000: uvm_test_top.env.master_agent.mon [axi4_master_monitor] Write complete: ID=0xf ADDR=0x691b1b75 RESP=AXI4_RESP_OKAY
# UVM_INFO ../src/env/axi4_scoreboard.sv(87) @ 325000: uvm_test_top.env.scb [axi4_scoreboard] Master AXI4_WRITE received: ID=0xf ADDR=0x691b1b75 LEN=1
# UVM_INFO ../src/mst/axi4_master_monitor.sv(246) @ 325000: uvm_test_top.env.master_agent.mon [axi4_master_monitor] AR observed: ID=0xd ADDR=0xadcf3abb LEN=3
# UVM_INFO ../src/mst/axi4_master_monitor.sv(314) @ 325000: uvm_test_top.env.master_agent.mon [axi4_master_monitor] Read complete: ID=0x6 ADDR=0x6533b7c8 2 beats
# UVM_INFO ../src/env/axi4_scoreboard.sv(87) @ 325000: uvm_test_top.env.scb [axi4_scoreboard] Master AXI4_READ received: ID=0x6 ADDR=0x6533b7c8 LEN=1
# UVM_INFO ../src/slv/axi4_slave_monitor.sv(189) @ 325000: uvm_test_top.env.slave_agent.mon [axi4_slave_monitor] Write response sent: ID=0xf ADDR=0x691b1b75 RESP=AXI4_RESP_OKAY
# UVM_INFO ../src/env/axi4_scoreboard.sv(108) @ 325000: uvm_test_top.env.scb [axi4_scoreboard] Slave AXI4_WRITE received: ID=0xf ADDR=0x691b1b75 LEN=1
# UVM_INFO ../src/env/axi4_scoreboard.sv(291) @ 325000: uvm_test_top.env.scb [axi4_scoreboard] [WRITE] MATCH #9: ID=0xf ADDR=0x691b1b75 LEN=1
# UVM_INFO ../src/env/axi4_scoreboard.sv(226) @ 325000: uvm_test_top.env.scb [axi4_scoreboard] [REF_MEM_WRITE_IGNORED] Write ignored for ADDR=0x691b1b75 LOCK=AXI4_LOCK_EXCLUSIVE RESP=AXI4_RESP_OKAY
# UVM_INFO ../src/slv/axi4_slave_monitor.sv(224) @ 325000: uvm_test_top.env.slave_agent.mon [axi4_slave_monitor] AR received: ID=0xd ADDR=0xadcf3abb LEN=3
# UVM_INFO ../src/slv/axi4_slave_monitor.sv(287) @ 325000: uvm_test_top.env.slave_agent.mon [axi4_slave_monitor] Read data sent: ID=0x6 ADDR=0x6533b7c8 2 beats
# UVM_INFO ../src/env/axi4_scoreboard.sv(108) @ 325000: uvm_test_top.env.scb [axi4_scoreboard] Slave AXI4_READ received: ID=0x6 ADDR=0x6533b7c8 LEN=1
# UVM_INFO ../src/env/axi4_scoreboard.sv(291) @ 325000: uvm_test_top.env.scb [axi4_scoreboard] [READ] MATCH #10: ID=0x6 ADDR=0x6533b7c8 LEN=1
# UVM_INFO ../src/slv/axi4_slave_driver.sv(212) @ 335000: uvm_test_top.env.slave_agent.drv [axi4_slave_driver] AW received: ID=0xb ADDR=0xc18b7530 LEN=1 LOCK=AXI4_LOCK_NORMAL
# UVM_INFO ../src/slv/axi4_slave_monitor.sv(116) @ 335000: uvm_test_top.env.slave_agent.mon [axi4_slave_monitor] AW received: ID=0xb ADDR=0xc18b7530 LEN=1
# UVM_INFO ../src/mst/axi4_master_monitor.sv(124) @ 335000: uvm_test_top.env.master_agent.mon [axi4_master_monitor] AW observed: ID=0xb ADDR=0xc18b7530 LEN=1
# UVM_INFO ../src/slv/axi4_slave_monitor.sv(167) @ 335000: uvm_test_top.env.slave_agent.mon [axi4_slave_monitor] W data assembled: ID=0xb ADDR=0xc18b7530 2 beats
# UVM_INFO ../src/mst/axi4_master_monitor.sv(184) @ 335000: uvm_test_top.env.master_agent.mon [axi4_master_monitor] W data assembled: ID=0xb ADDR=0xc18b7530 2 beats
# UVM_INFO ../src/mst/axi4_master_driver.sv(289) @ 355000: uvm_test_top.env.master_agent.drv [axi4_master_driver] Master driver received B response: ID=0xb RESP=AXI4_RESP_OKAY
# UVM_INFO ../src/slv/axi4_slave_driver.sv(358) @ 355000: uvm_test_top.env.slave_agent.drv [axi4_slave_driver] AR received: ID=0x4 ADDR=0x3271e7c7 LEN=3 LOCK=AXI4_LOCK_NORMAL
# UVM_INFO ../src/slv/axi4_slave_driver.sv(320) @ 355000: uvm_test_top.env.slave_agent.drv [axi4_slave_driver] Write complete: ID=0xb RESP=AXI4_RESP_OKAY
# UVM_INFO ../src/slv/axi4_slave_monitor.sv(224) @ 355000: uvm_test_top.env.slave_agent.mon [axi4_slave_monitor] AR received: ID=0x4 ADDR=0x3271e7c7 LEN=3
# UVM_INFO ../src/slv/axi4_slave_monitor.sv(189) @ 355000: uvm_test_top.env.slave_agent.mon [axi4_slave_monitor] Write response sent: ID=0xb ADDR=0xc18b7530 RESP=AXI4_RESP_OKAY
# UVM_INFO ../src/env/axi4_scoreboard.sv(108) @ 355000: uvm_test_top.env.scb [axi4_scoreboard] Slave AXI4_WRITE received: ID=0xb ADDR=0xc18b7530 LEN=1
# UVM_INFO ../src/mst/axi4_master_monitor.sv(246) @ 355000: uvm_test_top.env.master_agent.mon [axi4_master_monitor] AR observed: ID=0x4 ADDR=0x3271e7c7 LEN=3
# UVM_INFO ../src/mst/axi4_master_monitor.sv(210) @ 355000: uvm_test_top.env.master_agent.mon [axi4_master_monitor] Write complete: ID=0xb ADDR=0xc18b7530 RESP=AXI4_RESP_OKAY
# UVM_INFO ../src/env/axi4_scoreboard.sv(87) @ 355000: uvm_test_top.env.scb [axi4_scoreboard] Master AXI4_WRITE received: ID=0xb ADDR=0xc18b7530 LEN=1
# UVM_INFO ../src/env/axi4_scoreboard.sv(291) @ 355000: uvm_test_top.env.scb [axi4_scoreboard] [WRITE] MATCH #11: ID=0xb ADDR=0xc18b7530 LEN=1
# UVM_INFO ../src/env/axi4_scoreboard.sv(219) @ 355000: uvm_test_top.env.scb [axi4_scoreboard] [REF_MEM_WRITE] Addr=0xc18b7531 Data=0xc3
# UVM_INFO ../src/env/axi4_scoreboard.sv(219) @ 355000: uvm_test_top.env.scb [axi4_scoreboard] [REF_MEM_WRITE] Addr=0xc18b7533 Data=0x8c
# UVM_INFO ../src/env/axi4_scoreboard.sv(219) @ 355000: uvm_test_top.env.scb [axi4_scoreboard] [REF_MEM_WRITE] Addr=0xc18b7531 Data=0xa9
# UVM_INFO ../src/env/axi4_scoreboard.sv(219) @ 355000: uvm_test_top.env.scb [axi4_scoreboard] [REF_MEM_WRITE] Addr=0xc18b7533 Data=0x2e
# UVM_INFO ../src/slv/axi4_slave_driver.sv(212) @ 365000: uvm_test_top.env.slave_agent.drv [axi4_slave_driver] AW received: ID=0x9 ADDR=0xb14244f7 LEN=1 LOCK=AXI4_LOCK_EXCLUSIVE
# UVM_INFO ../src/mst/axi4_master_monitor.sv(124) @ 365000: uvm_test_top.env.master_agent.mon [axi4_master_monitor] AW observed: ID=0x9 ADDR=0xb14244f7 LEN=1
# UVM_INFO ../src/slv/axi4_slave_monitor.sv(116) @ 365000: uvm_test_top.env.slave_agent.mon [axi4_slave_monitor] AW received: ID=0x9 ADDR=0xb14244f7 LEN=1
# UVM_INFO ../src/slv/axi4_slave_driver.sv(358) @ 385000: uvm_test_top.env.slave_agent.drv [axi4_slave_driver] AR received: ID=0xe ADDR=0xa2371658 LEN=7 LOCK=AXI4_LOCK_EXCLUSIVE
# UVM_INFO ../src/mst/axi4_master_monitor.sv(246) @ 385000: uvm_test_top.env.master_agent.mon [axi4_master_monitor] AR observed: ID=0xe ADDR=0xa2371658 LEN=7
# UVM_INFO ../src/slv/axi4_slave_monitor.sv(224) @ 385000: uvm_test_top.env.slave_agent.mon [axi4_slave_monitor] AR received: ID=0xe ADDR=0xa2371658 LEN=7
# UVM_INFO ../src/mst/axi4_master_driver.sv(348) @ 405000: uvm_test_top.env.master_agent.drv [axi4_master_driver] Master driver received all R beats for ID=0x4
# UVM_INFO ../src/slv/axi4_slave_driver.sv(464) @ 405000: uvm_test_top.env.slave_agent.drv [axi4_slave_driver] Read complete: ID=0x4 ADDR=0xd44a1f76 RESP=AXI4_RESP_EXOKAY  4 beats sent
# UVM_INFO ../src/mst/axi4_master_monitor.sv(314) @ 405000: uvm_test_top.env.master_agent.mon [axi4_master_monitor] Read complete: ID=0x4 ADDR=0xd44a1f76 4 beats
# UVM_INFO ../src/env/axi4_scoreboard.sv(87) @ 405000: uvm_test_top.env.scb [axi4_scoreboard] Master AXI4_READ received: ID=0x4 ADDR=0xd44a1f76 LEN=3
# UVM_INFO ../src/slv/axi4_slave_monitor.sv(287) @ 405000: uvm_test_top.env.slave_agent.mon [axi4_slave_monitor] Read data sent: ID=0x4 ADDR=0xd44a1f76 4 beats
# UVM_INFO ../src/env/axi4_scoreboard.sv(108) @ 405000: uvm_test_top.env.scb [axi4_scoreboard] Slave AXI4_READ received: ID=0x4 ADDR=0xd44a1f76 LEN=3
# UVM_INFO ../src/env/axi4_scoreboard.sv(291) @ 405000: uvm_test_top.env.scb [axi4_scoreboard] [READ] MATCH #12: ID=0x4 ADDR=0xd44a1f76 LEN=3
# UVM_INFO ../src/mst/axi4_master_monitor.sv(184) @ 405000: uvm_test_top.env.master_agent.mon [axi4_master_monitor] W data assembled: ID=0x9 ADDR=0xb14244f7 2 beats
# UVM_INFO ../src/slv/axi4_slave_monitor.sv(167) @ 405000: uvm_test_top.env.slave_agent.mon [axi4_slave_monitor] W data assembled: ID=0x9 ADDR=0xb14244f7 2 beats
# UVM_INFO ../src/slv/axi4_slave_driver.sv(358) @ 415000: uvm_test_top.env.slave_agent.drv [axi4_slave_driver] AR received: ID=0x2 ADDR=0x26e159aa LEN=7 LOCK=AXI4_LOCK_EXCLUSIVE
# UVM_INFO ../src/slv/axi4_slave_monitor.sv(224) @ 415000: uvm_test_top.env.slave_agent.mon [axi4_slave_monitor] AR received: ID=0x2 ADDR=0x26e159aa LEN=7
# UVM_INFO ../src/mst/axi4_master_monitor.sv(246) @ 415000: uvm_test_top.env.master_agent.mon [axi4_master_monitor] AR observed: ID=0x2 ADDR=0x26e159aa LEN=7
# UVM_INFO ../src/mst/axi4_master_driver.sv(289) @ 435000: uvm_test_top.env.master_agent.drv [axi4_master_driver] Master driver received B response: ID=0x9 RESP=AXI4_RESP_OKAY
# UVM_INFO ../src/slv/axi4_slave_driver.sv(320) @ 435000: uvm_test_top.env.slave_agent.drv [axi4_slave_driver] Write complete: ID=0x9 RESP=AXI4_RESP_OKAY
# UVM_INFO ../src/slv/axi4_slave_monitor.sv(189) @ 435000: uvm_test_top.env.slave_agent.mon [axi4_slave_monitor] Write response sent: ID=0x9 ADDR=0xb14244f7 RESP=AXI4_RESP_OKAY
# UVM_INFO ../src/env/axi4_scoreboard.sv(108) @ 435000: uvm_test_top.env.scb [axi4_scoreboard] Slave AXI4_WRITE received: ID=0x9 ADDR=0xb14244f7 LEN=1
# UVM_INFO ../src/mst/axi4_master_monitor.sv(210) @ 435000: uvm_test_top.env.master_agent.mon [axi4_master_monitor] Write complete: ID=0x9 ADDR=0xb14244f7 RESP=AXI4_RESP_OKAY
# UVM_INFO ../src/env/axi4_scoreboard.sv(87) @ 435000: uvm_test_top.env.scb [axi4_scoreboard] Master AXI4_WRITE received: ID=0x9 ADDR=0xb14244f7 LEN=1
# UVM_INFO ../src/env/axi4_scoreboard.sv(291) @ 435000: uvm_test_top.env.scb [axi4_scoreboard] [WRITE] MATCH #13: ID=0x9 ADDR=0xb14244f7 LEN=1
# UVM_INFO ../src/env/axi4_scoreboard.sv(226) @ 435000: uvm_test_top.env.scb [axi4_scoreboard] [REF_MEM_WRITE_IGNORED] Write ignored for ADDR=0xb14244f7 LOCK=AXI4_LOCK_EXCLUSIVE RESP=AXI4_RESP_OKAY
# UVM_INFO ../src/slv/axi4_slave_driver.sv(358) @ 445000: uvm_test_top.env.slave_agent.drv [axi4_slave_driver] AR received: ID=0x8 ADDR=0x65322fd4 LEN=7 LOCK=AXI4_LOCK_EXCLUSIVE
# UVM_INFO ../src/mst/axi4_master_monitor.sv(246) @ 445000: uvm_test_top.env.master_agent.mon [axi4_master_monitor] AR observed: ID=0x8 ADDR=0x65322fd4 LEN=7
# UVM_INFO ../src/slv/axi4_slave_monitor.sv(224) @ 445000: uvm_test_top.env.slave_agent.mon [axi4_slave_monitor] AR received: ID=0x8 ADDR=0x65322fd4 LEN=7
# UVM_INFO ../src/slv/axi4_slave_driver.sv(212) @ 465000: uvm_test_top.env.slave_agent.drv [axi4_slave_driver] AW received: ID=0xf ADDR=0x9c4560c8 LEN=3 LOCK=AXI4_LOCK_EXCLUSIVE
# UVM_INFO ../src/mst/axi4_master_monitor.sv(124) @ 465000: uvm_test_top.env.master_agent.mon [axi4_master_monitor] AW observed: ID=0xf ADDR=0x9c4560c8 LEN=3
# UVM_INFO ../src/slv/axi4_slave_monitor.sv(116) @ 465000: uvm_test_top.env.slave_agent.mon [axi4_slave_monitor] AW received: ID=0xf ADDR=0x9c4560c8 LEN=3
# UVM_INFO ../src/slv/axi4_slave_driver.sv(358) @ 475000: uvm_test_top.env.slave_agent.drv [axi4_slave_driver] AR received: ID=0x3 ADDR=0x804fc423 LEN=15 LOCK=AXI4_LOCK_NORMAL
# UVM_INFO ../src/slv/axi4_slave_monitor.sv(224) @ 475000: uvm_test_top.env.slave_agent.mon [axi4_slave_monitor] AR received: ID=0x3 ADDR=0x804fc423 LEN=15
# UVM_INFO ../src/mst/axi4_master_monitor.sv(246) @ 475000: uvm_test_top.env.master_agent.mon [axi4_master_monitor] AR observed: ID=0x3 ADDR=0x804fc423 LEN=15
# UVM_INFO ../src/mst/axi4_master_driver.sv(348) @ 485000: uvm_test_top.env.master_agent.drv [axi4_master_driver] Master driver received all R beats for ID=0xd
# UVM_INFO ../src/slv/axi4_slave_driver.sv(464) @ 485000: uvm_test_top.env.slave_agent.drv [axi4_slave_driver] Read complete: ID=0xd ADDR=0xadcf3abb RESP=AXI4_RESP_EXOKAY  4 beats sent
# UVM_INFO ../src/mst/axi4_master_monitor.sv(314) @ 485000: uvm_test_top.env.master_agent.mon [axi4_master_monitor] Read complete: ID=0xd ADDR=0xadcf3abb 4 beats
# UVM_INFO ../src/env/axi4_scoreboard.sv(87) @ 485000: uvm_test_top.env.scb [axi4_scoreboard] Master AXI4_READ received: ID=0xd ADDR=0xadcf3abb LEN=3
# UVM_INFO ../src/slv/axi4_slave_monitor.sv(287) @ 485000: uvm_test_top.env.slave_agent.mon [axi4_slave_monitor] Read data sent: ID=0xd ADDR=0xadcf3abb 4 beats
# UVM_INFO ../src/env/axi4_scoreboard.sv(108) @ 485000: uvm_test_top.env.scb [axi4_scoreboard] Slave AXI4_READ received: ID=0xd ADDR=0xadcf3abb LEN=3
# UVM_INFO ../src/env/axi4_scoreboard.sv(291) @ 485000: uvm_test_top.env.scb [axi4_scoreboard] [READ] MATCH #14: ID=0xd ADDR=0xadcf3abb LEN=3
# UVM_INFO ../src/mst/axi4_master_monitor.sv(184) @ 485000: uvm_test_top.env.master_agent.mon [axi4_master_monitor] W data assembled: ID=0xf ADDR=0x9c4560c8 4 beats
# UVM_INFO ../src/slv/axi4_slave_monitor.sv(167) @ 485000: uvm_test_top.env.slave_agent.mon [axi4_slave_monitor] W data assembled: ID=0xf ADDR=0x9c4560c8 4 beats
# UVM_INFO ../src/slv/axi4_slave_driver.sv(358) @ 505000: uvm_test_top.env.slave_agent.drv [axi4_slave_driver] AR received: ID=0x7 ADDR=0xbb09f5ef LEN=15 LOCK=AXI4_LOCK_NORMAL
# UVM_INFO ../src/mst/axi4_master_monitor.sv(246) @ 505000: uvm_test_top.env.master_agent.mon [axi4_master_monitor] AR observed: ID=0x7 ADDR=0xbb09f5ef LEN=15
# UVM_INFO ../src/slv/axi4_slave_monitor.sv(224) @ 505000: uvm_test_top.env.slave_agent.mon [axi4_slave_monitor] AR received: ID=0x7 ADDR=0xbb09f5ef LEN=15
# UVM_INFO ../src/mst/axi4_master_driver.sv(289) @ 515000: uvm_test_top.env.master_agent.drv [axi4_master_driver] Master driver received B response: ID=0xf RESP=AXI4_RESP_OKAY
# UVM_INFO ../src/slv/axi4_slave_driver.sv(320) @ 515000: uvm_test_top.env.slave_agent.drv [axi4_slave_driver] Write complete: ID=0xf RESP=AXI4_RESP_OKAY
# UVM_INFO ../src/slv/axi4_slave_monitor.sv(189) @ 515000: uvm_test_top.env.slave_agent.mon [axi4_slave_monitor] Write response sent: ID=0xf ADDR=0x9c4560c8 RESP=AXI4_RESP_OKAY
# UVM_INFO ../src/env/axi4_scoreboard.sv(108) @ 515000: uvm_test_top.env.scb [axi4_scoreboard] Slave AXI4_WRITE received: ID=0xf ADDR=0x9c4560c8 LEN=3
# UVM_INFO ../src/mst/axi4_master_monitor.sv(210) @ 515000: uvm_test_top.env.master_agent.mon [axi4_master_monitor] Write complete: ID=0xf ADDR=0x9c4560c8 RESP=AXI4_RESP_OKAY
# UVM_INFO ../src/env/axi4_scoreboard.sv(87) @ 515000: uvm_test_top.env.scb [axi4_scoreboard] Master AXI4_WRITE received: ID=0xf ADDR=0x9c4560c8 LEN=3
# UVM_INFO ../src/env/axi4_scoreboard.sv(291) @ 515000: uvm_test_top.env.scb [axi4_scoreboard] [WRITE] MATCH #15: ID=0xf ADDR=0x9c4560c8 LEN=3
# UVM_INFO ../src/env/axi4_scoreboard.sv(226) @ 515000: uvm_test_top.env.scb [axi4_scoreboard] [REF_MEM_WRITE_IGNORED] Write ignored for ADDR=0x9c4560c8 LOCK=AXI4_LOCK_EXCLUSIVE RESP=AXI4_RESP_OKAY
# UVM_INFO ../src/slv/axi4_slave_driver.sv(358) @ 535000: uvm_test_top.env.slave_agent.drv [axi4_slave_driver] AR received: ID=0x6 ADDR=0x89158d75 LEN=15 LOCK=AXI4_LOCK_NORMAL
# UVM_INFO ../src/slv/axi4_slave_driver.sv(212) @ 535000: uvm_test_top.env.slave_agent.drv [axi4_slave_driver] AW received: ID=0x5 ADDR=0xc0e6f842 LEN=3 LOCK=AXI4_LOCK_EXCLUSIVE
# UVM_INFO ../src/slv/axi4_slave_monitor.sv(224) @ 535000: uvm_test_top.env.slave_agent.mon [axi4_slave_monitor] AR received: ID=0x6 ADDR=0x89158d75 LEN=15
# UVM_INFO ../src/slv/axi4_slave_monitor.sv(116) @ 535000: uvm_test_top.env.slave_agent.mon [axi4_slave_monitor] AW received: ID=0x5 ADDR=0xc0e6f842 LEN=3
# UVM_INFO ../src/mst/axi4_master_monitor.sv(246) @ 535000: uvm_test_top.env.master_agent.mon [axi4_master_monitor] AR observed: ID=0x6 ADDR=0x89158d75 LEN=15
# UVM_INFO ../src/mst/axi4_master_monitor.sv(124) @ 535000: uvm_test_top.env.master_agent.mon [axi4_master_monitor] AW observed: ID=0x5 ADDR=0xc0e6f842 LEN=3
# UVM_INFO ../src/slv/axi4_slave_driver.sv(212) @ 565000: uvm_test_top.env.slave_agent.drv [axi4_slave_driver] AW received: ID=0x1 ADDR=0x426c4be5 LEN=3 LOCK=AXI4_LOCK_NORMAL
# UVM_INFO ../src/slv/axi4_slave_driver.sv(358) @ 565000: uvm_test_top.env.slave_agent.drv [axi4_slave_driver] AR received: ID=0x6 ADDR=0xa702017d LEN=1 LOCK=AXI4_LOCK_EXCLUSIVE
# UVM_INFO ../src/mst/axi4_master_monitor.sv(124) @ 565000: uvm_test_top.env.master_agent.mon [axi4_master_monitor] AW observed: ID=0x1 ADDR=0x426c4be5 LEN=3
# UVM_INFO ../src/mst/axi4_master_monitor.sv(246) @ 565000: uvm_test_top.env.master_agent.mon [axi4_master_monitor] AR observed: ID=0x6 ADDR=0xa702017d LEN=1
# UVM_INFO ../src/slv/axi4_slave_monitor.sv(116) @ 565000: uvm_test_top.env.slave_agent.mon [axi4_slave_monitor] AW received: ID=0x1 ADDR=0x426c4be5 LEN=3
# UVM_INFO ../src/slv/axi4_slave_monitor.sv(224) @ 565000: uvm_test_top.env.slave_agent.mon [axi4_slave_monitor] AR received: ID=0x6 ADDR=0xa702017d LEN=1
# UVM_INFO ../src/mst/axi4_master_monitor.sv(184) @ 565000: uvm_test_top.env.master_agent.mon [axi4_master_monitor] W data assembled: ID=0x5 ADDR=0xc0e6f842 4 beats
# UVM_INFO ../src/slv/axi4_slave_monitor.sv(167) @ 565000: uvm_test_top.env.slave_agent.mon [axi4_slave_monitor] W data assembled: ID=0x5 ADDR=0xc0e6f842 4 beats
# UVM_INFO ../src/mst/axi4_master_driver.sv(289) @ 595000: uvm_test_top.env.master_agent.drv [axi4_master_driver] Master driver received B response: ID=0x5 RESP=AXI4_RESP_OKAY
# UVM_INFO ../src/slv/axi4_slave_driver.sv(358) @ 595000: uvm_test_top.env.slave_agent.drv [axi4_slave_driver] AR received: ID=0xe ADDR=0xd2fa00c4 LEN=1 LOCK=AXI4_LOCK_EXCLUSIVE
# UVM_INFO ../src/slv/axi4_slave_driver.sv(212) @ 595000: uvm_test_top.env.slave_agent.drv [axi4_slave_driver] AW received: ID=0xb ADDR=0x55ceaa95 LEN=7 LOCK=AXI4_LOCK_NORMAL
# UVM_INFO ../src/slv/axi4_slave_driver.sv(320) @ 595000: uvm_test_top.env.slave_agent.drv [axi4_slave_driver] Write complete: ID=0x5 RESP=AXI4_RESP_OKAY
# UVM_INFO ../src/slv/axi4_slave_monitor.sv(224) @ 595000: uvm_test_top.env.slave_agent.mon [axi4_slave_monitor] AR received: ID=0xe ADDR=0xd2fa00c4 LEN=1
# UVM_INFO ../src/slv/axi4_slave_monitor.sv(189) @ 595000: uvm_test_top.env.slave_agent.mon [axi4_slave_monitor] Write response sent: ID=0x5 ADDR=0xc0e6f842 RESP=AXI4_RESP_OKAY
# UVM_INFO ../src/env/axi4_scoreboard.sv(108) @ 595000: uvm_test_top.env.scb [axi4_scoreboard] Slave AXI4_WRITE received: ID=0x5 ADDR=0xc0e6f842 LEN=3
# UVM_INFO ../src/slv/axi4_slave_monitor.sv(116) @ 595000: uvm_test_top.env.slave_agent.mon [axi4_slave_monitor] AW received: ID=0xb ADDR=0x55ceaa95 LEN=7
# UVM_INFO ../src/mst/axi4_master_monitor.sv(246) @ 595000: uvm_test_top.env.master_agent.mon [axi4_master_monitor] AR observed: ID=0xe ADDR=0xd2fa00c4 LEN=1
# UVM_INFO ../src/mst/axi4_master_monitor.sv(210) @ 595000: uvm_test_top.env.master_agent.mon [axi4_master_monitor] Write complete: ID=0x5 ADDR=0xc0e6f842 RESP=AXI4_RESP_OKAY
# UVM_INFO ../src/env/axi4_scoreboard.sv(87) @ 595000: uvm_test_top.env.scb [axi4_scoreboard] Master AXI4_WRITE received: ID=0x5 ADDR=0xc0e6f842 LEN=3
# UVM_INFO ../src/env/axi4_scoreboard.sv(291) @ 595000: uvm_test_top.env.scb [axi4_scoreboard] [WRITE] MATCH #16: ID=0x5 ADDR=0xc0e6f842 LEN=3
# UVM_INFO ../src/env/axi4_scoreboard.sv(226) @ 595000: uvm_test_top.env.scb [axi4_scoreboard] [REF_MEM_WRITE_IGNORED] Write ignored for ADDR=0xc0e6f842 LOCK=AXI4_LOCK_EXCLUSIVE RESP=AXI4_RESP_OKAY
# UVM_INFO ../src/mst/axi4_master_monitor.sv(124) @ 595000: uvm_test_top.env.master_agent.mon [axi4_master_monitor] AW observed: ID=0xb ADDR=0x55ceaa95 LEN=7
# UVM_INFO ../src/slv/axi4_slave_driver.sv(212) @ 625000: uvm_test_top.env.slave_agent.drv [axi4_slave_driver] AW received: ID=0x8 ADDR=0x275f5e8a LEN=7 LOCK=AXI4_LOCK_NORMAL
# UVM_INFO ../src/slv/axi4_slave_driver.sv(358) @ 625000: uvm_test_top.env.slave_agent.drv [axi4_slave_driver] AR received: ID=0x1 ADDR=0x27547520 LEN=1 LOCK=AXI4_LOCK_NORMAL
# UVM_INFO ../src/mst/axi4_master_monitor.sv(124) @ 625000: uvm_test_top.env.master_agent.mon [axi4_master_monitor] AW observed: ID=0x8 ADDR=0x275f5e8a LEN=7
# UVM_INFO ../src/mst/axi4_master_monitor.sv(246) @ 625000: uvm_test_top.env.master_agent.mon [axi4_master_monitor] AR observed: ID=0x1 ADDR=0x27547520 LEN=1
# UVM_INFO ../src/slv/axi4_slave_monitor.sv(116) @ 625000: uvm_test_top.env.slave_agent.mon [axi4_slave_monitor] AW received: ID=0x8 ADDR=0x275f5e8a LEN=7
# UVM_INFO ../src/slv/axi4_slave_monitor.sv(224) @ 625000: uvm_test_top.env.slave_agent.mon [axi4_slave_monitor] AR received: ID=0x1 ADDR=0x27547520 LEN=1
# UVM_INFO ../src/mst/axi4_master_driver.sv(348) @ 645000: uvm_test_top.env.master_agent.drv [axi4_master_driver] Master driver received all R beats for ID=0xe
# UVM_INFO ../src/slv/axi4_slave_driver.sv(464) @ 645000: uvm_test_top.env.slave_agent.drv [axi4_slave_driver] Read complete: ID=0xe ADDR=0xa2371658 RESP=AXI4_RESP_EXOKAY  8 beats sent
# UVM_INFO ../src/mst/axi4_master_monitor.sv(314) @ 645000: uvm_test_top.env.master_agent.mon [axi4_master_monitor] Read complete: ID=0xe ADDR=0xa2371658 8 beats
# UVM_INFO ../src/env/axi4_scoreboard.sv(87) @ 645000: uvm_test_top.env.scb [axi4_scoreboard] Master AXI4_READ received: ID=0xe ADDR=0xa2371658 LEN=7
# UVM_INFO ../src/slv/axi4_slave_monitor.sv(287) @ 645000: uvm_test_top.env.slave_agent.mon [axi4_slave_monitor] Read data sent: ID=0xe ADDR=0xa2371658 8 beats
# UVM_INFO ../src/env/axi4_scoreboard.sv(108) @ 645000: uvm_test_top.env.scb [axi4_scoreboard] Slave AXI4_READ received: ID=0xe ADDR=0xa2371658 LEN=7
# UVM_INFO ../src/env/axi4_scoreboard.sv(291) @ 645000: uvm_test_top.env.scb [axi4_scoreboard] [READ] MATCH #17: ID=0xe ADDR=0xa2371658 LEN=7
# UVM_INFO ../src/mst/axi4_master_monitor.sv(184) @ 645000: uvm_test_top.env.master_agent.mon [axi4_master_monitor] W data assembled: ID=0x1 ADDR=0x426c4be5 4 beats
# UVM_INFO ../src/slv/axi4_slave_monitor.sv(167) @ 645000: uvm_test_top.env.slave_agent.mon [axi4_slave_monitor] W data assembled: ID=0x1 ADDR=0x426c4be5 4 beats
# UVM_INFO ../src/slv/axi4_slave_driver.sv(358) @ 655000: uvm_test_top.env.slave_agent.drv [axi4_slave_driver] AR received: ID=0xa ADDR=0xba18eb3c LEN=3 LOCK=AXI4_LOCK_NORMAL
# UVM_INFO ../src/slv/axi4_slave_driver.sv(212) @ 655000: uvm_test_top.env.slave_agent.drv [axi4_slave_driver] AW received: ID=0xf ADDR=0xc045e001 LEN=7 LOCK=AXI4_LOCK_EXCLUSIVE
# UVM_INFO ../src/slv/axi4_slave_monitor.sv(224) @ 655000: uvm_test_top.env.slave_agent.mon [axi4_slave_monitor] AR received: ID=0xa ADDR=0xba18eb3c LEN=3
# UVM_INFO ../src/slv/axi4_slave_monitor.sv(116) @ 655000: uvm_test_top.env.slave_agent.mon [axi4_slave_monitor] AW received: ID=0xf ADDR=0xc045e001 LEN=7
# UVM_INFO ../src/mst/axi4_master_monitor.sv(246) @ 655000: uvm_test_top.env.master_agent.mon [axi4_master_monitor] AR observed: ID=0xa ADDR=0xba18eb3c LEN=3
# UVM_INFO ../src/mst/axi4_master_monitor.sv(124) @ 655000: uvm_test_top.env.master_agent.mon [axi4_master_monitor] AW observed: ID=0xf ADDR=0xc045e001 LEN=7
# UVM_INFO ../src/mst/axi4_master_driver.sv(289) @ 675000: uvm_test_top.env.master_agent.drv [axi4_master_driver] Master driver received B response: ID=0x1 RESP=AXI4_RESP_OKAY
# UVM_INFO ../src/slv/axi4_slave_driver.sv(320) @ 675000: uvm_test_top.env.slave_agent.drv [axi4_slave_driver] Write complete: ID=0x1 RESP=AXI4_RESP_OKAY
# UVM_INFO ../src/slv/axi4_slave_monitor.sv(189) @ 675000: uvm_test_top.env.slave_agent.mon [axi4_slave_monitor] Write response sent: ID=0x1 ADDR=0x426c4be5 RESP=AXI4_RESP_OKAY
# UVM_INFO ../src/env/axi4_scoreboard.sv(108) @ 675000: uvm_test_top.env.scb [axi4_scoreboard] Slave AXI4_WRITE received: ID=0x1 ADDR=0x426c4be5 LEN=3
# UVM_INFO ../src/mst/axi4_master_monitor.sv(210) @ 675000: uvm_test_top.env.master_agent.mon [axi4_master_monitor] Write complete: ID=0x1 ADDR=0x426c4be5 RESP=AXI4_RESP_OKAY
# UVM_INFO ../src/env/axi4_scoreboard.sv(87) @ 675000: uvm_test_top.env.scb [axi4_scoreboard] Master AXI4_WRITE received: ID=0x1 ADDR=0x426c4be5 LEN=3
# UVM_INFO ../src/env/axi4_scoreboard.sv(291) @ 675000: uvm_test_top.env.scb [axi4_scoreboard] [WRITE] MATCH #18: ID=0x1 ADDR=0x426c4be5 LEN=3
# UVM_INFO ../src/env/axi4_scoreboard.sv(219) @ 675000: uvm_test_top.env.scb [axi4_scoreboard] [REF_MEM_WRITE] Addr=0x426c4be6 Data=0x3b
# UVM_INFO ../src/env/axi4_scoreboard.sv(219) @ 675000: uvm_test_top.env.scb [axi4_scoreboard] [REF_MEM_WRITE] Addr=0x426c4be7 Data=0xe2
# UVM_INFO ../src/env/axi4_scoreboard.sv(219) @ 675000: uvm_test_top.env.scb [axi4_scoreboard] [REF_MEM_WRITE] Addr=0x426c4be4 Data=0x58
# UVM_INFO ../src/env/axi4_scoreboard.sv(219) @ 675000: uvm_test_top.env.scb [axi4_scoreboard] [REF_MEM_WRITE] Addr=0x426c4be5 Data=0x06
# UVM_INFO ../src/env/axi4_scoreboard.sv(219) @ 675000: uvm_test_top.env.scb [axi4_scoreboard] [REF_MEM_WRITE] Addr=0x426c4be5 Data=0x77
# UVM_INFO ../src/env/axi4_scoreboard.sv(219) @ 675000: uvm_test_top.env.scb [axi4_scoreboard] [REF_MEM_WRITE] Addr=0x426c4be6 Data=0xc4
# UVM_INFO ../src/env/axi4_scoreboard.sv(219) @ 675000: uvm_test_top.env.scb [axi4_scoreboard] [REF_MEM_WRITE] Addr=0x426c4be7 Data=0xc2
# UVM_INFO ../src/slv/axi4_slave_driver.sv(358) @ 685000: uvm_test_top.env.slave_agent.drv [axi4_slave_driver] AR received: ID=0xa ADDR=0x62e47d84 LEN=3 LOCK=AXI4_LOCK_EXCLUSIVE
# UVM_INFO ../src/mst/axi4_master_monitor.sv(246) @ 685000: uvm_test_top.env.master_agent.mon [axi4_master_monitor] AR observed: ID=0xa ADDR=0x62e47d84 LEN=3
# UVM_INFO ../src/slv/axi4_slave_monitor.sv(224) @ 685000: uvm_test_top.env.slave_agent.mon [axi4_slave_monitor] AR received: ID=0xa ADDR=0x62e47d84 LEN=3
# UVM_INFO ../src/slv/axi4_slave_driver.sv(358) @ 715000: uvm_test_top.env.slave_agent.drv [axi4_slave_driver] AR received: ID=0x0 ADDR=0xb40c5560 LEN=3 LOCK=AXI4_LOCK_EXCLUSIVE
# UVM_INFO ../src/slv/axi4_slave_monitor.sv(224) @ 715000: uvm_test_top.env.slave_agent.mon [axi4_slave_monitor] AR received: ID=0x0 ADDR=0xb40c5560 LEN=3
# UVM_INFO ../src/mst/axi4_master_monitor.sv(246) @ 715000: uvm_test_top.env.master_agent.mon [axi4_master_monitor] AR observed: ID=0x0 ADDR=0xb40c5560 LEN=3
# UVM_INFO ../src/mst/axi4_master_driver.sv(348) @ 725000: uvm_test_top.env.master_agent.drv [axi4_master_driver] Master driver received all R beats for ID=0x4
# UVM_INFO ../src/slv/axi4_slave_driver.sv(464) @ 725000: uvm_test_top.env.slave_agent.drv [axi4_slave_driver] Read complete: ID=0x4 ADDR=0x3271e7c7 RESP=AXI4_RESP_OKAY  4 beats sent
# UVM_INFO ../src/mst/axi4_master_monitor.sv(314) @ 725000: uvm_test_top.env.master_agent.mon [axi4_master_monitor] Read complete: ID=0x4 ADDR=0x3271e7c7 4 beats
# UVM_INFO ../src/env/axi4_scoreboard.sv(87) @ 725000: uvm_test_top.env.scb [axi4_scoreboard] Master AXI4_READ received: ID=0x4 ADDR=0x3271e7c7 LEN=3
# UVM_INFO ../src/slv/axi4_slave_monitor.sv(287) @ 725000: uvm_test_top.env.slave_agent.mon [axi4_slave_monitor] Read data sent: ID=0x4 ADDR=0x3271e7c7 4 beats
# UVM_INFO ../src/env/axi4_scoreboard.sv(108) @ 725000: uvm_test_top.env.scb [axi4_scoreboard] Slave AXI4_READ received: ID=0x4 ADDR=0x3271e7c7 LEN=3
# UVM_INFO ../src/env/axi4_scoreboard.sv(291) @ 725000: uvm_test_top.env.scb [axi4_scoreboard] [READ] MATCH #19: ID=0x4 ADDR=0x3271e7c7 LEN=3
# UVM_INFO ../src/slv/axi4_slave_driver.sv(358) @ 745000: uvm_test_top.env.slave_agent.drv [axi4_slave_driver] AR received: ID=0xc ADDR=0x6480eb66 LEN=7 LOCK=AXI4_LOCK_NORMAL
# UVM_INFO ../src/mst/axi4_master_monitor.sv(246) @ 745000: uvm_test_top.env.master_agent.mon [axi4_master_monitor] AR observed: ID=0xc ADDR=0x6480eb66 LEN=7
# UVM_INFO ../src/slv/axi4_slave_monitor.sv(224) @ 745000: uvm_test_top.env.slave_agent.mon [axi4_slave_monitor] AR received: ID=0xc ADDR=0x6480eb66 LEN=7
# UVM_INFO ../src/slv/axi4_slave_driver.sv(358) @ 775000: uvm_test_top.env.slave_agent.drv [axi4_slave_driver] AR received: ID=0xc ADDR=0x5fba1e74 LEN=7 LOCK=AXI4_LOCK_NORMAL
# UVM_INFO ../src/slv/axi4_slave_monitor.sv(224) @ 775000: uvm_test_top.env.slave_agent.mon [axi4_slave_monitor] AR received: ID=0xc ADDR=0x5fba1e74 LEN=7
# UVM_INFO ../src/mst/axi4_master_monitor.sv(246) @ 775000: uvm_test_top.env.master_agent.mon [axi4_master_monitor] AR observed: ID=0xc ADDR=0x5fba1e74 LEN=7
# UVM_INFO ../src/slv/axi4_slave_driver.sv(358) @ 805000: uvm_test_top.env.slave_agent.drv [axi4_slave_driver] AR received: ID=0x9 ADDR=0x2fd8ee9c LEN=7 LOCK=AXI4_LOCK_EXCLUSIVE
# UVM_INFO ../src/mst/axi4_master_monitor.sv(246) @ 805000: uvm_test_top.env.master_agent.mon [axi4_master_monitor] AR observed: ID=0x9 ADDR=0x2fd8ee9c LEN=7
# UVM_INFO ../src/slv/axi4_slave_monitor.sv(224) @ 805000: uvm_test_top.env.slave_agent.mon [axi4_slave_monitor] AR received: ID=0x9 ADDR=0x2fd8ee9c LEN=7
# UVM_INFO ../src/mst/axi4_master_monitor.sv(184) @ 805000: uvm_test_top.env.master_agent.mon [axi4_master_monitor] W data assembled: ID=0xb ADDR=0x55ceaa95 8 beats
# UVM_INFO ../src/slv/axi4_slave_monitor.sv(167) @ 805000: uvm_test_top.env.slave_agent.mon [axi4_slave_monitor] W data assembled: ID=0xb ADDR=0x55ceaa95 8 beats
# UVM_INFO ../src/mst/axi4_master_driver.sv(289) @ 835000: uvm_test_top.env.master_agent.drv [axi4_master_driver] Master driver received B response: ID=0xb RESP=AXI4_RESP_OKAY
# UVM_INFO ../src/slv/axi4_slave_driver.sv(358) @ 835000: uvm_test_top.env.slave_agent.drv [axi4_slave_driver] AR received: ID=0x8 ADDR=0x7d89ba72 LEN=15 LOCK=AXI4_LOCK_NORMAL
# UVM_INFO ../src/slv/axi4_slave_driver.sv(320) @ 835000: uvm_test_top.env.slave_agent.drv [axi4_slave_driver] Write complete: ID=0xb RESP=AXI4_RESP_OKAY
# UVM_INFO ../src/slv/axi4_slave_monitor.sv(224) @ 835000: uvm_test_top.env.slave_agent.mon [axi4_slave_monitor] AR received: ID=0x8 ADDR=0x7d89ba72 LEN=15
# UVM_INFO ../src/slv/axi4_slave_monitor.sv(189) @ 835000: uvm_test_top.env.slave_agent.mon [axi4_slave_monitor] Write response sent: ID=0xb ADDR=0x55ceaa95 RESP=AXI4_RESP_OKAY
# UVM_INFO ../src/env/axi4_scoreboard.sv(108) @ 835000: uvm_test_top.env.scb [axi4_scoreboard] Slave AXI4_WRITE received: ID=0xb ADDR=0x55ceaa95 LEN=7
# UVM_INFO ../src/mst/axi4_master_monitor.sv(246) @ 835000: uvm_test_top.env.master_agent.mon [axi4_master_monitor] AR observed: ID=0x8 ADDR=0x7d89ba72 LEN=15
# UVM_INFO ../src/mst/axi4_master_monitor.sv(210) @ 835000: uvm_test_top.env.master_agent.mon [axi4_master_monitor] Write complete: ID=0xb ADDR=0x55ceaa95 RESP=AXI4_RESP_OKAY
# UVM_INFO ../src/env/axi4_scoreboard.sv(87) @ 835000: uvm_test_top.env.scb [axi4_scoreboard] Master AXI4_WRITE received: ID=0xb ADDR=0x55ceaa95 LEN=7
# UVM_INFO ../src/env/axi4_scoreboard.sv(291) @ 835000: uvm_test_top.env.scb [axi4_scoreboard] [WRITE] MATCH #20: ID=0xb ADDR=0x55ceaa95 LEN=7
# UVM_INFO ../src/env/axi4_scoreboard.sv(219) @ 835000: uvm_test_top.env.scb [axi4_scoreboard] [REF_MEM_WRITE] Addr=0x55ceaa94 Data=0x24
# UVM_INFO ../src/env/axi4_scoreboard.sv(219) @ 835000: uvm_test_top.env.scb [axi4_scoreboard] [REF_MEM_WRITE] Addr=0x55ceaa95 Data=0xa2
# UVM_INFO ../src/env/axi4_scoreboard.sv(219) @ 835000: uvm_test_top.env.scb [axi4_scoreboard] [REF_MEM_WRITE] Addr=0x55ceaa94 Data=0xd1
# UVM_INFO ../src/env/axi4_scoreboard.sv(219) @ 835000: uvm_test_top.env.scb [axi4_scoreboard] [REF_MEM_WRITE] Addr=0x55ceaa95 Data=0x89
# UVM_INFO ../src/env/axi4_scoreboard.sv(219) @ 835000: uvm_test_top.env.scb [axi4_scoreboard] [REF_MEM_WRITE] Addr=0x55ceaa96 Data=0x8d
# UVM_INFO ../src/env/axi4_scoreboard.sv(219) @ 835000: uvm_test_top.env.scb [axi4_scoreboard] [REF_MEM_WRITE] Addr=0x55ceaa94 Data=0xeb
# UVM_INFO ../src/env/axi4_scoreboard.sv(219) @ 835000: uvm_test_top.env.scb [axi4_scoreboard] [REF_MEM_WRITE] Addr=0x55ceaa97 Data=0x9a
# UVM_INFO ../src/env/axi4_scoreboard.sv(219) @ 835000: uvm_test_top.env.scb [axi4_scoreboard] [REF_MEM_WRITE] Addr=0x55ceaa97 Data=0xcb
# UVM_INFO ../src/env/axi4_scoreboard.sv(219) @ 835000: uvm_test_top.env.scb [axi4_scoreboard] [REF_MEM_WRITE] Addr=0x55ceaa94 Data=0xb1
# UVM_INFO ../src/env/axi4_scoreboard.sv(219) @ 835000: uvm_test_top.env.scb [axi4_scoreboard] [REF_MEM_WRITE] Addr=0x55ceaa95 Data=0x99
# UVM_INFO ../src/env/axi4_scoreboard.sv(219) @ 835000: uvm_test_top.env.scb [axi4_scoreboard] [REF_MEM_WRITE] Addr=0x55ceaa96 Data=0x43
# UVM_INFO ../src/env/axi4_scoreboard.sv(219) @ 835000: uvm_test_top.env.scb [axi4_scoreboard] [REF_MEM_WRITE] Addr=0x55ceaa97 Data=0xc2
# UVM_INFO ../src/env/axi4_scoreboard.sv(219) @ 835000: uvm_test_top.env.scb [axi4_scoreboard] [REF_MEM_WRITE] Addr=0x55ceaa95 Data=0x7a
# UVM_INFO ../src/env/axi4_scoreboard.sv(219) @ 835000: uvm_test_top.env.scb [axi4_scoreboard] [REF_MEM_WRITE] Addr=0x55ceaa96 Data=0xd7
# UVM_INFO ../src/env/axi4_scoreboard.sv(219) @ 835000: uvm_test_top.env.scb [axi4_scoreboard] [REF_MEM_WRITE] Addr=0x55ceaa95 Data=0x60
# UVM_INFO ../src/env/axi4_scoreboard.sv(219) @ 835000: uvm_test_top.env.scb [axi4_scoreboard] [REF_MEM_WRITE] Addr=0x55ceaa97 Data=0x05
# UVM_INFO ../src/slv/axi4_slave_driver.sv(358) @ 865000: uvm_test_top.env.slave_agent.drv [axi4_slave_driver] AR received: ID=0xd ADDR=0x44334846 LEN=15 LOCK=AXI4_LOCK_NORMAL
# UVM_INFO ../src/mst/axi4_master_monitor.sv(246) @ 865000: uvm_test_top.env.master_agent.mon [axi4_master_monitor] AR observed: ID=0xd ADDR=0x44334846 LEN=15
# UVM_INFO ../src/slv/axi4_slave_monitor.sv(224) @ 865000: uvm_test_top.env.slave_agent.mon [axi4_slave_monitor] AR received: ID=0xd ADDR=0x44334846 LEN=15
# UVM_INFO ../src/mst/axi4_master_driver.sv(348) @ 885000: uvm_test_top.env.master_agent.drv [axi4_master_driver] Master driver received all R beats for ID=0x2
# UVM_INFO ../src/slv/axi4_slave_driver.sv(464) @ 885000: uvm_test_top.env.slave_agent.drv [axi4_slave_driver] Read complete: ID=0x2 ADDR=0x26e159aa RESP=AXI4_RESP_EXOKAY  8 beats sent
# UVM_INFO ../src/mst/axi4_master_monitor.sv(314) @ 885000: uvm_test_top.env.master_agent.mon [axi4_master_monitor] Read complete: ID=0x2 ADDR=0x26e159aa 8 beats
# UVM_INFO ../src/env/axi4_scoreboard.sv(87) @ 885000: uvm_test_top.env.scb [axi4_scoreboard] Master AXI4_READ received: ID=0x2 ADDR=0x26e159aa LEN=7
# UVM_INFO ../src/slv/axi4_slave_monitor.sv(287) @ 885000: uvm_test_top.env.slave_agent.mon [axi4_slave_monitor] Read data sent: ID=0x2 ADDR=0x26e159aa 8 beats
# UVM_INFO ../src/env/axi4_scoreboard.sv(108) @ 885000: uvm_test_top.env.scb [axi4_scoreboard] Slave AXI4_READ received: ID=0x2 ADDR=0x26e159aa LEN=7
# UVM_INFO ../src/env/axi4_scoreboard.sv(291) @ 885000: uvm_test_top.env.scb [axi4_scoreboard] [READ] MATCH #21: ID=0x2 ADDR=0x26e159aa LEN=7
# UVM_INFO ../src/slv/axi4_slave_driver.sv(358) @ 895000: uvm_test_top.env.slave_agent.drv [axi4_slave_driver] AR received: ID=0xe ADDR=0xa07ddb8c LEN=15 LOCK=AXI4_LOCK_NORMAL
# UVM_INFO ../src/slv/axi4_slave_monitor.sv(224) @ 895000: uvm_test_top.env.slave_agent.mon [axi4_slave_monitor] AR received: ID=0xe ADDR=0xa07ddb8c LEN=15
# UVM_INFO ../src/mst/axi4_master_monitor.sv(246) @ 895000: uvm_test_top.env.master_agent.mon [axi4_master_monitor] AR observed: ID=0xe ADDR=0xa07ddb8c LEN=15
# UVM_INFO ../src/slv/axi4_slave_driver.sv(358) @ 925000: uvm_test_top.env.slave_agent.drv [axi4_slave_driver] AR received: ID=0x3 ADDR=0xb830c8fd LEN=0 LOCK=AXI4_LOCK_EXCLUSIVE
# UVM_INFO ../src/mst/axi4_master_monitor.sv(246) @ 925000: uvm_test_top.env.master_agent.mon [axi4_master_monitor] AR observed: ID=0x3 ADDR=0xb830c8fd LEN=0
# UVM_INFO ../src/slv/axi4_slave_monitor.sv(224) @ 925000: uvm_test_top.env.slave_agent.mon [axi4_slave_monitor] AR received: ID=0x3 ADDR=0xb830c8fd LEN=0
# UVM_INFO ../src/slv/axi4_slave_driver.sv(358) @ 955000: uvm_test_top.env.slave_agent.drv [axi4_slave_driver] AR received: ID=0xa ADDR=0xc4482609 LEN=0 LOCK=AXI4_LOCK_NORMAL
# UVM_INFO ../src/slv/axi4_slave_monitor.sv(224) @ 955000: uvm_test_top.env.slave_agent.mon [axi4_slave_monitor] AR received: ID=0xa ADDR=0xc4482609 LEN=0
# UVM_INFO ../src/mst/axi4_master_monitor.sv(246) @ 955000: uvm_test_top.env.master_agent.mon [axi4_master_monitor] AR observed: ID=0xa ADDR=0xc4482609 LEN=0
# UVM_INFO ../src/mst/axi4_master_monitor.sv(184) @ 965000: uvm_test_top.env.master_agent.mon [axi4_master_monitor] W data assembled: ID=0x8 ADDR=0x275f5e8a 8 beats
# UVM_INFO ../src/slv/axi4_slave_monitor.sv(167) @ 965000: uvm_test_top.env.slave_agent.mon [axi4_slave_monitor] W data assembled: ID=0x8 ADDR=0x275f5e8a 8 beats
# UVM_INFO ../src/slv/axi4_slave_driver.sv(358) @ 985000: uvm_test_top.env.slave_agent.drv [axi4_slave_driver] AR received: ID=0x9 ADDR=0x6e79a4ed LEN=0 LOCK=AXI4_LOCK_EXCLUSIVE
# UVM_INFO ../src/mst/axi4_master_monitor.sv(246) @ 985000: uvm_test_top.env.master_agent.mon [axi4_master_monitor] AR observed: ID=0x9 ADDR=0x6e79a4ed LEN=0
# UVM_INFO ../src/slv/axi4_slave_monitor.sv(224) @ 985000: uvm_test_top.env.slave_agent.mon [axi4_slave_monitor] AR received: ID=0x9 ADDR=0x6e79a4ed LEN=0
# UVM_INFO ../src/mst/axi4_master_driver.sv(289) @ 995000: uvm_test_top.env.master_agent.drv [axi4_master_driver] Master driver received B response: ID=0x8 RESP=AXI4_RESP_OKAY
# UVM_INFO ../src/slv/axi4_slave_driver.sv(320) @ 995000: uvm_test_top.env.slave_agent.drv [axi4_slave_driver] Write complete: ID=0x8 RESP=AXI4_RESP_OKAY
# UVM_INFO ../src/slv/axi4_slave_monitor.sv(189) @ 995000: uvm_test_top.env.slave_agent.mon [axi4_slave_monitor] Write response sent: ID=0x8 ADDR=0x275f5e8a RESP=AXI4_RESP_OKAY
# UVM_INFO ../src/env/axi4_scoreboard.sv(108) @ 995000: uvm_test_top.env.scb [axi4_scoreboard] Slave AXI4_WRITE received: ID=0x8 ADDR=0x275f5e8a LEN=7
# UVM_INFO ../src/mst/axi4_master_monitor.sv(210) @ 995000: uvm_test_top.env.master_agent.mon [axi4_master_monitor] Write complete: ID=0x8 ADDR=0x275f5e8a RESP=AXI4_RESP_OKAY
# UVM_INFO ../src/env/axi4_scoreboard.sv(87) @ 995000: uvm_test_top.env.scb [axi4_scoreboard] Master AXI4_WRITE received: ID=0x8 ADDR=0x275f5e8a LEN=7
# UVM_INFO ../src/env/axi4_scoreboard.sv(291) @ 995000: uvm_test_top.env.scb [axi4_scoreboard] [WRITE] MATCH #22: ID=0x8 ADDR=0x275f5e8a LEN=7
# UVM_INFO ../src/env/axi4_scoreboard.sv(219) @ 995000: uvm_test_top.env.scb [axi4_scoreboard] [REF_MEM_WRITE] Addr=0x275f5e89 Data=0xbb
# UVM_INFO ../src/env/axi4_scoreboard.sv(219) @ 995000: uvm_test_top.env.scb [axi4_scoreboard] [REF_MEM_WRITE] Addr=0x275f5e8b Data=0x51
# UVM_INFO ../src/env/axi4_scoreboard.sv(219) @ 995000: uvm_test_top.env.scb [axi4_scoreboard] [REF_MEM_WRITE] Addr=0x275f5e89 Data=0x5d
# UVM_INFO ../src/env/axi4_scoreboard.sv(219) @ 995000: uvm_test_top.env.scb [axi4_scoreboard] [REF_MEM_WRITE] Addr=0x275f5e8a Data=0x41
# UVM_INFO ../src/env/axi4_scoreboard.sv(219) @ 995000: uvm_test_top.env.scb [axi4_scoreboard] [REF_MEM_WRITE] Addr=0x275f5e8b Data=0xb1
# UVM_INFO ../src/env/axi4_scoreboard.sv(219) @ 995000: uvm_test_top.env.scb [axi4_scoreboard] [REF_MEM_WRITE] Addr=0x275f5e88 Data=0x6b
# UVM_INFO ../src/env/axi4_scoreboard.sv(219) @ 995000: uvm_test_top.env.scb [axi4_scoreboard] [REF_MEM_WRITE] Addr=0x275f5e89 Data=0x1d
# UVM_INFO ../src/env/axi4_scoreboard.sv(219) @ 995000: uvm_test_top.env.scb [axi4_scoreboard] [REF_MEM_WRITE] Addr=0x275f5e8b Data=0xd8
# UVM_INFO ../src/env/axi4_scoreboard.sv(219) @ 995000: uvm_test_top.env.scb [axi4_scoreboard] [REF_MEM_WRITE] Addr=0x275f5e89 Data=0x47
# UVM_INFO ../src/env/axi4_scoreboard.sv(219) @ 995000: uvm_test_top.env.scb [axi4_scoreboard] [REF_MEM_WRITE] Addr=0x275f5e8a Data=0xea
# UVM_INFO ../src/env/axi4_scoreboard.sv(219) @ 995000: uvm_test_top.env.scb [axi4_scoreboard] [REF_MEM_WRITE] Addr=0x275f5e8b Data=0xd5
# UVM_INFO ../src/env/axi4_scoreboard.sv(219) @ 995000: uvm_test_top.env.scb [axi4_scoreboard] [REF_MEM_WRITE] Addr=0x275f5e88 Data=0x0c
# UVM_INFO ../src/env/axi4_scoreboard.sv(219) @ 995000: uvm_test_top.env.scb [axi4_scoreboard] [REF_MEM_WRITE] Addr=0x275f5e8a Data=0xb3
# UVM_INFO ../src/env/axi4_scoreboard.sv(219) @ 995000: uvm_test_top.env.scb [axi4_scoreboard] [REF_MEM_WRITE] Addr=0x275f5e8b Data=0xbc
# UVM_INFO ../src/env/axi4_scoreboard.sv(219) @ 995000: uvm_test_top.env.scb [axi4_scoreboard] [REF_MEM_WRITE] Addr=0x275f5e88 Data=0x2a
# UVM_INFO ../src/env/axi4_scoreboard.sv(219) @ 995000: uvm_test_top.env.scb [axi4_scoreboard] [REF_MEM_WRITE] Addr=0x275f5e88 Data=0x59
# UVM_INFO ../src/env/axi4_scoreboard.sv(219) @ 995000: uvm_test_top.env.scb [axi4_scoreboard] [REF_MEM_WRITE] Addr=0x275f5e8b Data=0x69
# UVM_INFO ../src/env/axi4_scoreboard.sv(219) @ 995000: uvm_test_top.env.scb [axi4_scoreboard] [REF_MEM_WRITE] Addr=0x275f5e89 Data=0x24
# UVM_INFO ../src/env/axi4_scoreboard.sv(219) @ 995000: uvm_test_top.env.scb [axi4_scoreboard] [REF_MEM_WRITE] Addr=0x275f5e8a Data=0x12
# UVM_INFO ../src/slv/axi4_slave_driver.sv(358) @ 1015000: uvm_test_top.env.slave_agent.drv [axi4_slave_driver] AR received: ID=0x3 ADDR=0x22dca07d LEN=2 LOCK=AXI4_LOCK_NORMAL
# UVM_INFO ../src/slv/axi4_slave_monitor.sv(224) @ 1015000: uvm_test_top.env.slave_agent.mon [axi4_slave_monitor] AR received: ID=0x3 ADDR=0x22dca07d LEN=2
# UVM_INFO ../src/mst/axi4_master_monitor.sv(246) @ 1015000: uvm_test_top.env.master_agent.mon [axi4_master_monitor] AR observed: ID=0x3 ADDR=0x22dca07d LEN=2
# UVM_INFO ../src/mst/axi4_master_driver.sv(348) @ 1045000: uvm_test_top.env.master_agent.drv [axi4_master_driver] Master driver received all R beats for ID=0x8
# UVM_INFO ../src/slv/axi4_slave_driver.sv(358) @ 1045000: uvm_test_top.env.slave_agent.drv [axi4_slave_driver] AR received: ID=0x3 ADDR=0x4dc23113 LEN=2 LOCK=AXI4_LOCK_EXCLUSIVE
# UVM_INFO ../src/slv/axi4_slave_driver.sv(464) @ 1045000: uvm_test_top.env.slave_agent.drv [axi4_slave_driver] Read complete: ID=0x8 ADDR=0x65322fd4 RESP=AXI4_RESP_EXOKAY  8 beats sent
# UVM_INFO ../src/mst/axi4_master_monitor.sv(246) @ 1045000: uvm_test_top.env.master_agent.mon [axi4_master_monitor] AR observed: ID=0x3 ADDR=0x4dc23113 LEN=2
# UVM_INFO ../src/mst/axi4_master_monitor.sv(314) @ 1045000: uvm_test_top.env.master_agent.mon [axi4_master_monitor] Read complete: ID=0x8 ADDR=0x65322fd4 8 beats
# UVM_INFO ../src/env/axi4_scoreboard.sv(87) @ 1045000: uvm_test_top.env.scb [axi4_scoreboard] Master AXI4_READ received: ID=0x8 ADDR=0x65322fd4 LEN=7
# UVM_INFO ../src/slv/axi4_slave_monitor.sv(224) @ 1045000: uvm_test_top.env.slave_agent.mon [axi4_slave_monitor] AR received: ID=0x3 ADDR=0x4dc23113 LEN=2
# UVM_INFO ../src/slv/axi4_slave_monitor.sv(287) @ 1045000: uvm_test_top.env.slave_agent.mon [axi4_slave_monitor] Read data sent: ID=0x8 ADDR=0x65322fd4 8 beats
# UVM_INFO ../src/env/axi4_scoreboard.sv(108) @ 1045000: uvm_test_top.env.scb [axi4_scoreboard] Slave AXI4_READ received: ID=0x8 ADDR=0x65322fd4 LEN=7
# UVM_INFO ../src/env/axi4_scoreboard.sv(291) @ 1045000: uvm_test_top.env.scb [axi4_scoreboard] [READ] MATCH #23: ID=0x8 ADDR=0x65322fd4 LEN=7
# UVM_INFO ../src/slv/axi4_slave_driver.sv(358) @ 1075000: uvm_test_top.env.slave_agent.drv [axi4_slave_driver] AR received: ID=0xc ADDR=0x945de240 LEN=2 LOCK=AXI4_LOCK_EXCLUSIVE
# UVM_INFO ../src/slv/axi4_slave_monitor.sv(224) @ 1075000: uvm_test_top.env.slave_agent.mon [axi4_slave_monitor] AR received: ID=0xc ADDR=0x945de240 LEN=2
# UVM_INFO ../src/mst/axi4_master_monitor.sv(246) @ 1075000: uvm_test_top.env.master_agent.mon [axi4_master_monitor] AR observed: ID=0xc ADDR=0x945de240 LEN=2
# UVM_INFO ../src/test/axi4_burst_sweep_test.sv(32) @ 1095000: uvm_test_top [axi4_burst_sweep_test] Burst sweep test complete
# UVM_INFO ../src/slv/axi4_slave_driver.sv(358) @ 1105000: uvm_test_top.env.slave_agent.drv [axi4_slave_driver] AR received: ID=0xb ADDR=0xb1d08145 LEN=10 LOCK=AXI4_LOCK_NORMAL
# UVM_INFO ../src/mst/axi4_master_monitor.sv(246) @ 1105000: uvm_test_top.env.master_agent.mon [axi4_master_monitor] AR observed: ID=0xb ADDR=0xb1d08145 LEN=10
# UVM_INFO ../src/slv/axi4_slave_monitor.sv(224) @ 1105000: uvm_test_top.env.slave_agent.mon [axi4_slave_monitor] AR received: ID=0xb ADDR=0xb1d08145 LEN=10
# UVM_INFO ../src/mst/axi4_master_monitor.sv(184) @ 1125000: uvm_test_top.env.master_agent.mon [axi4_master_monitor] W data assembled: ID=0xf ADDR=0xc045e001 8 beats
# UVM_INFO ../src/slv/axi4_slave_monitor.sv(167) @ 1125000: uvm_test_top.env.slave_agent.mon [axi4_slave_monitor] W data assembled: ID=0xf ADDR=0xc045e001 8 beats
# UVM_INFO ../src/slv/axi4_slave_driver.sv(358) @ 1135000: uvm_test_top.env.slave_agent.drv [axi4_slave_driver] AR received: ID=0x5 ADDR=0x83a538d0 LEN=10 LOCK=AXI4_LOCK_NORMAL
# UVM_INFO ../src/slv/axi4_slave_monitor.sv(224) @ 1135000: uvm_test_top.env.slave_agent.mon [axi4_slave_monitor] AR received: ID=0x5 ADDR=0x83a538d0 LEN=10
# UVM_INFO ../src/mst/axi4_master_monitor.sv(246) @ 1135000: uvm_test_top.env.master_agent.mon [axi4_master_monitor] AR observed: ID=0x5 ADDR=0x83a538d0 LEN=10
# UVM_INFO ../src/mst/axi4_master_driver.sv(289) @ 1155000: uvm_test_top.env.master_agent.drv [axi4_master_driver] Master driver received B response: ID=0xf RESP=AXI4_RESP_OKAY
# UVM_INFO ../src/slv/axi4_slave_driver.sv(320) @ 1155000: uvm_test_top.env.slave_agent.drv [axi4_slave_driver] Write complete: ID=0xf RESP=AXI4_RESP_OKAY
# UVM_INFO ../src/slv/axi4_slave_monitor.sv(189) @ 1155000: uvm_test_top.env.slave_agent.mon [axi4_slave_monitor] Write response sent: ID=0xf ADDR=0xc045e001 RESP=AXI4_RESP_OKAY
# UVM_INFO ../src/env/axi4_scoreboard.sv(108) @ 1155000: uvm_test_top.env.scb [axi4_scoreboard] Slave AXI4_WRITE received: ID=0xf ADDR=0xc045e001 LEN=7
# UVM_INFO ../src/mst/axi4_master_monitor.sv(210) @ 1155000: uvm_test_top.env.master_agent.mon [axi4_master_monitor] Write complete: ID=0xf ADDR=0xc045e001 RESP=AXI4_RESP_OKAY
# UVM_INFO ../src/env/axi4_scoreboard.sv(87) @ 1155000: uvm_test_top.env.scb [axi4_scoreboard] Master AXI4_WRITE received: ID=0xf ADDR=0xc045e001 LEN=7
# UVM_INFO ../src/env/axi4_scoreboard.sv(291) @ 1155000: uvm_test_top.env.scb [axi4_scoreboard] [WRITE] MATCH #24: ID=0xf ADDR=0xc045e001 LEN=7
# UVM_INFO ../src/env/axi4_scoreboard.sv(226) @ 1155000: uvm_test_top.env.scb [axi4_scoreboard] [REF_MEM_WRITE_IGNORED] Write ignored for ADDR=0xc045e001 LOCK=AXI4_LOCK_EXCLUSIVE RESP=AXI4_RESP_OKAY
# UVM_INFO ../src/slv/axi4_slave_driver.sv(358) @ 1165000: uvm_test_top.env.slave_agent.drv [axi4_slave_driver] AR received: ID=0xa ADDR=0x25af777a LEN=10 LOCK=AXI4_LOCK_EXCLUSIVE
# UVM_INFO ../src/mst/axi4_master_monitor.sv(246) @ 1165000: uvm_test_top.env.master_agent.mon [axi4_master_monitor] AR observed: ID=0xa ADDR=0x25af777a LEN=10
# UVM_INFO ../src/slv/axi4_slave_monitor.sv(224) @ 1165000: uvm_test_top.env.slave_agent.mon [axi4_slave_monitor] AR received: ID=0xa ADDR=0x25af777a LEN=10
# UVM_INFO ../src/slv/axi4_slave_driver.sv(212) @ 1185000: uvm_test_top.env.slave_agent.drv [axi4_slave_driver] AW received: ID=0x1 ADDR=0x40a6a7e5 LEN=15 LOCK=AXI4_LOCK_NORMAL
# UVM_INFO ../src/mst/axi4_master_monitor.sv(124) @ 1185000: uvm_test_top.env.master_agent.mon [axi4_master_monitor] AW observed: ID=0x1 ADDR=0x40a6a7e5 LEN=15
# UVM_INFO ../src/slv/axi4_slave_monitor.sv(116) @ 1185000: uvm_test_top.env.slave_agent.mon [axi4_slave_monitor] AW received: ID=0x1 ADDR=0x40a6a7e5 LEN=15
# UVM_INFO ../src/slv/axi4_slave_driver.sv(358) @ 1195000: uvm_test_top.env.slave_agent.drv [axi4_slave_driver] AR received: ID=0x1 ADDR=0x5501d944 LEN=32 LOCK=AXI4_LOCK_EXCLUSIVE
# UVM_INFO ../src/slv/axi4_slave_monitor.sv(224) @ 1195000: uvm_test_top.env.slave_agent.mon [axi4_slave_monitor] AR received: ID=0x1 ADDR=0x5501d944 LEN=32
# UVM_INFO ../src/mst/axi4_master_monitor.sv(246) @ 1195000: uvm_test_top.env.master_agent.mon [axi4_master_monitor] AR observed: ID=0x1 ADDR=0x5501d944 LEN=32
# UVM_INFO ../src/slv/axi4_slave_driver.sv(212) @ 1215000: uvm_test_top.env.slave_agent.drv [axi4_slave_driver] AW received: ID=0xc ADDR=0x165d4760 LEN=15 LOCK=AXI4_LOCK_NORMAL
# UVM_INFO ../src/slv/axi4_slave_monitor.sv(116) @ 1215000: uvm_test_top.env.slave_agent.mon [axi4_slave_monitor] AW received: ID=0xc ADDR=0x165d4760 LEN=15
# UVM_INFO ../src/mst/axi4_master_monitor.sv(124) @ 1215000: uvm_test_top.env.master_agent.mon [axi4_master_monitor] AW observed: ID=0xc ADDR=0x165d4760 LEN=15
# UVM_INFO ../src/slv/axi4_slave_driver.sv(358) @ 1225000: uvm_test_top.env.slave_agent.drv [axi4_slave_driver] AR received: ID=0xc ADDR=0xbc4f206c LEN=32 LOCK=AXI4_LOCK_NORMAL
# UVM_INFO ../src/mst/axi4_master_monitor.sv(246) @ 1225000: uvm_test_top.env.master_agent.mon [axi4_master_monitor] AR observed: ID=0xc ADDR=0xbc4f206c LEN=32
# UVM_INFO ../src/slv/axi4_slave_monitor.sv(224) @ 1225000: uvm_test_top.env.slave_agent.mon [axi4_slave_monitor] AR received: ID=0xc ADDR=0xbc4f206c LEN=32
# UVM_INFO ../src/slv/axi4_slave_driver.sv(212) @ 1245000: uvm_test_top.env.slave_agent.drv [axi4_slave_driver] AW received: ID=0xf ADDR=0x9940f13f LEN=15 LOCK=AXI4_LOCK_EXCLUSIVE
# UVM_INFO ../src/mst/axi4_master_monitor.sv(124) @ 1245000: uvm_test_top.env.master_agent.mon [axi4_master_monitor] AW observed: ID=0xf ADDR=0x9940f13f LEN=15
# UVM_INFO ../src/slv/axi4_slave_monitor.sv(116) @ 1245000: uvm_test_top.env.slave_agent.mon [axi4_slave_monitor] AW received: ID=0xf ADDR=0x9940f13f LEN=15
# UVM_INFO ../src/slv/axi4_slave_driver.sv(358) @ 1255000: uvm_test_top.env.slave_agent.drv [axi4_slave_driver] AR received: ID=0x3 ADDR=0x82c182cb LEN=32 LOCK=AXI4_LOCK_EXCLUSIVE
# UVM_INFO ../src/slv/axi4_slave_monitor.sv(224) @ 1255000: uvm_test_top.env.slave_agent.mon [axi4_slave_monitor] AR received: ID=0x3 ADDR=0x82c182cb LEN=32
# UVM_INFO ../src/mst/axi4_master_monitor.sv(246) @ 1255000: uvm_test_top.env.master_agent.mon [axi4_master_monitor] AR observed: ID=0x3 ADDR=0x82c182cb LEN=32
# UVM_INFO ../src/slv/axi4_slave_driver.sv(358) @ 1285000: uvm_test_top.env.slave_agent.drv [axi4_slave_driver] AR received: ID=0xa ADDR=0xa3ffaf75 LEN=100 LOCK=AXI4_LOCK_EXCLUSIVE
# UVM_INFO ../src/mst/axi4_master_monitor.sv(246) @ 1285000: uvm_test_top.env.master_agent.mon [axi4_master_monitor] AR observed: ID=0xa ADDR=0xa3ffaf75 LEN=100
# UVM_INFO ../src/slv/axi4_slave_monitor.sv(224) @ 1285000: uvm_test_top.env.slave_agent.mon [axi4_slave_monitor] AR received: ID=0xa ADDR=0xa3ffaf75 LEN=100
# UVM_INFO ../src/slv/axi4_slave_driver.sv(358) @ 1315000: uvm_test_top.env.slave_agent.drv [axi4_slave_driver] AR received: ID=0x0 ADDR=0xdd21c814 LEN=100 LOCK=AXI4_LOCK_NORMAL
# UVM_INFO ../src/slv/axi4_slave_monitor.sv(224) @ 1315000: uvm_test_top.env.slave_agent.mon [axi4_slave_monitor] AR received: ID=0x0 ADDR=0xdd21c814 LEN=100
# UVM_INFO ../src/mst/axi4_master_monitor.sv(246) @ 1315000: uvm_test_top.env.master_agent.mon [axi4_master_monitor] AR observed: ID=0x0 ADDR=0xdd21c814 LEN=100
# UVM_INFO ../src/slv/axi4_slave_driver.sv(358) @ 1345000: uvm_test_top.env.slave_agent.drv [axi4_slave_driver] AR received: ID=0xe ADDR=0xc01feca4 LEN=100 LOCK=AXI4_LOCK_NORMAL
# UVM_INFO ../src/mst/axi4_master_monitor.sv(246) @ 1345000: uvm_test_top.env.master_agent.mon [axi4_master_monitor] AR observed: ID=0xe ADDR=0xc01feca4 LEN=100
# UVM_INFO ../src/slv/axi4_slave_monitor.sv(224) @ 1345000: uvm_test_top.env.slave_agent.mon [axi4_slave_monitor] AR received: ID=0xe ADDR=0xc01feca4 LEN=100
# UVM_INFO ../src/mst/axi4_master_driver.sv(348) @ 1365000: uvm_test_top.env.master_agent.drv [axi4_master_driver] Master driver received all R beats for ID=0x3
# UVM_INFO ../src/slv/axi4_slave_driver.sv(464) @ 1365000: uvm_test_top.env.slave_agent.drv [axi4_slave_driver] Read complete: ID=0x3 ADDR=0x804fc423 RESP=AXI4_RESP_OKAY  16 beats sent
# UVM_INFO ../src/mst/axi4_master_monitor.sv(314) @ 1365000: uvm_test_top.env.master_agent.mon [axi4_master_monitor] Read complete: ID=0x3 ADDR=0x804fc423 16 beats
# UVM_INFO ../src/env/axi4_scoreboard.sv(87) @ 1365000: uvm_test_top.env.scb [axi4_scoreboard] Master AXI4_READ received: ID=0x3 ADDR=0x804fc423 LEN=15
# UVM_INFO ../src/slv/axi4_slave_monitor.sv(287) @ 1365000: uvm_test_top.env.slave_agent.mon [axi4_slave_monitor] Read data sent: ID=0x3 ADDR=0x804fc423 16 beats
# UVM_INFO ../src/env/axi4_scoreboard.sv(108) @ 1365000: uvm_test_top.env.scb [axi4_scoreboard] Slave AXI4_READ received: ID=0x3 ADDR=0x804fc423 LEN=15
# UVM_INFO ../src/env/axi4_scoreboard.sv(291) @ 1365000: uvm_test_top.env.scb [axi4_scoreboard] [READ] MATCH #25: ID=0x3 ADDR=0x804fc423 LEN=15
# UVM_INFO ../src/slv/axi4_slave_driver.sv(358) @ 1375000: uvm_test_top.env.slave_agent.drv [axi4_slave_driver] AR received: ID=0xa ADDR=0x6d7ec898 LEN=255 LOCK=AXI4_LOCK_EXCLUSIVE
# UVM_INFO ../src/slv/axi4_slave_monitor.sv(224) @ 1375000: uvm_test_top.env.slave_agent.mon [axi4_slave_monitor] AR received: ID=0xa ADDR=0x6d7ec898 LEN=255
# UVM_INFO ../src/mst/axi4_master_monitor.sv(246) @ 1375000: uvm_test_top.env.master_agent.mon [axi4_master_monitor] AR observed: ID=0xa ADDR=0x6d7ec898 LEN=255
# UVM_INFO ../src/slv/axi4_slave_driver.sv(358) @ 1405000: uvm_test_top.env.slave_agent.drv [axi4_slave_driver] AR received: ID=0xd ADDR=0x2887e033 LEN=255 LOCK=AXI4_LOCK_EXCLUSIVE
# UVM_INFO ../src/mst/axi4_master_monitor.sv(246) @ 1405000: uvm_test_top.env.master_agent.mon [axi4_master_monitor] AR observed: ID=0xd ADDR=0x2887e033 LEN=255
# UVM_INFO ../src/slv/axi4_slave_monitor.sv(224) @ 1405000: uvm_test_top.env.slave_agent.mon [axi4_slave_monitor] AR received: ID=0xd ADDR=0x2887e033 LEN=255
# UVM_INFO ../src/slv/axi4_slave_driver.sv(358) @ 1435000: uvm_test_top.env.slave_agent.drv [axi4_slave_driver] AR received: ID=0xe ADDR=0x029ef50c LEN=255 LOCK=AXI4_LOCK_EXCLUSIVE
# UVM_INFO ../src/slv/axi4_slave_monitor.sv(224) @ 1435000: uvm_test_top.env.slave_agent.mon [axi4_slave_monitor] AR received: ID=0xe ADDR=0x029ef50c LEN=255
# UVM_INFO ../src/mst/axi4_master_monitor.sv(246) @ 1435000: uvm_test_top.env.master_agent.mon [axi4_master_monitor] AR observed: ID=0xe ADDR=0x029ef50c LEN=255
# UVM_INFO ../src/mst/axi4_master_monitor.sv(184) @ 1445000: uvm_test_top.env.master_agent.mon [axi4_master_monitor] W data assembled: ID=0x1 ADDR=0x40a6a7e5 16 beats
# UVM_INFO ../src/slv/axi4_slave_monitor.sv(167) @ 1445000: uvm_test_top.env.slave_agent.mon [axi4_slave_monitor] W data assembled: ID=0x1 ADDR=0x40a6a7e5 16 beats
# UVM_INFO ../src/slv/axi4_slave_driver.sv(358) @ 1465000: uvm_test_top.env.slave_agent.drv [axi4_slave_driver] AR received: ID=0x1 ADDR=0xe0000000 LEN=0 LOCK=AXI4_LOCK_NORMAL
# UVM_INFO ../src/mst/axi4_master_monitor.sv(246) @ 1465000: uvm_test_top.env.master_agent.mon [axi4_master_monitor] AR observed: ID=0x1 ADDR=0xe0000000 LEN=0
# UVM_INFO ../src/slv/axi4_slave_monitor.sv(224) @ 1465000: uvm_test_top.env.slave_agent.mon [axi4_slave_monitor] AR received: ID=0x1 ADDR=0xe0000000 LEN=0
# UVM_INFO ../src/mst/axi4_master_driver.sv(289) @ 1475000: uvm_test_top.env.master_agent.drv [axi4_master_driver] Master driver received B response: ID=0x1 RESP=AXI4_RESP_OKAY
# UVM_INFO ../src/slv/axi4_slave_driver.sv(320) @ 1475000: uvm_test_top.env.slave_agent.drv [axi4_slave_driver] Write complete: ID=0x1 RESP=AXI4_RESP_OKAY
# UVM_INFO ../src/slv/axi4_slave_monitor.sv(189) @ 1475000: uvm_test_top.env.slave_agent.mon [axi4_slave_monitor] Write response sent: ID=0x1 ADDR=0x40a6a7e5 RESP=AXI4_RESP_OKAY
# UVM_INFO ../src/env/axi4_scoreboard.sv(108) @ 1475000: uvm_test_top.env.scb [axi4_scoreboard] Slave AXI4_WRITE received: ID=0x1 ADDR=0x40a6a7e5 LEN=15
# UVM_INFO ../src/mst/axi4_master_monitor.sv(210) @ 1475000: uvm_test_top.env.master_agent.mon [axi4_master_monitor] Write complete: ID=0x1 ADDR=0x40a6a7e5 RESP=AXI4_RESP_OKAY
# UVM_INFO ../src/env/axi4_scoreboard.sv(87) @ 1475000: uvm_test_top.env.scb [axi4_scoreboard] Master AXI4_WRITE received: ID=0x1 ADDR=0x40a6a7e5 LEN=15
# UVM_INFO ../src/env/axi4_scoreboard.sv(291) @ 1475000: uvm_test_top.env.scb [axi4_scoreboard] [WRITE] MATCH #26: ID=0x1 ADDR=0x40a6a7e5 LEN=15
# UVM_INFO ../src/env/axi4_scoreboard.sv(219) @ 1475000: uvm_test_top.env.scb [axi4_scoreboard] [REF_MEM_WRITE] Addr=0x40a6a7e6 Data=0xb3
# UVM_INFO ../src/env/axi4_scoreboard.sv(219) @ 1475000: uvm_test_top.env.scb [axi4_scoreboard] [REF_MEM_WRITE] Addr=0x40a6a7e5 Data=0x94
# UVM_INFO ../src/env/axi4_scoreboard.sv(219) @ 1475000: uvm_test_top.env.scb [axi4_scoreboard] [REF_MEM_WRITE] Addr=0x40a6a7e5 Data=0x67
# UVM_INFO ../src/env/axi4_scoreboard.sv(219) @ 1475000: uvm_test_top.env.scb [axi4_scoreboard] [REF_MEM_WRITE] Addr=0x40a6a7e6 Data=0xeb
# UVM_INFO ../src/env/axi4_scoreboard.sv(219) @ 1475000: uvm_test_top.env.scb [axi4_scoreboard] [REF_MEM_WRITE] Addr=0x40a6a7e4 Data=0x2b
# UVM_INFO ../src/env/axi4_scoreboard.sv(219) @ 1475000: uvm_test_top.env.scb [axi4_scoreboard] [REF_MEM_WRITE] Addr=0x40a6a7e5 Data=0x66
# UVM_INFO ../src/env/axi4_scoreboard.sv(219) @ 1475000: uvm_test_top.env.scb [axi4_scoreboard] [REF_MEM_WRITE] Addr=0x40a6a7e7 Data=0x8b
# UVM_INFO ../src/env/axi4_scoreboard.sv(219) @ 1475000: uvm_test_top.env.scb [axi4_scoreboard] [REF_MEM_WRITE] Addr=0x40a6a7e5 Data=0x70
# UVM_INFO ../src/env/axi4_scoreboard.sv(219) @ 1475000: uvm_test_top.env.scb [axi4_scoreboard] [REF_MEM_WRITE] Addr=0x40a6a7e4 Data=0x6e
# UVM_INFO ../src/env/axi4_scoreboard.sv(219) @ 1475000: uvm_test_top.env.scb [axi4_scoreboard] [REF_MEM_WRITE] Addr=0x40a6a7e6 Data=0x5b
# UVM_INFO ../src/env/axi4_scoreboard.sv(219) @ 1475000: uvm_test_top.env.scb [axi4_scoreboard] [REF_MEM_WRITE] Addr=0x40a6a7e7 Data=0xfa
# UVM_INFO ../src/env/axi4_scoreboard.sv(219) @ 1475000: uvm_test_top.env.scb [axi4_scoreboard] [REF_MEM_WRITE] Addr=0x40a6a7e4 Data=0x47
# UVM_INFO ../src/env/axi4_scoreboard.sv(219) @ 1475000: uvm_test_top.env.scb [axi4_scoreboard] [REF_MEM_WRITE] Addr=0x40a6a7e6 Data=0x95
# UVM_INFO ../src/env/axi4_scoreboard.sv(219) @ 1475000: uvm_test_top.env.scb [axi4_scoreboard] [REF_MEM_WRITE] Addr=0x40a6a7e7 Data=0x94
# UVM_INFO ../src/env/axi4_scoreboard.sv(219) @ 1475000: uvm_test_top.env.scb [axi4_scoreboard] [REF_MEM_WRITE] Addr=0x40a6a7e5 Data=0xe6
# UVM_INFO ../src/env/axi4_scoreboard.sv(219) @ 1475000: uvm_test_top.env.scb [axi4_scoreboard] [REF_MEM_WRITE] Addr=0x40a6a7e7 Data=0x10
# UVM_INFO ../src/env/axi4_scoreboard.sv(219) @ 1475000: uvm_test_top.env.scb [axi4_scoreboard] [REF_MEM_WRITE] Addr=0x40a6a7e4 Data=0xec
# UVM_INFO ../src/env/axi4_scoreboard.sv(219) @ 1475000: uvm_test_top.env.scb [axi4_scoreboard] [REF_MEM_WRITE] Addr=0x40a6a7e5 Data=0xb8
# UVM_INFO ../src/env/axi4_scoreboard.sv(219) @ 1475000: uvm_test_top.env.scb [axi4_scoreboard] [REF_MEM_WRITE] Addr=0x40a6a7e6 Data=0xda
# UVM_INFO ../src/env/axi4_scoreboard.sv(219) @ 1475000: uvm_test_top.env.scb [axi4_scoreboard] [REF_MEM_WRITE] Addr=0x40a6a7e7 Data=0x3e
# UVM_INFO ../src/env/axi4_scoreboard.sv(219) @ 1475000: uvm_test_top.env.scb [axi4_scoreboard] [REF_MEM_WRITE] Addr=0x40a6a7e6 Data=0x8c
# UVM_INFO ../src/env/axi4_scoreboard.sv(219) @ 1475000: uvm_test_top.env.scb [axi4_scoreboard] [REF_MEM_WRITE] Addr=0x40a6a7e7 Data=0x93
# UVM_INFO ../src/env/axi4_scoreboard.sv(219) @ 1475000: uvm_test_top.env.scb [axi4_scoreboard] [REF_MEM_WRITE] Addr=0x40a6a7e7 Data=0x06
# UVM_INFO ../src/env/axi4_scoreboard.sv(219) @ 1475000: uvm_test_top.env.scb [axi4_scoreboard] [REF_MEM_WRITE] Addr=0x40a6a7e4 Data=0xb4
# UVM_INFO ../src/env/axi4_scoreboard.sv(219) @ 1475000: uvm_test_top.env.scb [axi4_scoreboard] [REF_MEM_WRITE] Addr=0x40a6a7e6 Data=0xcc
# UVM_INFO ../src/env/axi4_scoreboard.sv(219) @ 1475000: uvm_test_top.env.scb [axi4_scoreboard] [REF_MEM_WRITE] Addr=0x40a6a7e4 Data=0x76
# UVM_INFO ../src/env/axi4_scoreboard.sv(219) @ 1475000: uvm_test_top.env.scb [axi4_scoreboard] [REF_MEM_WRITE] Addr=0x40a6a7e5 Data=0x4e
# UVM_INFO ../src/env/axi4_scoreboard.sv(219) @ 1475000: uvm_test_top.env.scb [axi4_scoreboard] [REF_MEM_WRITE] Addr=0x40a6a7e5 Data=0xd0
# UVM_INFO ../src/env/axi4_scoreboard.sv(219) @ 1475000: uvm_test_top.env.scb [axi4_scoreboard] [REF_MEM_WRITE] Addr=0x40a6a7e6 Data=0x8d
# UVM_INFO ../src/env/axi4_scoreboard.sv(219) @ 1475000: uvm_test_top.env.scb [axi4_scoreboard] [REF_MEM_WRITE] Addr=0x40a6a7e7 Data=0x3a
# UVM_INFO ../src/env/axi4_scoreboard.sv(219) @ 1475000: uvm_test_top.env.scb [axi4_scoreboard] [REF_MEM_WRITE] Addr=0x40a6a7e5 Data=0xd0
# UVM_INFO ../src/env/axi4_scoreboard.sv(219) @ 1475000: uvm_test_top.env.scb [axi4_scoreboard] [REF_MEM_WRITE] Addr=0x40a6a7e6 Data=0xbf
# UVM_INFO ../src/slv/axi4_slave_driver.sv(358) @ 1495000: uvm_test_top.env.slave_agent.drv [axi4_slave_driver] AR received: ID=0xb ADDR=0xf0000000 LEN=0 LOCK=AXI4_LOCK_EXCLUSIVE
# UVM_INFO ../src/slv/axi4_slave_monitor.sv(224) @ 1495000: uvm_test_top.env.slave_agent.mon [axi4_slave_monitor] AR received: ID=0xb ADDR=0xf0000000 LEN=0
# UVM_INFO ../src/mst/axi4_master_monitor.sv(246) @ 1495000: uvm_test_top.env.master_agent.mon [axi4_master_monitor] AR observed: ID=0xb ADDR=0xf0000000 LEN=0
# UVM_INFO ../src/mst/axi4_master_driver.sv(348) @ 1685000: uvm_test_top.env.master_agent.drv [axi4_master_driver] Master driver received all R beats for ID=0x7
# UVM_INFO ../src/slv/axi4_slave_driver.sv(464) @ 1685000: uvm_test_top.env.slave_agent.drv [axi4_slave_driver] Read complete: ID=0x7 ADDR=0xbb09f5ef RESP=AXI4_RESP_OKAY  16 beats sent
# UVM_INFO ../src/mst/axi4_master_monitor.sv(314) @ 1685000: uvm_test_top.env.master_agent.mon [axi4_master_monitor] Read complete: ID=0x7 ADDR=0xbb09f5ef 16 beats
