# vsim -c -coverage -sv_seed 9845529 "+UVM_TESTNAME=axi4_wr_rd_test" "+UVM_VERBOSITY=UVM_HIGH" "+DUMP_VCD" -l ./report/logs/axi4_wr_rd_test_run_3_seed_9845529.log -do "coverage save -onexit ./report/coverage/axi4_wr_rd_test_run_3_seed_9845529.ucdb; run -all; quit -f" opt_tb_top 
# Start time: 15:29:54 on Jun 04,2026
# //  Questa Sim-64
# //  Version 10.6b linux_x86_64 May 25 2017
# //
# //  Copyright 1991-2017 Mentor Graphics Corporation
# //  All Rights Reserved.
# //
# //  QuestaSim and its associated documentation contain trade
# //  secrets and commercial or financial information that are the property of
# //  Mentor Graphics Corporation and are privileged, confidential,
# //  and exempt from disclosure under the Freedom of Information Act,
# //  5 U.S.C. Section 552. Furthermore, this information
# //  is prohibited from disclosure under the Trade Secrets Act,
# //  18 U.S.C. Section 1905.
# //
# Loading sv_std.std
# Loading work.axi4_if(fast)
# Loading mtiUvm.uvm_pkg
# Loading work.axi4_pkg(fast)
# Loading work.axi4_test_pkg(fast)
# Loading work.tb_top(fast)
# Loading work.axi4_if(fast)
# Loading work.axi4_sva(fast)
# Loading mtiUvm.questa_uvm_pkg(fast)
# Loading /cadtools/mentor/Questa_10.6b/questasim/uvm-1.1d/linux_x86_64/uvm_dpi.so
# coverage save -onexit ./report/coverage/axi4_wr_rd_test_run_3_seed_9845529.ucdb
#  run -all
# ----------------------------------------------------------------
# UVM-1.1d
# (C) 2007-2013 Mentor Graphics Corporation
# (C) 2007-2013 Cadence Design Systems, Inc.
# (C) 2006-2013 Synopsys, Inc.
# (C) 2011-2013 Cypress Semiconductor Corp.
# ----------------------------------------------------------------
# 
#   ***********       IMPORTANT RELEASE NOTES         ************
# 
#   You are using a version of the UVM library that has been compiled
#   with `UVM_NO_DEPRECATED undefined.
#   See http://www.eda.org/svdb/view.php?id=3313 for more details.
# 
#   You are using a version of the UVM library that has been compiled
#   with `UVM_OBJECT_MUST_HAVE_CONSTRUCTOR undefined.
#   See http://www.eda.org/svdb/view.php?id=3770 for more details.
# 
#       (Specify +UVM_NO_RELNOTES to turn off this notice)
# 
# UVM_INFO verilog_src/questa_uvm_pkg-1.2/src/questa_uvm_pkg.sv(215) @ 0: reporter [Questa UVM] QUESTA_UVM-1.2.3
# UVM_INFO verilog_src/questa_uvm_pkg-1.2/src/questa_uvm_pkg.sv(217) @ 0: reporter [Questa UVM]  questa_uvm::init(+struct)
# UVM_INFO ../src/tb_top.sv(128) @ 0: reporter [TB_TOP] Virtual interface set in config_db
# UVM_INFO @ 0: reporter [RNTST] Running test axi4_wr_rd_test...
# UVM_INFO ../src/tb_top.sv(142) @ 0: reporter [TB_TOP] Waveform VCD dumping enabled (axi4_vip.vcd)
# UVM_INFO ../src/env/axi4_vip_env.sv(83) @ 0: uvm_test_top.env [axi4_vip_env] slave_vif not set - reusing master_vif (passthrough mode)
# UVM_INFO ../src/env/axi4_vip_env.sv(93) @ 0: uvm_test_top.env [axi4_vip_env] Scoreboard created
# UVM_INFO ../src/env/axi4_vip_env.sv(100) @ 0: uvm_test_top.env [axi4_vip_env] Coverage collectors created
# UVM_INFO ../src/mst/axi4_master_agent.sv(69) @ 0: uvm_test_top.env.master_agent [axi4_master_agent] ACTIVE mode - driver + sequencer created
# UVM_INFO ../src/slv/axi4_slave_agent.sv(82) @ 0: uvm_test_top.env.slave_agent [axi4_slave_agent] ACTIVE mode — ready_delay=[0:0] resp_delay=[0:0]
# UVM_INFO ../src/env/axi4_vip_env.sv(116) @ 0: uvm_test_top.env [axi4_vip_env] Scoreboard connected: master_mon.ap -> scb, slave_mon.ap -> scb
# UVM_INFO ../src/env/axi4_vip_env.sv(124) @ 0: uvm_test_top.env [axi4_vip_env] Coverage connected: master_mon.ap -> master_cov, slave_mon.ap -> slave_cov
# UVM_INFO @ 0: reporter [UVMTOP] UVM testbench topology:
# ---------------------------------------------------------------
# Name                       Type                     Size  Value
# ---------------------------------------------------------------
# uvm_test_top               axi4_wr_rd_test          -     @473 
#   env                      axi4_vip_env             -     @488 
#     master_agent           axi4_master_agent        -     @503 
#       drv                  axi4_master_driver       -     @567 
#         rsp_port           uvm_analysis_port        -     @582 
#         seq_item_port      uvm_seq_item_pull_port   -     @574 
#       mon                  axi4_master_monitor      -     @559 
#         ap                 uvm_analysis_port        -     @700 
#       sqr                  axi4_master_sequencer    -     @590 
#         rsp_export         uvm_analysis_export      -     @597 
#         seq_item_export    uvm_seq_item_pull_imp    -     @691 
#         arbitration_queue  array                    0     -    
#         lock_queue         array                    0     -    
#         num_last_reqs      integral                 32    'd1  
#         num_last_rsps      integral                 32    'd1  
#     master_cov             axi4_coverage            -     @524 
#       analysis_imp         uvm_analysis_imp         -     @531 
#     scb                    axi4_scoreboard          -     @517 
#       master_export        uvm_analysis_imp_master  -     @714 
#       slave_export         uvm_analysis_imp_slave   -     @722 
#     slave_agent            axi4_slave_agent         -     @510 
#       drv                  axi4_slave_driver        -     @753 
#         rsp_port           uvm_analysis_port        -     @768 
#         seq_item_port      uvm_seq_item_pull_port   -     @760 
#       mon                  axi4_slave_monitor       -     @735 
#         ap                 uvm_analysis_port        -     @890 
#       sqr                  axi4_slave_sequencer     -     @776 
#         rsp_export         uvm_analysis_export      -     @783 
#         seq_item_export    uvm_seq_item_pull_imp    -     @877 
#         arbitration_queue  array                    0     -    
#         lock_queue         array                    0     -    
#         num_last_reqs      integral                 32    'd1  
#         num_last_rsps      integral                 32    'd1  
#     slave_cov              axi4_coverage            -     @539 
#       analysis_imp         uvm_analysis_imp         -     @546 
# ---------------------------------------------------------------
# 
# UVM_INFO verilog_src/questa_uvm_pkg-1.2/src/questa_uvm_pkg.sv(277) @ 0: reporter [Questa UVM] End Of Elaboration
# UVM_INFO ../src/test/axi4_wr_rd_test.sv(37) @ 0: uvm_test_top [axi4_wr_rd_test] Starting 10 write-read-back iterations
# UVM_INFO ../src/test/axi4_wr_rd_test.sv(52) @ 0: uvm_test_top [axi4_wr_rd_test] [1/10] ADDR=0x8d19c5d7 LEN=12 BURST=AXI4_BURST_INCR
# UVM_INFO ../src/tb_top.sv(49) @ 95000: reporter [TOP_TB] Reset de-asserted
# UVM_INFO ../src/slv/axi4_slave_driver.sv(66) @ 95000: uvm_test_top.env.slave_agent.drv [axi4_slave_driver] Reset deasserted - slave driver active
# UVM_INFO ../src/mst/axi4_master_driver.sv(46) @ 95000: uvm_test_top.env.master_agent.drv [axi4_master_driver] Reset deasserted - master driver active
# UVM_INFO ../src/mst/axi4_master_monitor.sv(77) @ 95000: uvm_test_top.env.master_agent.mon [axi4_master_monitor] Reset deasserted — monitor active
# UVM_INFO ../src/slv/axi4_slave_monitor.sv(71) @ 95000: uvm_test_top.env.slave_agent.mon [axi4_slave_monitor] Reset deasserted — monitor active
# UVM_INFO ../src/mst/axi4_master_driver.sv(55) @ 95000: uvm_test_top.env.master_agent.drv [axi4_master_driver] Driving AXI4_WRITE  ID=0x2  ADDR=0x8d19c5d7  LEN=12
# UVM_INFO ../src/mst/axi4_master_driver.sv(106) @ 95000: uvm_test_top.env.master_agent.drv [axi4_master_driver] Write order: W -> AW (W first)
# UVM_INFO ../src/slv/axi4_slave_driver.sv(159) @ 135000: uvm_test_top.env.slave_agent.drv [axi4_slave_driver] AW received: ID=0x2 ADDR=0x8d19c5d7 LEN=12
# UVM_INFO ../src/slv/axi4_slave_monitor.sv(116) @ 135000: uvm_test_top.env.slave_agent.mon [axi4_slave_monitor] AW received: ID=0x2 ADDR=0x8d19c5d7 LEN=12
# UVM_INFO ../src/mst/axi4_master_monitor.sv(124) @ 135000: uvm_test_top.env.master_agent.mon [axi4_master_monitor] AW observed: ID=0x2 ADDR=0x8d19c5d7 LEN=12
# UVM_INFO ../src/mst/axi4_master_monitor.sv(184) @ 345000: uvm_test_top.env.master_agent.mon [axi4_master_monitor] W data assembled: ID=0x2 ADDR=0x8d19c5d7 13 beats
# UVM_INFO ../src/slv/axi4_slave_monitor.sv(167) @ 345000: uvm_test_top.env.slave_agent.mon [axi4_slave_monitor] W data assembled: ID=0x2 ADDR=0x8d19c5d7 13 beats
# UVM_INFO ../src/mst/axi4_master_driver.sv(197) @ 375000: uvm_test_top.env.master_agent.drv [axi4_master_driver] Write response: AXI4_RESP_OKAY
# UVM_INFO ../src/slv/axi4_slave_driver.sv(223) @ 375000: uvm_test_top.env.slave_agent.drv [axi4_slave_driver] Write complete: ID=0x2  13 beats stored
# UVM_INFO ../src/slv/axi4_slave_monitor.sv(189) @ 375000: uvm_test_top.env.slave_agent.mon [axi4_slave_monitor] Write response sent: ID=0x2 ADDR=0x8d19c5d7 RESP=AXI4_RESP_OKAY
# UVM_INFO ../src/env/axi4_scoreboard.sv(103) @ 375000: uvm_test_top.env.scb [axi4_scoreboard] Slave AXI4_WRITE received: ID=0x2 ADDR=0x8d19c5d7 LEN=12
# UVM_INFO ../src/mst/axi4_master_monitor.sv(210) @ 375000: uvm_test_top.env.master_agent.mon [axi4_master_monitor] Write complete: ID=0x2 ADDR=0x8d19c5d7 RESP=AXI4_RESP_OKAY
# UVM_INFO ../src/env/axi4_scoreboard.sv(82) @ 375000: uvm_test_top.env.scb [axi4_scoreboard] Master AXI4_WRITE received: ID=0x2 ADDR=0x8d19c5d7 LEN=12
# UVM_INFO ../src/env/axi4_scoreboard.sv(154) @ 375000: uvm_test_top.env.scb [axi4_scoreboard] [WRITE] MATCH #1: ID=0x2 ADDR=0x8d19c5d7 LEN=12
# UVM_INFO ../src/seq/axi4_write_read_back_seq.sv(60) @ 375000: uvm_test_top.env.master_agent.sqr@@wr_rd_seq_0 [axi4_write_read_back_seq] Write phase: ADDR=0x8d19c5d7 LEN=12 SIZE=AXI4_SIZE_4B BURST=AXI4_BURST_INCR
# UVM_INFO ../src/mst/axi4_master_driver.sv(55) @ 375000: uvm_test_top.env.master_agent.drv [axi4_master_driver] Driving AXI4_READ  ID=0x7  ADDR=0x8d19c5d7  LEN=12
# UVM_INFO ../src/slv/axi4_slave_driver.sv(259) @ 405000: uvm_test_top.env.slave_agent.drv [axi4_slave_driver] AR received: ID=0x7 ADDR=0x8d19c5d7 LEN=12
# UVM_INFO ../src/mst/axi4_master_monitor.sv(246) @ 405000: uvm_test_top.env.master_agent.mon [axi4_master_monitor] AR observed: ID=0x7 ADDR=0x8d19c5d7 LEN=12
# UVM_INFO ../src/slv/axi4_slave_monitor.sv(224) @ 405000: uvm_test_top.env.slave_agent.mon [axi4_slave_monitor] AR received: ID=0x7 ADDR=0x8d19c5d7 LEN=12
# UVM_INFO ../src/mst/axi4_master_driver.sv(254) @ 665000: uvm_test_top.env.master_agent.drv [axi4_master_driver] Read complete: 13 beats received
# UVM_INFO ../src/slv/axi4_slave_driver.sv(293) @ 665000: uvm_test_top.env.slave_agent.drv [axi4_slave_driver] Read complete: ID=0x7  13 beats sent
# UVM_INFO ../src/mst/axi4_master_monitor.sv(314) @ 665000: uvm_test_top.env.master_agent.mon [axi4_master_monitor] Read complete: ID=0x7 ADDR=0x8d19c5d7 13 beats
# UVM_INFO ../src/env/axi4_scoreboard.sv(82) @ 665000: uvm_test_top.env.scb [axi4_scoreboard] Master AXI4_READ received: ID=0x7 ADDR=0x8d19c5d7 LEN=12
# UVM_INFO ../src/slv/axi4_slave_monitor.sv(287) @ 665000: uvm_test_top.env.slave_agent.mon [axi4_slave_monitor] Read data sent: ID=0x7 ADDR=0x8d19c5d7 13 beats
# UVM_INFO ../src/env/axi4_scoreboard.sv(103) @ 665000: uvm_test_top.env.scb [axi4_scoreboard] Slave AXI4_READ received: ID=0x7 ADDR=0x8d19c5d7 LEN=12
# UVM_INFO ../src/env/axi4_scoreboard.sv(154) @ 665000: uvm_test_top.env.scb [axi4_scoreboard] [READ] MATCH #2: ID=0x7 ADDR=0x8d19c5d7 LEN=12
# UVM_INFO ../src/seq/axi4_write_read_back_seq.sv(80) @ 665000: uvm_test_top.env.master_agent.sqr@@wr_rd_seq_0 [axi4_write_read_back_seq] Read-back phase: ADDR=0x8d19c5d7 LEN=12 - data integrity check via scoreboard
# UVM_INFO ../src/test/axi4_wr_rd_test.sv(52) @ 665000: uvm_test_top [axi4_wr_rd_test] [2/10] ADDR=0x4474f23b LEN=15 BURST=AXI4_BURST_INCR
# UVM_INFO ../src/mst/axi4_master_driver.sv(55) @ 665000: uvm_test_top.env.master_agent.drv [axi4_master_driver] Driving AXI4_WRITE  ID=0x0  ADDR=0x4474f23b  LEN=15
# UVM_INFO ../src/mst/axi4_master_driver.sv(94) @ 665000: uvm_test_top.env.master_agent.drv [axi4_master_driver] Write order: AW || W (parallel)
# UVM_INFO ../src/slv/axi4_slave_driver.sv(159) @ 695000: uvm_test_top.env.slave_agent.drv [axi4_slave_driver] AW received: ID=0x0 ADDR=0x4474f23b LEN=15
# UVM_INFO ../src/slv/axi4_slave_monitor.sv(116) @ 695000: uvm_test_top.env.slave_agent.mon [axi4_slave_monitor] AW received: ID=0x0 ADDR=0x4474f23b LEN=15
# UVM_INFO ../src/mst/axi4_master_monitor.sv(124) @ 695000: uvm_test_top.env.master_agent.mon [axi4_master_monitor] AW observed: ID=0x0 ADDR=0x4474f23b LEN=15
# UVM_INFO ../src/mst/axi4_master_monitor.sv(184) @ 985000: uvm_test_top.env.master_agent.mon [axi4_master_monitor] W data assembled: ID=0x0 ADDR=0x4474f23b 16 beats
# UVM_INFO ../src/slv/axi4_slave_monitor.sv(167) @ 985000: uvm_test_top.env.slave_agent.mon [axi4_slave_monitor] W data assembled: ID=0x0 ADDR=0x4474f23b 16 beats
# UVM_INFO ../src/mst/axi4_master_driver.sv(197) @ 1015000: uvm_test_top.env.master_agent.drv [axi4_master_driver] Write response: AXI4_RESP_OKAY
# UVM_INFO ../src/slv/axi4_slave_driver.sv(223) @ 1015000: uvm_test_top.env.slave_agent.drv [axi4_slave_driver] Write complete: ID=0x0  16 beats stored
# UVM_INFO ../src/slv/axi4_slave_monitor.sv(189) @ 1015000: uvm_test_top.env.slave_agent.mon [axi4_slave_monitor] Write response sent: ID=0x0 ADDR=0x4474f23b RESP=AXI4_RESP_OKAY
# UVM_INFO ../src/env/axi4_scoreboard.sv(103) @ 1015000: uvm_test_top.env.scb [axi4_scoreboard] Slave AXI4_WRITE received: ID=0x0 ADDR=0x4474f23b LEN=15
# UVM_INFO ../src/mst/axi4_master_monitor.sv(210) @ 1015000: uvm_test_top.env.master_agent.mon [axi4_master_monitor] Write complete: ID=0x0 ADDR=0x4474f23b RESP=AXI4_RESP_OKAY
# UVM_INFO ../src/env/axi4_scoreboard.sv(82) @ 1015000: uvm_test_top.env.scb [axi4_scoreboard] Master AXI4_WRITE received: ID=0x0 ADDR=0x4474f23b LEN=15
# UVM_INFO ../src/env/axi4_scoreboard.sv(154) @ 1015000: uvm_test_top.env.scb [axi4_scoreboard] [WRITE] MATCH #3: ID=0x0 ADDR=0x4474f23b LEN=15
# UVM_INFO ../src/seq/axi4_write_read_back_seq.sv(60) @ 1015000: uvm_test_top.env.master_agent.sqr@@wr_rd_seq_1 [axi4_write_read_back_seq] Write phase: ADDR=0x4474f23b LEN=15 SIZE=AXI4_SIZE_4B BURST=AXI4_BURST_INCR
# UVM_INFO ../src/mst/axi4_master_driver.sv(55) @ 1015000: uvm_test_top.env.master_agent.drv [axi4_master_driver] Driving AXI4_READ  ID=0x8  ADDR=0x4474f23b  LEN=15
# UVM_INFO ../src/slv/axi4_slave_driver.sv(259) @ 1045000: uvm_test_top.env.slave_agent.drv [axi4_slave_driver] AR received: ID=0x8 ADDR=0x4474f23b LEN=15
# UVM_INFO ../src/mst/axi4_master_monitor.sv(246) @ 1045000: uvm_test_top.env.master_agent.mon [axi4_master_monitor] AR observed: ID=0x8 ADDR=0x4474f23b LEN=15
# UVM_INFO ../src/slv/axi4_slave_monitor.sv(224) @ 1045000: uvm_test_top.env.slave_agent.mon [axi4_slave_monitor] AR received: ID=0x8 ADDR=0x4474f23b LEN=15
# UVM_INFO ../src/mst/axi4_master_driver.sv(254) @ 1365000: uvm_test_top.env.master_agent.drv [axi4_master_driver] Read complete: 16 beats received
# UVM_INFO ../src/slv/axi4_slave_driver.sv(293) @ 1365000: uvm_test_top.env.slave_agent.drv [axi4_slave_driver] Read complete: ID=0x8  16 beats sent
# UVM_INFO ../src/mst/axi4_master_monitor.sv(314) @ 1365000: uvm_test_top.env.master_agent.mon [axi4_master_monitor] Read complete: ID=0x8 ADDR=0x4474f23b 16 beats
# UVM_INFO ../src/env/axi4_scoreboard.sv(82) @ 1365000: uvm_test_top.env.scb [axi4_scoreboard] Master AXI4_READ received: ID=0x8 ADDR=0x4474f23b LEN=15
# UVM_INFO ../src/slv/axi4_slave_monitor.sv(287) @ 1365000: uvm_test_top.env.slave_agent.mon [axi4_slave_monitor] Read data sent: ID=0x8 ADDR=0x4474f23b 16 beats
# UVM_INFO ../src/env/axi4_scoreboard.sv(103) @ 1365000: uvm_test_top.env.scb [axi4_scoreboard] Slave AXI4_READ received: ID=0x8 ADDR=0x4474f23b LEN=15
# UVM_INFO ../src/env/axi4_scoreboard.sv(154) @ 1365000: uvm_test_top.env.scb [axi4_scoreboard] [READ] MATCH #4: ID=0x8 ADDR=0x4474f23b LEN=15
# UVM_INFO ../src/seq/axi4_write_read_back_seq.sv(80) @ 1365000: uvm_test_top.env.master_agent.sqr@@wr_rd_seq_1 [axi4_write_read_back_seq] Read-back phase: ADDR=0x4474f23b LEN=15 - data integrity check via scoreboard
# UVM_INFO ../src/test/axi4_wr_rd_test.sv(52) @ 1365000: uvm_test_top [axi4_wr_rd_test] [3/10] ADDR=0xa1e4fefe LEN=9 BURST=AXI4_BURST_INCR
# UVM_INFO ../src/mst/axi4_master_driver.sv(55) @ 1365000: uvm_test_top.env.master_agent.drv [axi4_master_driver] Driving AXI4_WRITE  ID=0xc  ADDR=0xa1e4fefe  LEN=9
# UVM_INFO ../src/mst/axi4_master_driver.sv(94) @ 1365000: uvm_test_top.env.master_agent.drv [axi4_master_driver] Write order: AW || W (parallel)
# UVM_INFO ../src/slv/axi4_slave_driver.sv(159) @ 1395000: uvm_test_top.env.slave_agent.drv [axi4_slave_driver] AW received: ID=0xc ADDR=0xa1e4fefe LEN=9
# UVM_INFO ../src/slv/axi4_slave_monitor.sv(116) @ 1395000: uvm_test_top.env.slave_agent.mon [axi4_slave_monitor] AW received: ID=0xc ADDR=0xa1e4fefe LEN=9
# UVM_INFO ../src/mst/axi4_master_monitor.sv(124) @ 1395000: uvm_test_top.env.master_agent.mon [axi4_master_monitor] AW observed: ID=0xc ADDR=0xa1e4fefe LEN=9
# UVM_INFO ../src/mst/axi4_master_monitor.sv(184) @ 1565000: uvm_test_top.env.master_agent.mon [axi4_master_monitor] W data assembled: ID=0xc ADDR=0xa1e4fefe 10 beats
# UVM_INFO ../src/slv/axi4_slave_monitor.sv(167) @ 1565000: uvm_test_top.env.slave_agent.mon [axi4_slave_monitor] W data assembled: ID=0xc ADDR=0xa1e4fefe 10 beats
# UVM_INFO ../src/mst/axi4_master_driver.sv(197) @ 1595000: uvm_test_top.env.master_agent.drv [axi4_master_driver] Write response: AXI4_RESP_OKAY
# UVM_INFO ../src/slv/axi4_slave_driver.sv(223) @ 1595000: uvm_test_top.env.slave_agent.drv [axi4_slave_driver] Write complete: ID=0xc  10 beats stored
# UVM_INFO ../src/slv/axi4_slave_monitor.sv(189) @ 1595000: uvm_test_top.env.slave_agent.mon [axi4_slave_monitor] Write response sent: ID=0xc ADDR=0xa1e4fefe RESP=AXI4_RESP_OKAY
# UVM_INFO ../src/env/axi4_scoreboard.sv(103) @ 1595000: uvm_test_top.env.scb [axi4_scoreboard] Slave AXI4_WRITE received: ID=0xc ADDR=0xa1e4fefe LEN=9
# UVM_INFO ../src/mst/axi4_master_monitor.sv(210) @ 1595000: uvm_test_top.env.master_agent.mon [axi4_master_monitor] Write complete: ID=0xc ADDR=0xa1e4fefe RESP=AXI4_RESP_OKAY
# UVM_INFO ../src/env/axi4_scoreboard.sv(82) @ 1595000: uvm_test_top.env.scb [axi4_scoreboard] Master AXI4_WRITE received: ID=0xc ADDR=0xa1e4fefe LEN=9
# UVM_INFO ../src/env/axi4_scoreboard.sv(154) @ 1595000: uvm_test_top.env.scb [axi4_scoreboard] [WRITE] MATCH #5: ID=0xc ADDR=0xa1e4fefe LEN=9
# UVM_INFO ../src/seq/axi4_write_read_back_seq.sv(60) @ 1595000: uvm_test_top.env.master_agent.sqr@@wr_rd_seq_2 [axi4_write_read_back_seq] Write phase: ADDR=0xa1e4fefe LEN=9 SIZE=AXI4_SIZE_4B BURST=AXI4_BURST_INCR
# UVM_INFO ../src/mst/axi4_master_driver.sv(55) @ 1595000: uvm_test_top.env.master_agent.drv [axi4_master_driver] Driving AXI4_READ  ID=0x5  ADDR=0xa1e4fefe  LEN=9
# UVM_INFO ../src/slv/axi4_slave_driver.sv(259) @ 1625000: uvm_test_top.env.slave_agent.drv [axi4_slave_driver] AR received: ID=0x5 ADDR=0xa1e4fefe LEN=9
# UVM_INFO ../src/mst/axi4_master_monitor.sv(246) @ 1625000: uvm_test_top.env.master_agent.mon [axi4_master_monitor] AR observed: ID=0x5 ADDR=0xa1e4fefe LEN=9
# UVM_INFO ../src/slv/axi4_slave_monitor.sv(224) @ 1625000: uvm_test_top.env.slave_agent.mon [axi4_slave_monitor] AR received: ID=0x5 ADDR=0xa1e4fefe LEN=9
# UVM_INFO ../src/mst/axi4_master_driver.sv(254) @ 1825000: uvm_test_top.env.master_agent.drv [axi4_master_driver] Read complete: 10 beats received
# UVM_INFO ../src/slv/axi4_slave_driver.sv(293) @ 1825000: uvm_test_top.env.slave_agent.drv [axi4_slave_driver] Read complete: ID=0x5  10 beats sent
# UVM_INFO ../src/mst/axi4_master_monitor.sv(314) @ 1825000: uvm_test_top.env.master_agent.mon [axi4_master_monitor] Read complete: ID=0x5 ADDR=0xa1e4fefe 10 beats
# UVM_INFO ../src/env/axi4_scoreboard.sv(82) @ 1825000: uvm_test_top.env.scb [axi4_scoreboard] Master AXI4_READ received: ID=0x5 ADDR=0xa1e4fefe LEN=9
# UVM_INFO ../src/slv/axi4_slave_monitor.sv(287) @ 1825000: uvm_test_top.env.slave_agent.mon [axi4_slave_monitor] Read data sent: ID=0x5 ADDR=0xa1e4fefe 10 beats
# UVM_INFO ../src/env/axi4_scoreboard.sv(103) @ 1825000: uvm_test_top.env.scb [axi4_scoreboard] Slave AXI4_READ received: ID=0x5 ADDR=0xa1e4fefe LEN=9
# UVM_INFO ../src/env/axi4_scoreboard.sv(154) @ 1825000: uvm_test_top.env.scb [axi4_scoreboard] [READ] MATCH #6: ID=0x5 ADDR=0xa1e4fefe LEN=9
# UVM_INFO ../src/seq/axi4_write_read_back_seq.sv(80) @ 1825000: uvm_test_top.env.master_agent.sqr@@wr_rd_seq_2 [axi4_write_read_back_seq] Read-back phase: ADDR=0xa1e4fefe LEN=9 - data integrity check via scoreboard
# UVM_INFO ../src/test/axi4_wr_rd_test.sv(52) @ 1825000: uvm_test_top [axi4_wr_rd_test] [4/10] ADDR=0x4cdf210b LEN=0 BURST=AXI4_BURST_INCR
# UVM_INFO ../src/mst/axi4_master_driver.sv(55) @ 1825000: uvm_test_top.env.master_agent.drv [axi4_master_driver] Driving AXI4_WRITE  ID=0x1  ADDR=0x4cdf210b  LEN=0
# UVM_INFO ../src/mst/axi4_master_driver.sv(101) @ 1825000: uvm_test_top.env.master_agent.drv [axi4_master_driver] Write order: AW -> W (sequential)
# UVM_INFO ../src/slv/axi4_slave_driver.sv(159) @ 1855000: uvm_test_top.env.slave_agent.drv [axi4_slave_driver] AW received: ID=0x1 ADDR=0x4cdf210b LEN=0
# UVM_INFO ../src/slv/axi4_slave_monitor.sv(116) @ 1855000: uvm_test_top.env.slave_agent.mon [axi4_slave_monitor] AW received: ID=0x1 ADDR=0x4cdf210b LEN=0
# UVM_INFO ../src/mst/axi4_master_monitor.sv(124) @ 1855000: uvm_test_top.env.master_agent.mon [axi4_master_monitor] AW observed: ID=0x1 ADDR=0x4cdf210b LEN=0
# UVM_INFO ../src/slv/axi4_slave_monitor.sv(167) @ 1875000: uvm_test_top.env.slave_agent.mon [axi4_slave_monitor] W data assembled: ID=0x1 ADDR=0x4cdf210b 1 beats
# UVM_INFO ../src/mst/axi4_master_monitor.sv(184) @ 1875000: uvm_test_top.env.master_agent.mon [axi4_master_monitor] W data assembled: ID=0x1 ADDR=0x4cdf210b 1 beats
# UVM_INFO ../src/mst/axi4_master_driver.sv(197) @ 1905000: uvm_test_top.env.master_agent.drv [axi4_master_driver] Write response: AXI4_RESP_OKAY
# UVM_INFO ../src/slv/axi4_slave_driver.sv(223) @ 1905000: uvm_test_top.env.slave_agent.drv [axi4_slave_driver] Write complete: ID=0x1  1 beats stored
# UVM_INFO ../src/mst/axi4_master_monitor.sv(210) @ 1905000: uvm_test_top.env.master_agent.mon [axi4_master_monitor] Write complete: ID=0x1 ADDR=0x4cdf210b RESP=AXI4_RESP_OKAY
# UVM_INFO ../src/env/axi4_scoreboard.sv(82) @ 1905000: uvm_test_top.env.scb [axi4_scoreboard] Master AXI4_WRITE received: ID=0x1 ADDR=0x4cdf210b LEN=0
# UVM_INFO ../src/slv/axi4_slave_monitor.sv(189) @ 1905000: uvm_test_top.env.slave_agent.mon [axi4_slave_monitor] Write response sent: ID=0x1 ADDR=0x4cdf210b RESP=AXI4_RESP_OKAY
# UVM_INFO ../src/env/axi4_scoreboard.sv(103) @ 1905000: uvm_test_top.env.scb [axi4_scoreboard] Slave AXI4_WRITE received: ID=0x1 ADDR=0x4cdf210b LEN=0
# UVM_INFO ../src/env/axi4_scoreboard.sv(154) @ 1905000: uvm_test_top.env.scb [axi4_scoreboard] [WRITE] MATCH #7: ID=0x1 ADDR=0x4cdf210b LEN=0
# UVM_INFO ../src/seq/axi4_write_read_back_seq.sv(60) @ 1905000: uvm_test_top.env.master_agent.sqr@@wr_rd_seq_3 [axi4_write_read_back_seq] Write phase: ADDR=0x4cdf210b LEN=0 SIZE=AXI4_SIZE_4B BURST=AXI4_BURST_INCR
# UVM_INFO ../src/mst/axi4_master_driver.sv(55) @ 1905000: uvm_test_top.env.master_agent.drv [axi4_master_driver] Driving AXI4_READ  ID=0xb  ADDR=0x4cdf210b  LEN=0
# UVM_INFO ../src/slv/axi4_slave_driver.sv(259) @ 1935000: uvm_test_top.env.slave_agent.drv [axi4_slave_driver] AR received: ID=0xb ADDR=0x4cdf210b LEN=0
# UVM_INFO ../src/slv/axi4_slave_monitor.sv(224) @ 1935000: uvm_test_top.env.slave_agent.mon [axi4_slave_monitor] AR received: ID=0xb ADDR=0x4cdf210b LEN=0
# UVM_INFO ../src/mst/axi4_master_monitor.sv(246) @ 1935000: uvm_test_top.env.master_agent.mon [axi4_master_monitor] AR observed: ID=0xb ADDR=0x4cdf210b LEN=0
# UVM_INFO ../src/mst/axi4_master_driver.sv(254) @ 1955000: uvm_test_top.env.master_agent.drv [axi4_master_driver] Read complete: 1 beats received
# UVM_INFO ../src/slv/axi4_slave_driver.sv(293) @ 1955000: uvm_test_top.env.slave_agent.drv [axi4_slave_driver] Read complete: ID=0xb  1 beats sent
# UVM_INFO ../src/slv/axi4_slave_monitor.sv(287) @ 1955000: uvm_test_top.env.slave_agent.mon [axi4_slave_monitor] Read data sent: ID=0xb ADDR=0x4cdf210b 1 beats
# UVM_INFO ../src/env/axi4_scoreboard.sv(103) @ 1955000: uvm_test_top.env.scb [axi4_scoreboard] Slave AXI4_READ received: ID=0xb ADDR=0x4cdf210b LEN=0
# UVM_INFO ../src/mst/axi4_master_monitor.sv(314) @ 1955000: uvm_test_top.env.master_agent.mon [axi4_master_monitor] Read complete: ID=0xb ADDR=0x4cdf210b 1 beats
# UVM_INFO ../src/env/axi4_scoreboard.sv(82) @ 1955000: uvm_test_top.env.scb [axi4_scoreboard] Master AXI4_READ received: ID=0xb ADDR=0x4cdf210b LEN=0
# UVM_INFO ../src/env/axi4_scoreboard.sv(154) @ 1955000: uvm_test_top.env.scb [axi4_scoreboard] [READ] MATCH #8: ID=0xb ADDR=0x4cdf210b LEN=0
# UVM_INFO ../src/seq/axi4_write_read_back_seq.sv(80) @ 1955000: uvm_test_top.env.master_agent.sqr@@wr_rd_seq_3 [axi4_write_read_back_seq] Read-back phase: ADDR=0x4cdf210b LEN=0 - data integrity check via scoreboard
# UVM_INFO ../src/test/axi4_wr_rd_test.sv(52) @ 1955000: uvm_test_top [axi4_wr_rd_test] [5/10] ADDR=0x81b83098 LEN=5 BURST=AXI4_BURST_INCR
# UVM_INFO ../src/mst/axi4_master_driver.sv(55) @ 1955000: uvm_test_top.env.master_agent.drv [axi4_master_driver] Driving AXI4_WRITE  ID=0x8  ADDR=0x81b83098  LEN=5
# UVM_INFO ../src/mst/axi4_master_driver.sv(106) @ 1955000: uvm_test_top.env.master_agent.drv [axi4_master_driver] Write order: W -> AW (W first)
# UVM_INFO ../src/slv/axi4_slave_driver.sv(159) @ 2015000: uvm_test_top.env.slave_agent.drv [axi4_slave_driver] AW received: ID=0x8 ADDR=0x81b83098 LEN=5
# UVM_INFO ../src/slv/axi4_slave_monitor.sv(116) @ 2015000: uvm_test_top.env.slave_agent.mon [axi4_slave_monitor] AW received: ID=0x8 ADDR=0x81b83098 LEN=5
# UVM_INFO ../src/mst/axi4_master_monitor.sv(124) @ 2015000: uvm_test_top.env.master_agent.mon [axi4_master_monitor] AW observed: ID=0x8 ADDR=0x81b83098 LEN=5
# UVM_INFO ../src/slv/axi4_slave_monitor.sv(167) @ 2075000: uvm_test_top.env.slave_agent.mon [axi4_slave_monitor] W data assembled: ID=0x8 ADDR=0x81b83098 6 beats
# UVM_INFO ../src/mst/axi4_master_monitor.sv(184) @ 2075000: uvm_test_top.env.master_agent.mon [axi4_master_monitor] W data assembled: ID=0x8 ADDR=0x81b83098 6 beats
# UVM_INFO ../src/mst/axi4_master_driver.sv(197) @ 2105000: uvm_test_top.env.master_agent.drv [axi4_master_driver] Write response: AXI4_RESP_OKAY
# UVM_INFO ../src/slv/axi4_slave_driver.sv(223) @ 2105000: uvm_test_top.env.slave_agent.drv [axi4_slave_driver] Write complete: ID=0x8  6 beats stored
# UVM_INFO ../src/mst/axi4_master_monitor.sv(210) @ 2105000: uvm_test_top.env.master_agent.mon [axi4_master_monitor] Write complete: ID=0x8 ADDR=0x81b83098 RESP=AXI4_RESP_OKAY
# UVM_INFO ../src/env/axi4_scoreboard.sv(82) @ 2105000: uvm_test_top.env.scb [axi4_scoreboard] Master AXI4_WRITE received: ID=0x8 ADDR=0x81b83098 LEN=5
# UVM_INFO ../src/slv/axi4_slave_monitor.sv(189) @ 2105000: uvm_test_top.env.slave_agent.mon [axi4_slave_monitor] Write response sent: ID=0x8 ADDR=0x81b83098 RESP=AXI4_RESP_OKAY
# UVM_INFO ../src/env/axi4_scoreboard.sv(103) @ 2105000: uvm_test_top.env.scb [axi4_scoreboard] Slave AXI4_WRITE received: ID=0x8 ADDR=0x81b83098 LEN=5
# UVM_INFO ../src/env/axi4_scoreboard.sv(154) @ 2105000: uvm_test_top.env.scb [axi4_scoreboard] [WRITE] MATCH #9: ID=0x8 ADDR=0x81b83098 LEN=5
# UVM_INFO ../src/seq/axi4_write_read_back_seq.sv(60) @ 2105000: uvm_test_top.env.master_agent.sqr@@wr_rd_seq_4 [axi4_write_read_back_seq] Write phase: ADDR=0x81b83098 LEN=5 SIZE=AXI4_SIZE_4B BURST=AXI4_BURST_INCR
# UVM_INFO ../src/mst/axi4_master_driver.sv(55) @ 2105000: uvm_test_top.env.master_agent.drv [axi4_master_driver] Driving AXI4_READ  ID=0xe  ADDR=0x81b83098  LEN=5
# UVM_INFO ../src/slv/axi4_slave_driver.sv(259) @ 2135000: uvm_test_top.env.slave_agent.drv [axi4_slave_driver] AR received: ID=0xe ADDR=0x81b83098 LEN=5
# UVM_INFO ../src/slv/axi4_slave_monitor.sv(224) @ 2135000: uvm_test_top.env.slave_agent.mon [axi4_slave_monitor] AR received: ID=0xe ADDR=0x81b83098 LEN=5
# UVM_INFO ../src/mst/axi4_master_monitor.sv(246) @ 2135000: uvm_test_top.env.master_agent.mon [axi4_master_monitor] AR observed: ID=0xe ADDR=0x81b83098 LEN=5
# UVM_INFO ../src/mst/axi4_master_driver.sv(254) @ 2255000: uvm_test_top.env.master_agent.drv [axi4_master_driver] Read complete: 6 beats received
# UVM_INFO ../src/slv/axi4_slave_driver.sv(293) @ 2255000: uvm_test_top.env.slave_agent.drv [axi4_slave_driver] Read complete: ID=0xe  6 beats sent
# UVM_INFO ../src/slv/axi4_slave_monitor.sv(287) @ 2255000: uvm_test_top.env.slave_agent.mon [axi4_slave_monitor] Read data sent: ID=0xe ADDR=0x81b83098 6 beats
# UVM_INFO ../src/env/axi4_scoreboard.sv(103) @ 2255000: uvm_test_top.env.scb [axi4_scoreboard] Slave AXI4_READ received: ID=0xe ADDR=0x81b83098 LEN=5
# UVM_INFO ../src/mst/axi4_master_monitor.sv(314) @ 2255000: uvm_test_top.env.master_agent.mon [axi4_master_monitor] Read complete: ID=0xe ADDR=0x81b83098 6 beats
# UVM_INFO ../src/env/axi4_scoreboard.sv(82) @ 2255000: uvm_test_top.env.scb [axi4_scoreboard] Master AXI4_READ received: ID=0xe ADDR=0x81b83098 LEN=5
# UVM_INFO ../src/env/axi4_scoreboard.sv(154) @ 2255000: uvm_test_top.env.scb [axi4_scoreboard] [READ] MATCH #10: ID=0xe ADDR=0x81b83098 LEN=5
# UVM_INFO ../src/seq/axi4_write_read_back_seq.sv(80) @ 2255000: uvm_test_top.env.master_agent.sqr@@wr_rd_seq_4 [axi4_write_read_back_seq] Read-back phase: ADDR=0x81b83098 LEN=5 - data integrity check via scoreboard
# UVM_INFO ../src/test/axi4_wr_rd_test.sv(52) @ 2255000: uvm_test_top [axi4_wr_rd_test] [6/10] ADDR=0x48f2845a LEN=12 BURST=AXI4_BURST_INCR
# UVM_INFO ../src/mst/axi4_master_driver.sv(55) @ 2255000: uvm_test_top.env.master_agent.drv [axi4_master_driver] Driving AXI4_WRITE  ID=0x8  ADDR=0x48f2845a  LEN=12
# UVM_INFO ../src/mst/axi4_master_driver.sv(94) @ 2255000: uvm_test_top.env.master_agent.drv [axi4_master_driver] Write order: AW || W (parallel)
# UVM_INFO ../src/slv/axi4_slave_driver.sv(159) @ 2285000: uvm_test_top.env.slave_agent.drv [axi4_slave_driver] AW received: ID=0x8 ADDR=0x48f2845a LEN=12
# UVM_INFO ../src/mst/axi4_master_monitor.sv(124) @ 2285000: uvm_test_top.env.master_agent.mon [axi4_master_monitor] AW observed: ID=0x8 ADDR=0x48f2845a LEN=12
# UVM_INFO ../src/slv/axi4_slave_monitor.sv(116) @ 2285000: uvm_test_top.env.slave_agent.mon [axi4_slave_monitor] AW received: ID=0x8 ADDR=0x48f2845a LEN=12
# UVM_INFO ../src/slv/axi4_slave_monitor.sv(167) @ 2515000: uvm_test_top.env.slave_agent.mon [axi4_slave_monitor] W data assembled: ID=0x8 ADDR=0x48f2845a 13 beats
# UVM_INFO ../src/mst/axi4_master_monitor.sv(184) @ 2515000: uvm_test_top.env.master_agent.mon [axi4_master_monitor] W data assembled: ID=0x8 ADDR=0x48f2845a 13 beats
# UVM_INFO ../src/mst/axi4_master_driver.sv(197) @ 2545000: uvm_test_top.env.master_agent.drv [axi4_master_driver] Write response: AXI4_RESP_OKAY
# UVM_INFO ../src/slv/axi4_slave_driver.sv(223) @ 2545000: uvm_test_top.env.slave_agent.drv [axi4_slave_driver] Write complete: ID=0x8  13 beats stored
# UVM_INFO ../src/mst/axi4_master_monitor.sv(210) @ 2545000: uvm_test_top.env.master_agent.mon [axi4_master_monitor] Write complete: ID=0x8 ADDR=0x48f2845a RESP=AXI4_RESP_OKAY
# UVM_INFO ../src/env/axi4_scoreboard.sv(82) @ 2545000: uvm_test_top.env.scb [axi4_scoreboard] Master AXI4_WRITE received: ID=0x8 ADDR=0x48f2845a LEN=12
# UVM_INFO ../src/slv/axi4_slave_monitor.sv(189) @ 2545000: uvm_test_top.env.slave_agent.mon [axi4_slave_monitor] Write response sent: ID=0x8 ADDR=0x48f2845a RESP=AXI4_RESP_OKAY
# UVM_INFO ../src/env/axi4_scoreboard.sv(103) @ 2545000: uvm_test_top.env.scb [axi4_scoreboard] Slave AXI4_WRITE received: ID=0x8 ADDR=0x48f2845a LEN=12
# UVM_INFO ../src/env/axi4_scoreboard.sv(154) @ 2545000: uvm_test_top.env.scb [axi4_scoreboard] [WRITE] MATCH #11: ID=0x8 ADDR=0x48f2845a LEN=12
# UVM_INFO ../src/seq/axi4_write_read_back_seq.sv(60) @ 2545000: uvm_test_top.env.master_agent.sqr@@wr_rd_seq_5 [axi4_write_read_back_seq] Write phase: ADDR=0x48f2845a LEN=12 SIZE=AXI4_SIZE_4B BURST=AXI4_BURST_INCR
# UVM_INFO ../src/mst/axi4_master_driver.sv(55) @ 2545000: uvm_test_top.env.master_agent.drv [axi4_master_driver] Driving AXI4_READ  ID=0xc  ADDR=0x48f2845a  LEN=12
# UVM_INFO ../src/slv/axi4_slave_driver.sv(259) @ 2575000: uvm_test_top.env.slave_agent.drv [axi4_slave_driver] AR received: ID=0xc ADDR=0x48f2845a LEN=12
# UVM_INFO ../src/slv/axi4_slave_monitor.sv(224) @ 2575000: uvm_test_top.env.slave_agent.mon [axi4_slave_monitor] AR received: ID=0xc ADDR=0x48f2845a LEN=12
# UVM_INFO ../src/mst/axi4_master_monitor.sv(246) @ 2575000: uvm_test_top.env.master_agent.mon [axi4_master_monitor] AR observed: ID=0xc ADDR=0x48f2845a LEN=12
# UVM_INFO ../src/mst/axi4_master_driver.sv(254) @ 2835000: uvm_test_top.env.master_agent.drv [axi4_master_driver] Read complete: 13 beats received
# UVM_INFO ../src/slv/axi4_slave_driver.sv(293) @ 2835000: uvm_test_top.env.slave_agent.drv [axi4_slave_driver] Read complete: ID=0xc  13 beats sent
# UVM_INFO ../src/slv/axi4_slave_monitor.sv(287) @ 2835000: uvm_test_top.env.slave_agent.mon [axi4_slave_monitor] Read data sent: ID=0xc ADDR=0x48f2845a 13 beats
# UVM_INFO ../src/env/axi4_scoreboard.sv(103) @ 2835000: uvm_test_top.env.scb [axi4_scoreboard] Slave AXI4_READ received: ID=0xc ADDR=0x48f2845a LEN=12
# UVM_INFO ../src/mst/axi4_master_monitor.sv(314) @ 2835000: uvm_test_top.env.master_agent.mon [axi4_master_monitor] Read complete: ID=0xc ADDR=0x48f2845a 13 beats
# UVM_INFO ../src/env/axi4_scoreboard.sv(82) @ 2835000: uvm_test_top.env.scb [axi4_scoreboard] Master AXI4_READ received: ID=0xc ADDR=0x48f2845a LEN=12
# UVM_INFO ../src/env/axi4_scoreboard.sv(154) @ 2835000: uvm_test_top.env.scb [axi4_scoreboard] [READ] MATCH #12: ID=0xc ADDR=0x48f2845a LEN=12
# UVM_INFO ../src/seq/axi4_write_read_back_seq.sv(80) @ 2835000: uvm_test_top.env.master_agent.sqr@@wr_rd_seq_5 [axi4_write_read_back_seq] Read-back phase: ADDR=0x48f2845a LEN=12 - data integrity check via scoreboard
# UVM_INFO ../src/test/axi4_wr_rd_test.sv(52) @ 2835000: uvm_test_top [axi4_wr_rd_test] [7/10] ADDR=0x6d19831e LEN=13 BURST=AXI4_BURST_INCR
# UVM_INFO ../src/mst/axi4_master_driver.sv(55) @ 2835000: uvm_test_top.env.master_agent.drv [axi4_master_driver] Driving AXI4_WRITE  ID=0x7  ADDR=0x6d19831e  LEN=13
# UVM_INFO ../src/mst/axi4_master_driver.sv(94) @ 2835000: uvm_test_top.env.master_agent.drv [axi4_master_driver] Write order: AW || W (parallel)
# UVM_INFO ../src/slv/axi4_slave_driver.sv(159) @ 2865000: uvm_test_top.env.slave_agent.drv [axi4_slave_driver] AW received: ID=0x7 ADDR=0x6d19831e LEN=13
# UVM_INFO ../src/mst/axi4_master_monitor.sv(124) @ 2865000: uvm_test_top.env.master_agent.mon [axi4_master_monitor] AW observed: ID=0x7 ADDR=0x6d19831e LEN=13
# UVM_INFO ../src/slv/axi4_slave_monitor.sv(116) @ 2865000: uvm_test_top.env.slave_agent.mon [axi4_slave_monitor] AW received: ID=0x7 ADDR=0x6d19831e LEN=13
# UVM_INFO ../src/slv/axi4_slave_monitor.sv(167) @ 3115000: uvm_test_top.env.slave_agent.mon [axi4_slave_monitor] W data assembled: ID=0x7 ADDR=0x6d19831e 14 beats
# UVM_INFO ../src/mst/axi4_master_monitor.sv(184) @ 3115000: uvm_test_top.env.master_agent.mon [axi4_master_monitor] W data assembled: ID=0x7 ADDR=0x6d19831e 14 beats
# UVM_INFO ../src/mst/axi4_master_driver.sv(197) @ 3145000: uvm_test_top.env.master_agent.drv [axi4_master_driver] Write response: AXI4_RESP_OKAY
# UVM_INFO ../src/slv/axi4_slave_driver.sv(223) @ 3145000: uvm_test_top.env.slave_agent.drv [axi4_slave_driver] Write complete: ID=0x7  14 beats stored
# UVM_INFO ../src/mst/axi4_master_monitor.sv(210) @ 3145000: uvm_test_top.env.master_agent.mon [axi4_master_monitor] Write complete: ID=0x7 ADDR=0x6d19831e RESP=AXI4_RESP_OKAY
# UVM_INFO ../src/env/axi4_scoreboard.sv(82) @ 3145000: uvm_test_top.env.scb [axi4_scoreboard] Master AXI4_WRITE received: ID=0x7 ADDR=0x6d19831e LEN=13
# UVM_INFO ../src/slv/axi4_slave_monitor.sv(189) @ 3145000: uvm_test_top.env.slave_agent.mon [axi4_slave_monitor] Write response sent: ID=0x7 ADDR=0x6d19831e RESP=AXI4_RESP_OKAY
# UVM_INFO ../src/env/axi4_scoreboard.sv(103) @ 3145000: uvm_test_top.env.scb [axi4_scoreboard] Slave AXI4_WRITE received: ID=0x7 ADDR=0x6d19831e LEN=13
# UVM_INFO ../src/env/axi4_scoreboard.sv(154) @ 3145000: uvm_test_top.env.scb [axi4_scoreboard] [WRITE] MATCH #13: ID=0x7 ADDR=0x6d19831e LEN=13
# UVM_INFO ../src/seq/axi4_write_read_back_seq.sv(60) @ 3145000: uvm_test_top.env.master_agent.sqr@@wr_rd_seq_6 [axi4_write_read_back_seq] Write phase: ADDR=0x6d19831e LEN=13 SIZE=AXI4_SIZE_4B BURST=AXI4_BURST_INCR
# UVM_INFO ../src/mst/axi4_master_driver.sv(55) @ 3145000: uvm_test_top.env.master_agent.drv [axi4_master_driver] Driving AXI4_READ  ID=0x0  ADDR=0x6d19831e  LEN=13
# UVM_INFO ../src/slv/axi4_slave_driver.sv(259) @ 3175000: uvm_test_top.env.slave_agent.drv [axi4_slave_driver] AR received: ID=0x0 ADDR=0x6d19831e LEN=13
# UVM_INFO ../src/slv/axi4_slave_monitor.sv(224) @ 3175000: uvm_test_top.env.slave_agent.mon [axi4_slave_monitor] AR received: ID=0x0 ADDR=0x6d19831e LEN=13
# UVM_INFO ../src/mst/axi4_master_monitor.sv(246) @ 3175000: uvm_test_top.env.master_agent.mon [axi4_master_monitor] AR observed: ID=0x0 ADDR=0x6d19831e LEN=13
# UVM_INFO ../src/mst/axi4_master_driver.sv(254) @ 3455000: uvm_test_top.env.master_agent.drv [axi4_master_driver] Read complete: 14 beats received
# UVM_INFO ../src/slv/axi4_slave_driver.sv(293) @ 3455000: uvm_test_top.env.slave_agent.drv [axi4_slave_driver] Read complete: ID=0x0  14 beats sent
# UVM_INFO ../src/slv/axi4_slave_monitor.sv(287) @ 3455000: uvm_test_top.env.slave_agent.mon [axi4_slave_monitor] Read data sent: ID=0x0 ADDR=0x6d19831e 14 beats
# UVM_INFO ../src/env/axi4_scoreboard.sv(103) @ 3455000: uvm_test_top.env.scb [axi4_scoreboard] Slave AXI4_READ received: ID=0x0 ADDR=0x6d19831e LEN=13
# UVM_INFO ../src/mst/axi4_master_monitor.sv(314) @ 3455000: uvm_test_top.env.master_agent.mon [axi4_master_monitor] Read complete: ID=0x0 ADDR=0x6d19831e 14 beats
# UVM_INFO ../src/env/axi4_scoreboard.sv(82) @ 3455000: uvm_test_top.env.scb [axi4_scoreboard] Master AXI4_READ received: ID=0x0 ADDR=0x6d19831e LEN=13
# UVM_INFO ../src/env/axi4_scoreboard.sv(154) @ 3455000: uvm_test_top.env.scb [axi4_scoreboard] [READ] MATCH #14: ID=0x0 ADDR=0x6d19831e LEN=13
# UVM_INFO ../src/seq/axi4_write_read_back_seq.sv(80) @ 3455000: uvm_test_top.env.master_agent.sqr@@wr_rd_seq_6 [axi4_write_read_back_seq] Read-back phase: ADDR=0x6d19831e LEN=13 - data integrity check via scoreboard
# UVM_INFO ../src/test/axi4_wr_rd_test.sv(52) @ 3455000: uvm_test_top [axi4_wr_rd_test] [8/10] ADDR=0xed30c909 LEN=13 BURST=AXI4_BURST_INCR
# UVM_INFO ../src/mst/axi4_master_driver.sv(55) @ 3455000: uvm_test_top.env.master_agent.drv [axi4_master_driver] Driving AXI4_WRITE  ID=0xc  ADDR=0xed30c909  LEN=13
# UVM_INFO ../src/mst/axi4_master_driver.sv(94) @ 3455000: uvm_test_top.env.master_agent.drv [axi4_master_driver] Write order: AW || W (parallel)
# UVM_INFO ../src/slv/axi4_slave_driver.sv(159) @ 3485000: uvm_test_top.env.slave_agent.drv [axi4_slave_driver] AW received: ID=0xc ADDR=0xed30c909 LEN=13
# UVM_INFO ../src/mst/axi4_master_monitor.sv(124) @ 3485000: uvm_test_top.env.master_agent.mon [axi4_master_monitor] AW observed: ID=0xc ADDR=0xed30c909 LEN=13
# UVM_INFO ../src/slv/axi4_slave_monitor.sv(116) @ 3485000: uvm_test_top.env.slave_agent.mon [axi4_slave_monitor] AW received: ID=0xc ADDR=0xed30c909 LEN=13
# UVM_INFO ../src/slv/axi4_slave_monitor.sv(167) @ 3735000: uvm_test_top.env.slave_agent.mon [axi4_slave_monitor] W data assembled: ID=0xc ADDR=0xed30c909 14 beats
# UVM_INFO ../src/mst/axi4_master_monitor.sv(184) @ 3735000: uvm_test_top.env.master_agent.mon [axi4_master_monitor] W data assembled: ID=0xc ADDR=0xed30c909 14 beats
# UVM_INFO ../src/mst/axi4_master_driver.sv(197) @ 3765000: uvm_test_top.env.master_agent.drv [axi4_master_driver] Write response: AXI4_RESP_OKAY
# UVM_INFO ../src/slv/axi4_slave_driver.sv(223) @ 3765000: uvm_test_top.env.slave_agent.drv [axi4_slave_driver] Write complete: ID=0xc  14 beats stored
# UVM_INFO ../src/mst/axi4_master_monitor.sv(210) @ 3765000: uvm_test_top.env.master_agent.mon [axi4_master_monitor] Write complete: ID=0xc ADDR=0xed30c909 RESP=AXI4_RESP_OKAY
# UVM_INFO ../src/env/axi4_scoreboard.sv(82) @ 3765000: uvm_test_top.env.scb [axi4_scoreboard] Master AXI4_WRITE received: ID=0xc ADDR=0xed30c909 LEN=13
# UVM_INFO ../src/slv/axi4_slave_monitor.sv(189) @ 3765000: uvm_test_top.env.slave_agent.mon [axi4_slave_monitor] Write response sent: ID=0xc ADDR=0xed30c909 RESP=AXI4_RESP_OKAY
# UVM_INFO ../src/env/axi4_scoreboard.sv(103) @ 3765000: uvm_test_top.env.scb [axi4_scoreboard] Slave AXI4_WRITE received: ID=0xc ADDR=0xed30c909 LEN=13
# UVM_INFO ../src/env/axi4_scoreboard.sv(154) @ 3765000: uvm_test_top.env.scb [axi4_scoreboard] [WRITE] MATCH #15: ID=0xc ADDR=0xed30c909 LEN=13
# UVM_INFO ../src/seq/axi4_write_read_back_seq.sv(60) @ 3765000: uvm_test_top.env.master_agent.sqr@@wr_rd_seq_7 [axi4_write_read_back_seq] Write phase: ADDR=0xed30c909 LEN=13 SIZE=AXI4_SIZE_4B BURST=AXI4_BURST_INCR
# UVM_INFO ../src/mst/axi4_master_driver.sv(55) @ 3765000: uvm_test_top.env.master_agent.drv [axi4_master_driver] Driving AXI4_READ  ID=0xb  ADDR=0xed30c909  LEN=13
# UVM_INFO ../src/slv/axi4_slave_driver.sv(259) @ 3795000: uvm_test_top.env.slave_agent.drv [axi4_slave_driver] AR received: ID=0xb ADDR=0xed30c909 LEN=13
# UVM_INFO ../src/slv/axi4_slave_monitor.sv(224) @ 3795000: uvm_test_top.env.slave_agent.mon [axi4_slave_monitor] AR received: ID=0xb ADDR=0xed30c909 LEN=13
# UVM_INFO ../src/mst/axi4_master_monitor.sv(246) @ 3795000: uvm_test_top.env.master_agent.mon [axi4_master_monitor] AR observed: ID=0xb ADDR=0xed30c909 LEN=13
# UVM_INFO ../src/mst/axi4_master_driver.sv(254) @ 4075000: uvm_test_top.env.master_agent.drv [axi4_master_driver] Read complete: 14 beats received
# UVM_INFO ../src/slv/axi4_slave_driver.sv(293) @ 4075000: uvm_test_top.env.slave_agent.drv [axi4_slave_driver] Read complete: ID=0xb  14 beats sent
# UVM_INFO ../src/slv/axi4_slave_monitor.sv(287) @ 4075000: uvm_test_top.env.slave_agent.mon [axi4_slave_monitor] Read data sent: ID=0xb ADDR=0xed30c909 14 beats
# UVM_INFO ../src/env/axi4_scoreboard.sv(103) @ 4075000: uvm_test_top.env.scb [axi4_scoreboard] Slave AXI4_READ received: ID=0xb ADDR=0xed30c909 LEN=13
# UVM_INFO ../src/mst/axi4_master_monitor.sv(314) @ 4075000: uvm_test_top.env.master_agent.mon [axi4_master_monitor] Read complete: ID=0xb ADDR=0xed30c909 14 beats
# UVM_INFO ../src/env/axi4_scoreboard.sv(82) @ 4075000: uvm_test_top.env.scb [axi4_scoreboard] Master AXI4_READ received: ID=0xb ADDR=0xed30c909 LEN=13
# UVM_INFO ../src/env/axi4_scoreboard.sv(154) @ 4075000: uvm_test_top.env.scb [axi4_scoreboard] [READ] MATCH #16: ID=0xb ADDR=0xed30c909 LEN=13
# UVM_INFO ../src/seq/axi4_write_read_back_seq.sv(80) @ 4075000: uvm_test_top.env.master_agent.sqr@@wr_rd_seq_7 [axi4_write_read_back_seq] Read-back phase: ADDR=0xed30c909 LEN=13 - data integrity check via scoreboard
# UVM_INFO ../src/test/axi4_wr_rd_test.sv(52) @ 4075000: uvm_test_top [axi4_wr_rd_test] [9/10] ADDR=0x7adb334c LEN=3 BURST=AXI4_BURST_INCR
# UVM_INFO ../src/mst/axi4_master_driver.sv(55) @ 4075000: uvm_test_top.env.master_agent.drv [axi4_master_driver] Driving AXI4_WRITE  ID=0xc  ADDR=0x7adb334c  LEN=3
# UVM_INFO ../src/mst/axi4_master_driver.sv(106) @ 4075000: uvm_test_top.env.master_agent.drv [axi4_master_driver] Write order: W -> AW (W first)
# UVM_INFO ../src/slv/axi4_slave_driver.sv(159) @ 4135000: uvm_test_top.env.slave_agent.drv [axi4_slave_driver] AW received: ID=0xc ADDR=0x7adb334c LEN=3
# UVM_INFO ../src/slv/axi4_slave_monitor.sv(116) @ 4135000: uvm_test_top.env.slave_agent.mon [axi4_slave_monitor] AW received: ID=0xc ADDR=0x7adb334c LEN=3
# UVM_INFO ../src/mst/axi4_master_monitor.sv(124) @ 4135000: uvm_test_top.env.master_agent.mon [axi4_master_monitor] AW observed: ID=0xc ADDR=0x7adb334c LEN=3
# UVM_INFO ../src/slv/axi4_slave_monitor.sv(167) @ 4155000: uvm_test_top.env.slave_agent.mon [axi4_slave_monitor] W data assembled: ID=0xc ADDR=0x7adb334c 4 beats
# UVM_INFO ../src/mst/axi4_master_monitor.sv(184) @ 4155000: uvm_test_top.env.master_agent.mon [axi4_master_monitor] W data assembled: ID=0xc ADDR=0x7adb334c 4 beats
# UVM_INFO ../src/mst/axi4_master_driver.sv(197) @ 4185000: uvm_test_top.env.master_agent.drv [axi4_master_driver] Write response: AXI4_RESP_OKAY
# UVM_INFO ../src/slv/axi4_slave_driver.sv(223) @ 4185000: uvm_test_top.env.slave_agent.drv [axi4_slave_driver] Write complete: ID=0xc  4 beats stored
# UVM_INFO ../src/mst/axi4_master_monitor.sv(210) @ 4185000: uvm_test_top.env.master_agent.mon [axi4_master_monitor] Write complete: ID=0xc ADDR=0x7adb334c RESP=AXI4_RESP_OKAY
# UVM_INFO ../src/env/axi4_scoreboard.sv(82) @ 4185000: uvm_test_top.env.scb [axi4_scoreboard] Master AXI4_WRITE received: ID=0xc ADDR=0x7adb334c LEN=3
# UVM_INFO ../src/slv/axi4_slave_monitor.sv(189) @ 4185000: uvm_test_top.env.slave_agent.mon [axi4_slave_monitor] Write response sent: ID=0xc ADDR=0x7adb334c RESP=AXI4_RESP_OKAY
# UVM_INFO ../src/env/axi4_scoreboard.sv(103) @ 4185000: uvm_test_top.env.scb [axi4_scoreboard] Slave AXI4_WRITE received: ID=0xc ADDR=0x7adb334c LEN=3
# UVM_INFO ../src/env/axi4_scoreboard.sv(154) @ 4185000: uvm_test_top.env.scb [axi4_scoreboard] [WRITE] MATCH #17: ID=0xc ADDR=0x7adb334c LEN=3
# UVM_INFO ../src/seq/axi4_write_read_back_seq.sv(60) @ 4185000: uvm_test_top.env.master_agent.sqr@@wr_rd_seq_8 [axi4_write_read_back_seq] Write phase: ADDR=0x7adb334c LEN=3 SIZE=AXI4_SIZE_4B BURST=AXI4_BURST_INCR
# UVM_INFO ../src/mst/axi4_master_driver.sv(55) @ 4185000: uvm_test_top.env.master_agent.drv [axi4_master_driver] Driving AXI4_READ  ID=0x6  ADDR=0x7adb334c  LEN=3
# UVM_INFO ../src/slv/axi4_slave_driver.sv(259) @ 4215000: uvm_test_top.env.slave_agent.drv [axi4_slave_driver] AR received: ID=0x6 ADDR=0x7adb334c LEN=3
# UVM_INFO ../src/slv/axi4_slave_monitor.sv(224) @ 4215000: uvm_test_top.env.slave_agent.mon [axi4_slave_monitor] AR received: ID=0x6 ADDR=0x7adb334c LEN=3
# UVM_INFO ../src/mst/axi4_master_monitor.sv(246) @ 4215000: uvm_test_top.env.master_agent.mon [axi4_master_monitor] AR observed: ID=0x6 ADDR=0x7adb334c LEN=3
# UVM_INFO ../src/mst/axi4_master_driver.sv(254) @ 4295000: uvm_test_top.env.master_agent.drv [axi4_master_driver] Read complete: 4 beats received
# UVM_INFO ../src/slv/axi4_slave_driver.sv(293) @ 4295000: uvm_test_top.env.slave_agent.drv [axi4_slave_driver] Read complete: ID=0x6  4 beats sent
# UVM_INFO ../src/slv/axi4_slave_monitor.sv(287) @ 4295000: uvm_test_top.env.slave_agent.mon [axi4_slave_monitor] Read data sent: ID=0x6 ADDR=0x7adb334c 4 beats
# UVM_INFO ../src/env/axi4_scoreboard.sv(103) @ 4295000: uvm_test_top.env.scb [axi4_scoreboard] Slave AXI4_READ received: ID=0x6 ADDR=0x7adb334c LEN=3
# UVM_INFO ../src/mst/axi4_master_monitor.sv(314) @ 4295000: uvm_test_top.env.master_agent.mon [axi4_master_monitor] Read complete: ID=0x6 ADDR=0x7adb334c 4 beats
# UVM_INFO ../src/env/axi4_scoreboard.sv(82) @ 4295000: uvm_test_top.env.scb [axi4_scoreboard] Master AXI4_READ received: ID=0x6 ADDR=0x7adb334c LEN=3
# UVM_INFO ../src/env/axi4_scoreboard.sv(154) @ 4295000: uvm_test_top.env.scb [axi4_scoreboard] [READ] MATCH #18: ID=0x6 ADDR=0x7adb334c LEN=3
# UVM_INFO ../src/seq/axi4_write_read_back_seq.sv(80) @ 4295000: uvm_test_top.env.master_agent.sqr@@wr_rd_seq_8 [axi4_write_read_back_seq] Read-back phase: ADDR=0x7adb334c LEN=3 - data integrity check via scoreboard
# UVM_INFO ../src/test/axi4_wr_rd_test.sv(52) @ 4295000: uvm_test_top [axi4_wr_rd_test] [10/10] ADDR=0x9272df3e LEN=12 BURST=AXI4_BURST_INCR
# UVM_INFO ../src/mst/axi4_master_driver.sv(55) @ 4295000: uvm_test_top.env.master_agent.drv [axi4_master_driver] Driving AXI4_WRITE  ID=0x9  ADDR=0x9272df3e  LEN=12
# UVM_INFO ../src/mst/axi4_master_driver.sv(94) @ 4295000: uvm_test_top.env.master_agent.drv [axi4_master_driver] Write order: AW || W (parallel)
# UVM_INFO ../src/slv/axi4_slave_driver.sv(159) @ 4325000: uvm_test_top.env.slave_agent.drv [axi4_slave_driver] AW received: ID=0x9 ADDR=0x9272df3e LEN=12
# UVM_INFO ../src/mst/axi4_master_monitor.sv(124) @ 4325000: uvm_test_top.env.master_agent.mon [axi4_master_monitor] AW observed: ID=0x9 ADDR=0x9272df3e LEN=12
# UVM_INFO ../src/slv/axi4_slave_monitor.sv(116) @ 4325000: uvm_test_top.env.slave_agent.mon [axi4_slave_monitor] AW received: ID=0x9 ADDR=0x9272df3e LEN=12
# UVM_INFO ../src/slv/axi4_slave_monitor.sv(167) @ 4555000: uvm_test_top.env.slave_agent.mon [axi4_slave_monitor] W data assembled: ID=0x9 ADDR=0x9272df3e 13 beats
# UVM_INFO ../src/mst/axi4_master_monitor.sv(184) @ 4555000: uvm_test_top.env.master_agent.mon [axi4_master_monitor] W data assembled: ID=0x9 ADDR=0x9272df3e 13 beats
# UVM_INFO ../src/mst/axi4_master_driver.sv(197) @ 4585000: uvm_test_top.env.master_agent.drv [axi4_master_driver] Write response: AXI4_RESP_OKAY
# UVM_INFO ../src/slv/axi4_slave_driver.sv(223) @ 4585000: uvm_test_top.env.slave_agent.drv [axi4_slave_driver] Write complete: ID=0x9  13 beats stored
# UVM_INFO ../src/mst/axi4_master_monitor.sv(210) @ 4585000: uvm_test_top.env.master_agent.mon [axi4_master_monitor] Write complete: ID=0x9 ADDR=0x9272df3e RESP=AXI4_RESP_OKAY
# UVM_INFO ../src/env/axi4_scoreboard.sv(82) @ 4585000: uvm_test_top.env.scb [axi4_scoreboard] Master AXI4_WRITE received: ID=0x9 ADDR=0x9272df3e LEN=12
# UVM_INFO ../src/slv/axi4_slave_monitor.sv(189) @ 4585000: uvm_test_top.env.slave_agent.mon [axi4_slave_monitor] Write response sent: ID=0x9 ADDR=0x9272df3e RESP=AXI4_RESP_OKAY
# UVM_INFO ../src/env/axi4_scoreboard.sv(103) @ 4585000: uvm_test_top.env.scb [axi4_scoreboard] Slave AXI4_WRITE received: ID=0x9 ADDR=0x9272df3e LEN=12
# UVM_INFO ../src/env/axi4_scoreboard.sv(154) @ 4585000: uvm_test_top.env.scb [axi4_scoreboard] [WRITE] MATCH #19: ID=0x9 ADDR=0x9272df3e LEN=12
# UVM_INFO ../src/seq/axi4_write_read_back_seq.sv(60) @ 4585000: uvm_test_top.env.master_agent.sqr@@wr_rd_seq_9 [axi4_write_read_back_seq] Write phase: ADDR=0x9272df3e LEN=12 SIZE=AXI4_SIZE_4B BURST=AXI4_BURST_INCR
# UVM_INFO ../src/mst/axi4_master_driver.sv(55) @ 4585000: uvm_test_top.env.master_agent.drv [axi4_master_driver] Driving AXI4_READ  ID=0x3  ADDR=0x9272df3e  LEN=12
# UVM_INFO ../src/slv/axi4_slave_driver.sv(259) @ 4615000: uvm_test_top.env.slave_agent.drv [axi4_slave_driver] AR received: ID=0x3 ADDR=0x9272df3e LEN=12
# UVM_INFO ../src/slv/axi4_slave_monitor.sv(224) @ 4615000: uvm_test_top.env.slave_agent.mon [axi4_slave_monitor] AR received: ID=0x3 ADDR=0x9272df3e LEN=12
# UVM_INFO ../src/mst/axi4_master_monitor.sv(246) @ 4615000: uvm_test_top.env.master_agent.mon [axi4_master_monitor] AR observed: ID=0x3 ADDR=0x9272df3e LEN=12
# UVM_INFO ../src/mst/axi4_master_driver.sv(254) @ 4875000: uvm_test_top.env.master_agent.drv [axi4_master_driver] Read complete: 13 beats received
# UVM_INFO ../src/slv/axi4_slave_driver.sv(293) @ 4875000: uvm_test_top.env.slave_agent.drv [axi4_slave_driver] Read complete: ID=0x3  13 beats sent
# UVM_INFO ../src/slv/axi4_slave_monitor.sv(287) @ 4875000: uvm_test_top.env.slave_agent.mon [axi4_slave_monitor] Read data sent: ID=0x3 ADDR=0x9272df3e 13 beats
# UVM_INFO ../src/env/axi4_scoreboard.sv(103) @ 4875000: uvm_test_top.env.scb [axi4_scoreboard] Slave AXI4_READ received: ID=0x3 ADDR=0x9272df3e LEN=12
# UVM_INFO ../src/mst/axi4_master_monitor.sv(314) @ 4875000: uvm_test_top.env.master_agent.mon [axi4_master_monitor] Read complete: ID=0x3 ADDR=0x9272df3e 13 beats
# UVM_INFO ../src/env/axi4_scoreboard.sv(82) @ 4875000: uvm_test_top.env.scb [axi4_scoreboard] Master AXI4_READ received: ID=0x3 ADDR=0x9272df3e LEN=12
# UVM_INFO ../src/env/axi4_scoreboard.sv(154) @ 4875000: uvm_test_top.env.scb [axi4_scoreboard] [READ] MATCH #20: ID=0x3 ADDR=0x9272df3e LEN=12
# UVM_INFO ../src/seq/axi4_write_read_back_seq.sv(80) @ 4875000: uvm_test_top.env.master_agent.sqr@@wr_rd_seq_9 [axi4_write_read_back_seq] Read-back phase: ADDR=0x9272df3e LEN=12 - data integrity check via scoreboard
# UVM_INFO ../src/test/axi4_wr_rd_test.sv(62) @ 5375000: uvm_test_top [axi4_wr_rd_test] 10 write-read-back iterations complete
# UVM_INFO verilog_src/uvm-1.1d/src/base/uvm_objection.svh(1268) @ 5375000: reporter [TEST_DONE] 'run' phase is ready to proceed to the 'extract' phase
# UVM_INFO ../src/env/axi4_scoreboard.sv(218) @ 5375000: uvm_test_top.env.scb [axi4_scoreboard] 
# ========================================
#          SCOREBOARD SUMMARY
# ========================================
#   Master transactions : 20
#   Slave transactions  : 20
#   Matches             : 20
#   Mismatches          : 0
#   Unmatched master WR : 0
#   Unmatched master RD : 0
#   Unmatched slave  WR : 0
#   Unmatched slave  RD : 0
# ========================================
#   RESULT : PASS
# ========================================
# UVM_INFO ../src/test/axi4_base_test.sv(91) @ 5375000: uvm_test_top [axi4_wr_rd_test] 
# === TEST PASSED ===
# 
# 
# --- UVM Report Summary ---
# 
# ** Report counts by severity
# UVM_INFO :  304
# UVM_WARNING :    0
# UVM_ERROR :    0
# UVM_FATAL :    0
# ** Report counts by id
# [Questa UVM]     3
# [RNTST]     1
# [TB_TOP]     2
# [TEST_DONE]     1
# [TOP_TB]     1
# [UVMTOP]     1
# [axi4_master_agent]     1
# [axi4_master_driver]    51
# [axi4_master_monitor]    51
# [axi4_scoreboard]    61
# [axi4_slave_agent]     1
# [axi4_slave_driver]    41
# [axi4_slave_monitor]    51
# [axi4_vip_env]     5
# [axi4_wr_rd_test]    13
# [axi4_write_read_back_seq]    20
# ** Note: $finish    : /cadtools/mentor/Questa_10.6b/questasim/linux_x86_64/../verilog_src/uvm-1.1d/src/base/uvm_root.svh(430)
#    Time: 5375 ns  Iteration: 55  Instance: /tb_top
# Saving coverage database on exit...
# End time: 15:30:36 on Jun 04,2026, Elapsed time: 0:00:42
# Errors: 0, Warnings: 0
