# vsim -c -coverage -sv_seed 47727740 "+UVM_TESTNAME=axi4_wr_order_demo_test" "+UVM_VERBOSITY=UVM_HIGH" "+DUMP_VCD" -l ./report/logs/axi4_wr_order_demo_test_run_5_seed_47727740.log -do "coverage save -onexit ./report/coverage/axi4_wr_order_demo_test_run_5_seed_47727740.ucdb; run -all; quit -f" opt_tb_top 
# Start time: 14:43:48 on Jul 08,2026
# //  Questa Sim-64
# //  Version 10.6b linux_x86_64 May 25 2017
# //
# //  Copyright 1991-2017 Mentor Graphics Corporation
# //  All Rights Reserved.
# //
# //  QuestaSim and its associated documentation contain trade
# //  secrets and commercial or financial information that are the property of
# //  Mentor Graphics Corporation and are privileged, confidential,
# //  and exempt from disclosure under the Freedom of Information Act,
# //  5 U.S.C. Section 552. Furthermore, this information
# //  is prohibited from disclosure under the Trade Secrets Act,
# //  18 U.S.C. Section 1905.
# //
# Loading sv_std.std
# Loading work.axi4_if(fast)
# Loading mtiUvm.uvm_pkg
# Loading work.axi4_pkg(fast)
# Loading work.axi4_test_pkg(fast)
# Loading work.tb_top(fast)
# Loading work.axi4_if(fast)
# Loading work.axi4_sva(fast)
# Loading mtiUvm.questa_uvm_pkg(fast)
# Loading /cadtools/mentor/Questa_10.6b/questasim/uvm-1.1d/linux_x86_64/uvm_dpi.so
# coverage save -onexit ./report/coverage/axi4_wr_order_demo_test_run_5_seed_47727740.ucdb
#  run -all
# ----------------------------------------------------------------
# UVM-1.1d
# (C) 2007-2013 Mentor Graphics Corporation
# (C) 2007-2013 Cadence Design Systems, Inc.
# (C) 2006-2013 Synopsys, Inc.
# (C) 2011-2013 Cypress Semiconductor Corp.
# ----------------------------------------------------------------
# 
#   ***********       IMPORTANT RELEASE NOTES         ************
# 
#   You are using a version of the UVM library that has been compiled
#   with `UVM_NO_DEPRECATED undefined.
#   See http://www.eda.org/svdb/view.php?id=3313 for more details.
# 
#   You are using a version of the UVM library that has been compiled
#   with `UVM_OBJECT_MUST_HAVE_CONSTRUCTOR undefined.
#   See http://www.eda.org/svdb/view.php?id=3770 for more details.
# 
#       (Specify +UVM_NO_RELNOTES to turn off this notice)
# 
# UVM_INFO verilog_src/questa_uvm_pkg-1.2/src/questa_uvm_pkg.sv(215) @ 0: reporter [Questa UVM] QUESTA_UVM-1.2.3
# UVM_INFO verilog_src/questa_uvm_pkg-1.2/src/questa_uvm_pkg.sv(217) @ 0: reporter [Questa UVM]  questa_uvm::init(+struct)
# UVM_INFO ../src/tb_top.sv(147) @ 0: reporter [TB_TOP] Virtual interface set in config_db
# UVM_INFO @ 0: reporter [RNTST] Running test axi4_wr_order_demo_test...
# UVM_INFO ../src/tb_top.sv(161) @ 0: reporter [TB_TOP] Waveform VCD dumping enabled (axi4_vip.vcd)
# UVM_INFO ../src/env/axi4_vip_env.sv(83) @ 0: uvm_test_top.env [axi4_vip_env] slave_vif not set - reusing master_vif (passthrough mode)
# UVM_INFO ../src/env/axi4_vip_env.sv(93) @ 0: uvm_test_top.env [axi4_vip_env] Scoreboard created
# UVM_INFO ../src/env/axi4_vip_env.sv(100) @ 0: uvm_test_top.env [axi4_vip_env] Coverage collectors created
# UVM_INFO ../src/mst/axi4_master_agent.sv(69) @ 0: uvm_test_top.env.master_agent [axi4_master_agent] ACTIVE mode - driver + sequencer created
# UVM_INFO ../src/slv/axi4_slave_agent.sv(82) @ 0: uvm_test_top.env.slave_agent [axi4_slave_agent] ACTIVE mode - ready_delay=[0:0] resp_delay=[0:0]
# UVM_INFO ../src/env/axi4_vip_env.sv(116) @ 0: uvm_test_top.env [axi4_vip_env] Scoreboard connected: master_mon.ap -> scb, slave_mon.ap -> scb
# UVM_INFO ../src/env/axi4_vip_env.sv(124) @ 0: uvm_test_top.env [axi4_vip_env] Coverage connected: master_mon.ap -> master_cov, slave_mon.ap -> slave_cov
# UVM_INFO @ 0: reporter [UVMTOP] UVM testbench topology:
# ---------------------------------------------------------------
# Name                       Type                     Size  Value
# ---------------------------------------------------------------
# uvm_test_top               axi4_wr_order_demo_test  -     @475 
#   env                      axi4_vip_env             -     @490 
#     master_agent           axi4_master_agent        -     @505 
#       drv                  axi4_master_driver       -     @569 
#         rsp_port           uvm_analysis_port        -     @584 
#         seq_item_port      uvm_seq_item_pull_port   -     @576 
#       mon                  axi4_master_monitor      -     @561 
#         ap                 uvm_analysis_port        -     @702 
#       sqr                  axi4_master_sequencer    -     @592 
#         rsp_export         uvm_analysis_export      -     @599 
#         seq_item_export    uvm_seq_item_pull_imp    -     @693 
#         arbitration_queue  array                    0     -    
#         lock_queue         array                    0     -    
#         num_last_reqs      integral                 32    'd1  
#         num_last_rsps      integral                 32    'd1  
#     master_cov             axi4_coverage            -     @526 
#       analysis_imp         uvm_analysis_imp         -     @533 
#     scb                    axi4_scoreboard          -     @519 
#       master_export        uvm_analysis_imp_master  -     @716 
#       slave_export         uvm_analysis_imp_slave   -     @724 
#     slave_agent            axi4_slave_agent         -     @512 
#       drv                  axi4_slave_driver        -     @755 
#         rsp_port           uvm_analysis_port        -     @770 
#         seq_item_port      uvm_seq_item_pull_port   -     @762 
#       mon                  axi4_slave_monitor       -     @737 
#         ap                 uvm_analysis_port        -     @894 
#       sqr                  axi4_slave_sequencer     -     @778 
#         rsp_export         uvm_analysis_export      -     @785 
#         seq_item_export    uvm_seq_item_pull_imp    -     @879 
#         arbitration_queue  array                    0     -    
#         lock_queue         array                    0     -    
#         num_last_reqs      integral                 32    'd1  
#         num_last_rsps      integral                 32    'd1  
#     slave_cov              axi4_coverage            -     @541 
#       analysis_imp         uvm_analysis_imp         -     @548 
# ---------------------------------------------------------------
# 
# UVM_INFO verilog_src/questa_uvm_pkg-1.2/src/questa_uvm_pkg.sv(277) @ 0: reporter [Questa UVM] End Of Elaboration
# UVM_INFO ../src/test/axi4_wr_order_demo_test.sv(29) @ 0: uvm_test_top [axi4_wr_order_demo_test] Starting write channel ordering demo test (3 transactions)
# UVM_INFO ../src/seq/axi4_wr_order_demo_seq.sv(35) @ 0: uvm_test_top.env.master_agent.sqr@@wr_order_seq [axi4_wr_order_demo_seq] Starting write channel ordering demo sequence (3 transactions)
# UVM_INFO ../src/tb_top.sv(49) @ 95000: reporter [TOP_TB] Reset de-asserted
# UVM_INFO ../src/slv/axi4_slave_driver.sv(131) @ 95000: uvm_test_top.env.slave_agent.drv [axi4_slave_driver] Reset deasserted - slave driver active
# UVM_INFO ../src/mst/axi4_master_driver.sv(64) @ 95000: uvm_test_top.env.master_agent.drv [axi4_master_driver] Reset deasserted - master driver active
# UVM_INFO ../src/mst/axi4_master_monitor.sv(77) @ 95000: uvm_test_top.env.master_agent.mon [axi4_master_monitor] Reset deasserted - monitor active
# UVM_INFO ../src/slv/axi4_slave_monitor.sv(71) @ 95000: uvm_test_top.env.slave_agent.mon [axi4_slave_monitor] Reset deasserted - monitor active
# UVM_INFO ../src/mst/axi4_master_driver.sv(73) @ 95000: uvm_test_top.env.master_agent.drv [axi4_master_driver] Driving AXI4_WRITE  ID=0x1  ADDR=0x00001000  LEN=3
# UVM_INFO ../src/slv/axi4_slave_driver.sv(228) @ 115000: uvm_test_top.env.slave_agent.drv [axi4_slave_driver] AW received: ID=0x1 ADDR=0x00001000 LEN=3 LOCK=AXI4_LOCK_EXCLUSIVE
# UVM_INFO ../src/slv/axi4_slave_monitor.sv(116) @ 115000: uvm_test_top.env.slave_agent.mon [axi4_slave_monitor] AW received: ID=0x1 ADDR=0x00001000 LEN=3
# UVM_INFO ../src/mst/axi4_master_monitor.sv(124) @ 115000: uvm_test_top.env.master_agent.mon [axi4_master_monitor] AW observed: ID=0x1 ADDR=0x00001000 LEN=3
# UVM_INFO ../src/mst/axi4_master_monitor.sv(184) @ 165000: uvm_test_top.env.master_agent.mon [axi4_master_monitor] W data assembled: ID=0x1 ADDR=0x00001000 4 beats
# UVM_INFO ../src/slv/axi4_slave_monitor.sv(167) @ 165000: uvm_test_top.env.slave_agent.mon [axi4_slave_monitor] W data assembled: ID=0x1 ADDR=0x00001000 4 beats
# UVM_INFO ../src/mst/axi4_master_driver.sv(289) @ 195000: uvm_test_top.env.master_agent.drv [axi4_master_driver] Master driver received B response: ID=0x1 RESP=AXI4_RESP_OKAY
# UVM_INFO ../src/slv/axi4_slave_driver.sv(348) @ 195000: uvm_test_top.env.slave_agent.drv [axi4_slave_driver] Write complete: ID=0x1 RESP=AXI4_RESP_OKAY
# UVM_INFO ../src/slv/axi4_slave_monitor.sv(189) @ 195000: uvm_test_top.env.slave_agent.mon [axi4_slave_monitor] Write response sent: ID=0x1 ADDR=0x00001000 RESP=AXI4_RESP_OKAY
# UVM_INFO ../src/env/axi4_scoreboard.sv(108) @ 195000: uvm_test_top.env.scb [axi4_scoreboard] Slave AXI4_WRITE received: ID=0x1 ADDR=0x00001000 LEN=3
# UVM_INFO ../src/mst/axi4_master_monitor.sv(210) @ 195000: uvm_test_top.env.master_agent.mon [axi4_master_monitor] Write complete: ID=0x1 ADDR=0x00001000 RESP=AXI4_RESP_OKAY
# UVM_INFO ../src/env/axi4_scoreboard.sv(87) @ 195000: uvm_test_top.env.scb [axi4_scoreboard] Master AXI4_WRITE received: ID=0x1 ADDR=0x00001000 LEN=3
# UVM_INFO ../src/env/axi4_scoreboard.sv(291) @ 195000: uvm_test_top.env.scb [axi4_scoreboard] [WRITE] MATCH #1: ID=0x1 ADDR=0x00001000 LEN=3
# UVM_INFO ../src/env/axi4_scoreboard.sv(226) @ 195000: uvm_test_top.env.scb [axi4_scoreboard] [REF_MEM_WRITE_IGNORED] Write ignored for ADDR=0x00001000 LOCK=AXI4_LOCK_EXCLUSIVE RESP=AXI4_RESP_OKAY
# UVM_INFO ../src/seq/axi4_wr_order_demo_seq.sv(60) @ 195000: uvm_test_top.env.master_agent.sqr@@wr_order_seq [axi4_wr_order_demo_seq] TX1 [PARALLEL] done: ADDR=0x00001000 LEN=3 RESP=AXI4_RESP_OKAY
# UVM_INFO ../src/mst/axi4_master_driver.sv(73) @ 195000: uvm_test_top.env.master_agent.drv [axi4_master_driver] Driving AXI4_WRITE  ID=0x2  ADDR=0x00002000  LEN=3
# UVM_INFO ../src/slv/axi4_slave_driver.sv(228) @ 225000: uvm_test_top.env.slave_agent.drv [axi4_slave_driver] AW received: ID=0x2 ADDR=0x00002000 LEN=3 LOCK=AXI4_LOCK_NORMAL
# UVM_INFO ../src/mst/axi4_master_monitor.sv(124) @ 225000: uvm_test_top.env.master_agent.mon [axi4_master_monitor] AW observed: ID=0x2 ADDR=0x00002000 LEN=3
# UVM_INFO ../src/slv/axi4_slave_monitor.sv(116) @ 225000: uvm_test_top.env.slave_agent.mon [axi4_slave_monitor] AW received: ID=0x2 ADDR=0x00002000 LEN=3
# UVM_INFO ../src/mst/axi4_master_monitor.sv(184) @ 305000: uvm_test_top.env.master_agent.mon [axi4_master_monitor] W data assembled: ID=0x2 ADDR=0x00002000 4 beats
# UVM_INFO ../src/slv/axi4_slave_monitor.sv(167) @ 305000: uvm_test_top.env.slave_agent.mon [axi4_slave_monitor] W data assembled: ID=0x2 ADDR=0x00002000 4 beats
# UVM_INFO ../src/mst/axi4_master_driver.sv(289) @ 335000: uvm_test_top.env.master_agent.drv [axi4_master_driver] Master driver received B response: ID=0x2 RESP=AXI4_RESP_OKAY
# UVM_INFO ../src/slv/axi4_slave_driver.sv(348) @ 335000: uvm_test_top.env.slave_agent.drv [axi4_slave_driver] Write complete: ID=0x2 RESP=AXI4_RESP_OKAY
# UVM_INFO ../src/slv/axi4_slave_monitor.sv(189) @ 335000: uvm_test_top.env.slave_agent.mon [axi4_slave_monitor] Write response sent: ID=0x2 ADDR=0x00002000 RESP=AXI4_RESP_OKAY
# UVM_INFO ../src/env/axi4_scoreboard.sv(108) @ 335000: uvm_test_top.env.scb [axi4_scoreboard] Slave AXI4_WRITE received: ID=0x2 ADDR=0x00002000 LEN=3
# UVM_INFO ../src/mst/axi4_master_monitor.sv(210) @ 335000: uvm_test_top.env.master_agent.mon [axi4_master_monitor] Write complete: ID=0x2 ADDR=0x00002000 RESP=AXI4_RESP_OKAY
# UVM_INFO ../src/env/axi4_scoreboard.sv(87) @ 335000: uvm_test_top.env.scb [axi4_scoreboard] Master AXI4_WRITE received: ID=0x2 ADDR=0x00002000 LEN=3
# UVM_INFO ../src/env/axi4_scoreboard.sv(291) @ 335000: uvm_test_top.env.scb [axi4_scoreboard] [WRITE] MATCH #2: ID=0x2 ADDR=0x00002000 LEN=3
# UVM_INFO ../src/env/axi4_scoreboard.sv(219) @ 335000: uvm_test_top.env.scb [axi4_scoreboard] [REF_MEM_WRITE] Addr=0x00002000 Data=0xbf
# UVM_INFO ../src/env/axi4_scoreboard.sv(219) @ 335000: uvm_test_top.env.scb [axi4_scoreboard] [REF_MEM_WRITE] Addr=0x00002001 Data=0xea
# UVM_INFO ../src/env/axi4_scoreboard.sv(219) @ 335000: uvm_test_top.env.scb [axi4_scoreboard] [REF_MEM_WRITE] Addr=0x00002002 Data=0x85
# UVM_INFO ../src/env/axi4_scoreboard.sv(219) @ 335000: uvm_test_top.env.scb [axi4_scoreboard] [REF_MEM_WRITE] Addr=0x00002003 Data=0x77
# UVM_INFO ../src/env/axi4_scoreboard.sv(219) @ 335000: uvm_test_top.env.scb [axi4_scoreboard] [REF_MEM_WRITE] Addr=0x00002004 Data=0x37
# UVM_INFO ../src/env/axi4_scoreboard.sv(219) @ 335000: uvm_test_top.env.scb [axi4_scoreboard] [REF_MEM_WRITE] Addr=0x00002005 Data=0x25
# UVM_INFO ../src/env/axi4_scoreboard.sv(219) @ 335000: uvm_test_top.env.scb [axi4_scoreboard] [REF_MEM_WRITE] Addr=0x00002006 Data=0x1d
# UVM_INFO ../src/env/axi4_scoreboard.sv(219) @ 335000: uvm_test_top.env.scb [axi4_scoreboard] [REF_MEM_WRITE] Addr=0x00002007 Data=0x15
# UVM_INFO ../src/env/axi4_scoreboard.sv(219) @ 335000: uvm_test_top.env.scb [axi4_scoreboard] [REF_MEM_WRITE] Addr=0x00002008 Data=0x6b
# UVM_INFO ../src/env/axi4_scoreboard.sv(219) @ 335000: uvm_test_top.env.scb [axi4_scoreboard] [REF_MEM_WRITE] Addr=0x00002009 Data=0x01
# UVM_INFO ../src/env/axi4_scoreboard.sv(219) @ 335000: uvm_test_top.env.scb [axi4_scoreboard] [REF_MEM_WRITE] Addr=0x0000200a Data=0x15
# UVM_INFO ../src/env/axi4_scoreboard.sv(219) @ 335000: uvm_test_top.env.scb [axi4_scoreboard] [REF_MEM_WRITE] Addr=0x0000200b Data=0xf8
# UVM_INFO ../src/env/axi4_scoreboard.sv(219) @ 335000: uvm_test_top.env.scb [axi4_scoreboard] [REF_MEM_WRITE] Addr=0x0000200c Data=0x4f
# UVM_INFO ../src/env/axi4_scoreboard.sv(219) @ 335000: uvm_test_top.env.scb [axi4_scoreboard] [REF_MEM_WRITE] Addr=0x0000200d Data=0xb5
# UVM_INFO ../src/env/axi4_scoreboard.sv(219) @ 335000: uvm_test_top.env.scb [axi4_scoreboard] [REF_MEM_WRITE] Addr=0x0000200e Data=0xe5
# UVM_INFO ../src/env/axi4_scoreboard.sv(219) @ 335000: uvm_test_top.env.scb [axi4_scoreboard] [REF_MEM_WRITE] Addr=0x0000200f Data=0xe5
# UVM_INFO ../src/seq/axi4_wr_order_demo_seq.sv(86) @ 335000: uvm_test_top.env.master_agent.sqr@@wr_order_seq [axi4_wr_order_demo_seq] TX2 [AW_BEFORE_W] done: ADDR=0x00002000 LEN=3 RESP=AXI4_RESP_OKAY
# UVM_INFO ../src/mst/axi4_master_driver.sv(73) @ 335000: uvm_test_top.env.master_agent.drv [axi4_master_driver] Driving AXI4_WRITE  ID=0x3  ADDR=0x00003000  LEN=3
# UVM_INFO ../src/slv/axi4_slave_driver.sv(228) @ 385000: uvm_test_top.env.slave_agent.drv [axi4_slave_driver] AW received: ID=0x3 ADDR=0x00003000 LEN=3 LOCK=AXI4_LOCK_NORMAL
# UVM_INFO ../src/mst/axi4_master_monitor.sv(124) @ 385000: uvm_test_top.env.master_agent.mon [axi4_master_monitor] AW observed: ID=0x3 ADDR=0x00003000 LEN=3
# UVM_INFO ../src/slv/axi4_slave_monitor.sv(116) @ 385000: uvm_test_top.env.slave_agent.mon [axi4_slave_monitor] AW received: ID=0x3 ADDR=0x00003000 LEN=3
# UVM_INFO ../src/slv/axi4_slave_monitor.sv(167) @ 415000: uvm_test_top.env.slave_agent.mon [axi4_slave_monitor] W data assembled: ID=0x3 ADDR=0x00003000 4 beats
# UVM_INFO ../src/mst/axi4_master_monitor.sv(184) @ 415000: uvm_test_top.env.master_agent.mon [axi4_master_monitor] W data assembled: ID=0x3 ADDR=0x00003000 4 beats
# UVM_INFO ../src/mst/axi4_master_driver.sv(289) @ 445000: uvm_test_top.env.master_agent.drv [axi4_master_driver] Master driver received B response: ID=0x3 RESP=AXI4_RESP_OKAY
# UVM_INFO ../src/slv/axi4_slave_driver.sv(348) @ 445000: uvm_test_top.env.slave_agent.drv [axi4_slave_driver] Write complete: ID=0x3 RESP=AXI4_RESP_OKAY
# UVM_INFO ../src/mst/axi4_master_monitor.sv(210) @ 445000: uvm_test_top.env.master_agent.mon [axi4_master_monitor] Write complete: ID=0x3 ADDR=0x00003000 RESP=AXI4_RESP_OKAY
# UVM_INFO ../src/env/axi4_scoreboard.sv(87) @ 445000: uvm_test_top.env.scb [axi4_scoreboard] Master AXI4_WRITE received: ID=0x3 ADDR=0x00003000 LEN=3
# UVM_INFO ../src/slv/axi4_slave_monitor.sv(189) @ 445000: uvm_test_top.env.slave_agent.mon [axi4_slave_monitor] Write response sent: ID=0x3 ADDR=0x00003000 RESP=AXI4_RESP_OKAY
# UVM_INFO ../src/env/axi4_scoreboard.sv(108) @ 445000: uvm_test_top.env.scb [axi4_scoreboard] Slave AXI4_WRITE received: ID=0x3 ADDR=0x00003000 LEN=3
# UVM_INFO ../src/env/axi4_scoreboard.sv(291) @ 445000: uvm_test_top.env.scb [axi4_scoreboard] [WRITE] MATCH #3: ID=0x3 ADDR=0x00003000 LEN=3
# UVM_INFO ../src/env/axi4_scoreboard.sv(219) @ 445000: uvm_test_top.env.scb [axi4_scoreboard] [REF_MEM_WRITE] Addr=0x00003000 Data=0xbb
# UVM_INFO ../src/env/axi4_scoreboard.sv(219) @ 445000: uvm_test_top.env.scb [axi4_scoreboard] [REF_MEM_WRITE] Addr=0x00003001 Data=0xe4
# UVM_INFO ../src/env/axi4_scoreboard.sv(219) @ 445000: uvm_test_top.env.scb [axi4_scoreboard] [REF_MEM_WRITE] Addr=0x00003002 Data=0xa3
# UVM_INFO ../src/env/axi4_scoreboard.sv(219) @ 445000: uvm_test_top.env.scb [axi4_scoreboard] [REF_MEM_WRITE] Addr=0x00003003 Data=0xa8
# UVM_INFO ../src/env/axi4_scoreboard.sv(219) @ 445000: uvm_test_top.env.scb [axi4_scoreboard] [REF_MEM_WRITE] Addr=0x00003004 Data=0xb0
# UVM_INFO ../src/env/axi4_scoreboard.sv(219) @ 445000: uvm_test_top.env.scb [axi4_scoreboard] [REF_MEM_WRITE] Addr=0x00003005 Data=0x49
# UVM_INFO ../src/env/axi4_scoreboard.sv(219) @ 445000: uvm_test_top.env.scb [axi4_scoreboard] [REF_MEM_WRITE] Addr=0x00003006 Data=0x23
# UVM_INFO ../src/env/axi4_scoreboard.sv(219) @ 445000: uvm_test_top.env.scb [axi4_scoreboard] [REF_MEM_WRITE] Addr=0x00003007 Data=0x9b
# UVM_INFO ../src/env/axi4_scoreboard.sv(219) @ 445000: uvm_test_top.env.scb [axi4_scoreboard] [REF_MEM_WRITE] Addr=0x00003008 Data=0x2d
# UVM_INFO ../src/env/axi4_scoreboard.sv(219) @ 445000: uvm_test_top.env.scb [axi4_scoreboard] [REF_MEM_WRITE] Addr=0x00003009 Data=0x2a
# UVM_INFO ../src/env/axi4_scoreboard.sv(219) @ 445000: uvm_test_top.env.scb [axi4_scoreboard] [REF_MEM_WRITE] Addr=0x0000300a Data=0x94
# UVM_INFO ../src/env/axi4_scoreboard.sv(219) @ 445000: uvm_test_top.env.scb [axi4_scoreboard] [REF_MEM_WRITE] Addr=0x0000300b Data=0xb8
# UVM_INFO ../src/env/axi4_scoreboard.sv(219) @ 445000: uvm_test_top.env.scb [axi4_scoreboard] [REF_MEM_WRITE] Addr=0x0000300c Data=0x70
# UVM_INFO ../src/env/axi4_scoreboard.sv(219) @ 445000: uvm_test_top.env.scb [axi4_scoreboard] [REF_MEM_WRITE] Addr=0x0000300d Data=0x89
# UVM_INFO ../src/env/axi4_scoreboard.sv(219) @ 445000: uvm_test_top.env.scb [axi4_scoreboard] [REF_MEM_WRITE] Addr=0x0000300e Data=0x27
# UVM_INFO ../src/env/axi4_scoreboard.sv(219) @ 445000: uvm_test_top.env.scb [axi4_scoreboard] [REF_MEM_WRITE] Addr=0x0000300f Data=0x3c
# UVM_INFO ../src/seq/axi4_wr_order_demo_seq.sv(111) @ 445000: uvm_test_top.env.master_agent.sqr@@wr_order_seq [axi4_wr_order_demo_seq] TX3 [W_BEFORE_AW] done: ADDR=0x00003000 LEN=3 RESP=AXI4_RESP_OKAY
# UVM_INFO ../src/seq/axi4_wr_order_demo_seq.sv(115) @ 445000: uvm_test_top.env.master_agent.sqr@@wr_order_seq [axi4_wr_order_demo_seq] Write channel ordering demo complete (3/3 transactions sent)
# UVM_INFO ../src/test/axi4_wr_order_demo_test.sv(38) @ 945000: uvm_test_top [axi4_wr_order_demo_test] Write channel ordering demo test complete
# UVM_INFO verilog_src/uvm-1.1d/src/base/uvm_objection.svh(1268) @ 945000: reporter [TEST_DONE] 'run' phase is ready to proceed to the 'extract' phase
# UVM_INFO ../src/env/axi4_scoreboard.sv(360) @ 945000: uvm_test_top.env.scb [axi4_scoreboard] 
# ========================================
#          SCOREBOARD SUMMARY
# ========================================
#   Master transactions : 3
#   Slave transactions  : 3
#   Matches             : 3
#   Mismatches          : 0
#   Unmatched master WR : 0
#   Unmatched master RD : 0
#   Unmatched slave  WR : 0
#   Unmatched slave  RD : 0
# ========================================
#   RESULT : PASS
# ========================================
# UVM_INFO ../src/test/axi4_base_test.sv(91) @ 945000: uvm_test_top [axi4_wr_order_demo_test] 
# === TEST PASSED ===
# 
# 
# --- UVM Report Summary ---
# 
# ** Report counts by severity
# UVM_INFO :  101
# UVM_WARNING :    0
# UVM_ERROR :    0
# UVM_FATAL :    0
# ** Report counts by id
# [Questa UVM]     3
# [RNTST]     1
# [TB_TOP]     2
# [TEST_DONE]     1
# [TOP_TB]     1
# [UVMTOP]     1
# [axi4_master_agent]     1
# [axi4_master_driver]     7
# [axi4_master_monitor]    10
# [axi4_scoreboard]    43
# [axi4_slave_agent]     1
# [axi4_slave_driver]     7
# [axi4_slave_monitor]    10
# [axi4_vip_env]     5
# [axi4_wr_order_demo_seq]     5
# [axi4_wr_order_demo_test]     3
# ** Note: $finish    : /cadtools/mentor/Questa_10.6b/questasim/linux_x86_64/../verilog_src/uvm-1.1d/src/base/uvm_root.svh(430)
#    Time: 945 ns  Iteration: 55  Instance: /tb_top
# Saving coverage database on exit...
# End time: 14:43:50 on Jul 08,2026, Elapsed time: 0:00:02
# Errors: 0, Warnings: 0
