# vsim -c -coverage -sv_seed 46902272 "+UVM_TESTNAME=axi4_backpressure_test" "+UVM_VERBOSITY=UVM_HIGH" "+DUMP_VCD" -l ./report/logs/axi4_backpressure_test_run_4_seed_46902272.log -do "coverage save -onexit ./report/coverage/axi4_backpressure_test_run_4_seed_46902272.ucdb; run -all; quit -f" opt_tb_top 
# Start time: 14:27:03 on Jul 06,2026
# //  Questa Sim-64
# //  Version 10.6b linux_x86_64 May 25 2017
# //
# //  Copyright 1991-2017 Mentor Graphics Corporation
# //  All Rights Reserved.
# //
# //  QuestaSim and its associated documentation contain trade
# //  secrets and commercial or financial information that are the property of
# //  Mentor Graphics Corporation and are privileged, confidential,
# //  and exempt from disclosure under the Freedom of Information Act,
# //  5 U.S.C. Section 552. Furthermore, this information
# //  is prohibited from disclosure under the Trade Secrets Act,
# //  18 U.S.C. Section 1905.
# //
# Loading sv_std.std
# Loading work.axi4_if(fast)
# Loading mtiUvm.uvm_pkg
# Loading work.axi4_pkg(fast)
# Loading work.axi4_test_pkg(fast)
# Loading work.tb_top(fast)
# Loading work.axi4_if(fast)
# Loading work.axi4_sva(fast)
# Loading mtiUvm.questa_uvm_pkg(fast)
# Loading /cadtools/mentor/Questa_10.6b/questasim/uvm-1.1d/linux_x86_64/uvm_dpi.so
# coverage save -onexit ./report/coverage/axi4_backpressure_test_run_4_seed_46902272.ucdb
#  run -all
# ----------------------------------------------------------------
# UVM-1.1d
# (C) 2007-2013 Mentor Graphics Corporation
# (C) 2007-2013 Cadence Design Systems, Inc.
# (C) 2006-2013 Synopsys, Inc.
# (C) 2011-2013 Cypress Semiconductor Corp.
# ----------------------------------------------------------------
# 
#   ***********       IMPORTANT RELEASE NOTES         ************
# 
#   You are using a version of the UVM library that has been compiled
#   with `UVM_NO_DEPRECATED undefined.
#   See http://www.eda.org/svdb/view.php?id=3313 for more details.
# 
#   You are using a version of the UVM library that has been compiled
#   with `UVM_OBJECT_MUST_HAVE_CONSTRUCTOR undefined.
#   See http://www.eda.org/svdb/view.php?id=3770 for more details.
# 
#       (Specify +UVM_NO_RELNOTES to turn off this notice)
# 
# UVM_INFO verilog_src/questa_uvm_pkg-1.2/src/questa_uvm_pkg.sv(215) @ 0: reporter [Questa UVM] QUESTA_UVM-1.2.3
# UVM_INFO verilog_src/questa_uvm_pkg-1.2/src/questa_uvm_pkg.sv(217) @ 0: reporter [Questa UVM]  questa_uvm::init(+struct)
# UVM_INFO ../src/tb_top.sv(147) @ 0: reporter [TB_TOP] Virtual interface set in config_db
# UVM_INFO @ 0: reporter [RNTST] Running test axi4_backpressure_test...
# UVM_INFO ../src/tb_top.sv(161) @ 0: reporter [TB_TOP] Waveform VCD dumping enabled (axi4_vip.vcd)
# UVM_INFO ../src/env/axi4_vip_env.sv(83) @ 0: uvm_test_top.env [axi4_vip_env] slave_vif not set - reusing master_vif (passthrough mode)
# UVM_INFO ../src/env/axi4_vip_env.sv(93) @ 0: uvm_test_top.env [axi4_vip_env] Scoreboard created
# UVM_INFO ../src/env/axi4_vip_env.sv(100) @ 0: uvm_test_top.env [axi4_vip_env] Coverage collectors created
# UVM_INFO ../src/mst/axi4_master_agent.sv(69) @ 0: uvm_test_top.env.master_agent [axi4_master_agent] ACTIVE mode - driver + sequencer created
# UVM_INFO ../src/slv/axi4_slave_agent.sv(82) @ 0: uvm_test_top.env.slave_agent [axi4_slave_agent] ACTIVE mode — ready_delay=[3:8] resp_delay=[2:6]
# UVM_INFO ../src/env/axi4_vip_env.sv(116) @ 0: uvm_test_top.env [axi4_vip_env] Scoreboard connected: master_mon.ap -> scb, slave_mon.ap -> scb
# UVM_INFO ../src/env/axi4_vip_env.sv(124) @ 0: uvm_test_top.env [axi4_vip_env] Coverage connected: master_mon.ap -> master_cov, slave_mon.ap -> slave_cov
# UVM_INFO @ 0: reporter [UVMTOP] UVM testbench topology:
# ---------------------------------------------------------------
# Name                       Type                     Size  Value
# ---------------------------------------------------------------
# uvm_test_top               axi4_backpressure_test   -     @475 
#   env                      axi4_vip_env             -     @490 
#     master_agent           axi4_master_agent        -     @505 
#       drv                  axi4_master_driver       -     @569 
#         rsp_port           uvm_analysis_port        -     @584 
#         seq_item_port      uvm_seq_item_pull_port   -     @576 
#       mon                  axi4_master_monitor      -     @561 
#         ap                 uvm_analysis_port        -     @702 
#       sqr                  axi4_master_sequencer    -     @592 
#         rsp_export         uvm_analysis_export      -     @599 
#         seq_item_export    uvm_seq_item_pull_imp    -     @693 
#         arbitration_queue  array                    0     -    
#         lock_queue         array                    0     -    
#         num_last_reqs      integral                 32    'd1  
#         num_last_rsps      integral                 32    'd1  
#     master_cov             axi4_coverage            -     @526 
#       analysis_imp         uvm_analysis_imp         -     @533 
#     scb                    axi4_scoreboard          -     @519 
#       master_export        uvm_analysis_imp_master  -     @716 
#       slave_export         uvm_analysis_imp_slave   -     @724 
#     slave_agent            axi4_slave_agent         -     @512 
#       drv                  axi4_slave_driver        -     @755 
#         rsp_port           uvm_analysis_port        -     @770 
#         seq_item_port      uvm_seq_item_pull_port   -     @762 
#       mon                  axi4_slave_monitor       -     @737 
#         ap                 uvm_analysis_port        -     @894 
#       sqr                  axi4_slave_sequencer     -     @778 
#         rsp_export         uvm_analysis_export      -     @785 
#         seq_item_export    uvm_seq_item_pull_imp    -     @879 
#         arbitration_queue  array                    0     -    
#         lock_queue         array                    0     -    
#         num_last_reqs      integral                 32    'd1  
#         num_last_rsps      integral                 32    'd1  
#     slave_cov              axi4_coverage            -     @541 
#       analysis_imp         uvm_analysis_imp         -     @548 
# ---------------------------------------------------------------
# 
# UVM_INFO verilog_src/questa_uvm_pkg-1.2/src/questa_uvm_pkg.sv(277) @ 0: reporter [Questa UVM] End Of Elaboration
# UVM_INFO ../src/test/axi4_backpressure_test.sv(44) @ 0: uvm_test_top [axi4_backpressure_test] Starting back-pressure stress test (slave ready_delay=[3:8], resp_delay=[2:6])
# UVM_INFO ../src/seq/axi4_random_seq.sv(37) @ 0: uvm_test_top.env.master_agent.sqr@@bp_seq [axi4_random_seq] Starting random sequence: 40 transactions
# UVM_INFO ../src/tb_top.sv(49) @ 95000: reporter [TOP_TB] Reset de-asserted
# UVM_INFO ../src/slv/axi4_slave_driver.sv(131) @ 95000: uvm_test_top.env.slave_agent.drv [axi4_slave_driver] Reset deasserted - slave driver active
# UVM_INFO ../src/mst/axi4_master_driver.sv(64) @ 95000: uvm_test_top.env.master_agent.drv [axi4_master_driver] Reset deasserted - master driver active
# UVM_INFO ../src/mst/axi4_master_monitor.sv(77) @ 95000: uvm_test_top.env.master_agent.mon [axi4_master_monitor] Reset deasserted - monitor active
# UVM_INFO ../src/slv/axi4_slave_monitor.sv(71) @ 95000: uvm_test_top.env.slave_agent.mon [axi4_slave_monitor] Reset deasserted - monitor active
# UVM_INFO ../src/mst/axi4_master_driver.sv(73) @ 95000: uvm_test_top.env.master_agent.drv [axi4_master_driver] Driving AXI4_WRITE  ID=0x9  ADDR=0xb221ddd2  LEN=7
# UVM_INFO ../src/seq/axi4_random_seq.sv(58) @ 95000: uvm_test_top.env.master_agent.sqr@@bp_seq [axi4_random_seq] [1/40] AXI4_WRITE: ID=0x9 ADDR=0xb221ddd2 LEN=7 BURST=AXI4_BURST_WRAP
# UVM_INFO ../src/mst/axi4_master_driver.sv(73) @ 95000: uvm_test_top.env.master_agent.drv [axi4_master_driver] Driving AXI4_WRITE  ID=0x7  ADDR=0xb3b258a7  LEN=129
# UVM_INFO ../src/seq/axi4_random_seq.sv(58) @ 95000: uvm_test_top.env.master_agent.sqr@@bp_seq [axi4_random_seq] [2/40] AXI4_WRITE: ID=0x7 ADDR=0xb3b258a7 LEN=129 BURST=AXI4_BURST_INCR
# UVM_INFO ../src/mst/axi4_master_driver.sv(73) @ 95000: uvm_test_top.env.master_agent.drv [axi4_master_driver] Driving AXI4_WRITE  ID=0x4  ADDR=0x7ac939b4  LEN=14
# UVM_INFO ../src/seq/axi4_random_seq.sv(58) @ 95000: uvm_test_top.env.master_agent.sqr@@bp_seq [axi4_random_seq] [3/40] AXI4_WRITE: ID=0x4 ADDR=0x7ac939b4 LEN=14 BURST=AXI4_BURST_FIXED
# UVM_INFO ../src/mst/axi4_master_driver.sv(73) @ 95000: uvm_test_top.env.master_agent.drv [axi4_master_driver] Driving AXI4_WRITE  ID=0x8  ADDR=0xf2323a15  LEN=211
# UVM_INFO ../src/seq/axi4_random_seq.sv(58) @ 95000: uvm_test_top.env.master_agent.sqr@@bp_seq [axi4_random_seq] [4/40] AXI4_WRITE: ID=0x8 ADDR=0xf2323a15 LEN=211 BURST=AXI4_BURST_INCR
# UVM_INFO ../src/mst/axi4_master_driver.sv(73) @ 95000: uvm_test_top.env.master_agent.drv [axi4_master_driver] Driving AXI4_READ  ID=0xd  ADDR=0xa2068a9e  LEN=27
# UVM_INFO ../src/seq/axi4_random_seq.sv(58) @ 95000: uvm_test_top.env.master_agent.sqr@@bp_seq [axi4_random_seq] [5/40] AXI4_READ: ID=0xd ADDR=0xa2068a9e LEN=27 BURST=AXI4_BURST_INCR
# UVM_INFO ../src/mst/axi4_master_driver.sv(73) @ 95000: uvm_test_top.env.master_agent.drv [axi4_master_driver] Driving AXI4_READ  ID=0x1  ADDR=0x3865be81  LEN=235
# UVM_INFO ../src/seq/axi4_random_seq.sv(58) @ 95000: uvm_test_top.env.master_agent.sqr@@bp_seq [axi4_random_seq] [6/40] AXI4_READ: ID=0x1 ADDR=0x3865be81 LEN=235 BURST=AXI4_BURST_INCR
# UVM_INFO ../src/mst/axi4_master_driver.sv(73) @ 95000: uvm_test_top.env.master_agent.drv [axi4_master_driver] Driving AXI4_WRITE  ID=0x0  ADDR=0xaee6df7d  LEN=193
# UVM_INFO ../src/seq/axi4_random_seq.sv(58) @ 95000: uvm_test_top.env.master_agent.sqr@@bp_seq [axi4_random_seq] [7/40] AXI4_WRITE: ID=0x0 ADDR=0xaee6df7d LEN=193 BURST=AXI4_BURST_INCR
# UVM_INFO ../src/mst/axi4_master_driver.sv(73) @ 95000: uvm_test_top.env.master_agent.drv [axi4_master_driver] Driving AXI4_WRITE  ID=0x4  ADDR=0xb97a6fca  LEN=216
# UVM_INFO ../src/seq/axi4_random_seq.sv(58) @ 95000: uvm_test_top.env.master_agent.sqr@@bp_seq [axi4_random_seq] [8/40] AXI4_WRITE: ID=0x4 ADDR=0xb97a6fca LEN=216 BURST=AXI4_BURST_INCR
# UVM_INFO ../src/mst/axi4_master_driver.sv(73) @ 95000: uvm_test_top.env.master_agent.drv [axi4_master_driver] Driving AXI4_WRITE  ID=0xd  ADDR=0xe4af4766  LEN=171
# UVM_INFO ../src/seq/axi4_random_seq.sv(58) @ 95000: uvm_test_top.env.master_agent.sqr@@bp_seq [axi4_random_seq] [9/40] AXI4_WRITE: ID=0xd ADDR=0xe4af4766 LEN=171 BURST=AXI4_BURST_INCR
# UVM_INFO ../src/mst/axi4_master_driver.sv(73) @ 95000: uvm_test_top.env.master_agent.drv [axi4_master_driver] Driving AXI4_WRITE  ID=0x8  ADDR=0xf8f1056b  LEN=207
# UVM_INFO ../src/seq/axi4_random_seq.sv(58) @ 95000: uvm_test_top.env.master_agent.sqr@@bp_seq [axi4_random_seq] [10/40] AXI4_WRITE: ID=0x8 ADDR=0xf8f1056b LEN=207 BURST=AXI4_BURST_INCR
# UVM_INFO ../src/mst/axi4_master_driver.sv(73) @ 95000: uvm_test_top.env.master_agent.drv [axi4_master_driver] Driving AXI4_READ  ID=0x3  ADDR=0xfc9a6fc4  LEN=15
# UVM_INFO ../src/seq/axi4_random_seq.sv(58) @ 95000: uvm_test_top.env.master_agent.sqr@@bp_seq [axi4_random_seq] [11/40] AXI4_READ: ID=0x3 ADDR=0xfc9a6fc4 LEN=15 BURST=AXI4_BURST_WRAP
# UVM_INFO ../src/mst/axi4_master_driver.sv(73) @ 95000: uvm_test_top.env.master_agent.drv [axi4_master_driver] Driving AXI4_WRITE  ID=0x1  ADDR=0xccee3d40  LEN=142
# UVM_INFO ../src/seq/axi4_random_seq.sv(58) @ 95000: uvm_test_top.env.master_agent.sqr@@bp_seq [axi4_random_seq] [12/40] AXI4_WRITE: ID=0x1 ADDR=0xccee3d40 LEN=142 BURST=AXI4_BURST_INCR
# UVM_INFO ../src/mst/axi4_master_driver.sv(73) @ 95000: uvm_test_top.env.master_agent.drv [axi4_master_driver] Driving AXI4_WRITE  ID=0xa  ADDR=0x46b36e9f  LEN=10
# UVM_INFO ../src/seq/axi4_random_seq.sv(58) @ 95000: uvm_test_top.env.master_agent.sqr@@bp_seq [axi4_random_seq] [13/40] AXI4_WRITE: ID=0xa ADDR=0x46b36e9f LEN=10 BURST=AXI4_BURST_FIXED
# UVM_INFO ../src/mst/axi4_master_driver.sv(73) @ 95000: uvm_test_top.env.master_agent.drv [axi4_master_driver] Driving AXI4_WRITE  ID=0x3  ADDR=0xcb32b5cb  LEN=123
# UVM_INFO ../src/seq/axi4_random_seq.sv(58) @ 95000: uvm_test_top.env.master_agent.sqr@@bp_seq [axi4_random_seq] [14/40] AXI4_WRITE: ID=0x3 ADDR=0xcb32b5cb LEN=123 BURST=AXI4_BURST_INCR
# UVM_INFO ../src/mst/axi4_master_driver.sv(73) @ 95000: uvm_test_top.env.master_agent.drv [axi4_master_driver] Driving AXI4_WRITE  ID=0x0  ADDR=0x46899cc9  LEN=138
# UVM_INFO ../src/seq/axi4_random_seq.sv(58) @ 95000: uvm_test_top.env.master_agent.sqr@@bp_seq [axi4_random_seq] [15/40] AXI4_WRITE: ID=0x0 ADDR=0x46899cc9 LEN=138 BURST=AXI4_BURST_INCR
# UVM_INFO ../src/mst/axi4_master_driver.sv(73) @ 95000: uvm_test_top.env.master_agent.drv [axi4_master_driver] Driving AXI4_WRITE  ID=0x4  ADDR=0x387e1e2c  LEN=82
# UVM_INFO ../src/seq/axi4_random_seq.sv(58) @ 95000: uvm_test_top.env.master_agent.sqr@@bp_seq [axi4_random_seq] [16/40] AXI4_WRITE: ID=0x4 ADDR=0x387e1e2c LEN=82 BURST=AXI4_BURST_INCR
# UVM_INFO ../src/mst/axi4_master_driver.sv(73) @ 95000: uvm_test_top.env.master_agent.drv [axi4_master_driver] Driving AXI4_WRITE  ID=0x6  ADDR=0x39d3b7a5  LEN=20
# UVM_INFO ../src/seq/axi4_random_seq.sv(58) @ 95000: uvm_test_top.env.master_agent.sqr@@bp_seq [axi4_random_seq] [17/40] AXI4_WRITE: ID=0x6 ADDR=0x39d3b7a5 LEN=20 BURST=AXI4_BURST_INCR
# UVM_INFO ../src/mst/axi4_master_driver.sv(73) @ 95000: uvm_test_top.env.master_agent.drv [axi4_master_driver] Driving AXI4_READ  ID=0x9  ADDR=0xaeba08f0  LEN=157
# UVM_INFO ../src/seq/axi4_random_seq.sv(58) @ 95000: uvm_test_top.env.master_agent.sqr@@bp_seq [axi4_random_seq] [18/40] AXI4_READ: ID=0x9 ADDR=0xaeba08f0 LEN=157 BURST=AXI4_BURST_INCR
# UVM_INFO ../src/mst/axi4_master_driver.sv(73) @ 95000: uvm_test_top.env.master_agent.drv [axi4_master_driver] Driving AXI4_WRITE  ID=0x4  ADDR=0x4f14ea5b  LEN=193
# UVM_INFO ../src/seq/axi4_random_seq.sv(58) @ 95000: uvm_test_top.env.master_agent.sqr@@bp_seq [axi4_random_seq] [19/40] AXI4_WRITE: ID=0x4 ADDR=0x4f14ea5b LEN=193 BURST=AXI4_BURST_INCR
# UVM_INFO ../src/mst/axi4_master_driver.sv(73) @ 95000: uvm_test_top.env.master_agent.drv [axi4_master_driver] Driving AXI4_WRITE  ID=0xa  ADDR=0xa72da52c  LEN=125
# UVM_INFO ../src/seq/axi4_random_seq.sv(58) @ 95000: uvm_test_top.env.master_agent.sqr@@bp_seq [axi4_random_seq] [20/40] AXI4_WRITE: ID=0xa ADDR=0xa72da52c LEN=125 BURST=AXI4_BURST_INCR
# UVM_INFO ../src/mst/axi4_master_driver.sv(73) @ 95000: uvm_test_top.env.master_agent.drv [axi4_master_driver] Driving AXI4_READ  ID=0xe  ADDR=0x0ca2c569  LEN=35
# UVM_INFO ../src/seq/axi4_random_seq.sv(58) @ 95000: uvm_test_top.env.master_agent.sqr@@bp_seq [axi4_random_seq] [21/40] AXI4_READ: ID=0xe ADDR=0x0ca2c569 LEN=35 BURST=AXI4_BURST_INCR
# UVM_INFO ../src/mst/axi4_master_driver.sv(73) @ 95000: uvm_test_top.env.master_agent.drv [axi4_master_driver] Driving AXI4_WRITE  ID=0x6  ADDR=0xa2731f06  LEN=3
# UVM_INFO ../src/seq/axi4_random_seq.sv(58) @ 95000: uvm_test_top.env.master_agent.sqr@@bp_seq [axi4_random_seq] [22/40] AXI4_WRITE: ID=0x6 ADDR=0xa2731f06 LEN=3 BURST=AXI4_BURST_WRAP
# UVM_INFO ../src/mst/axi4_master_driver.sv(73) @ 95000: uvm_test_top.env.master_agent.drv [axi4_master_driver] Driving AXI4_READ  ID=0x6  ADDR=0x896a4326  LEN=68
# UVM_INFO ../src/seq/axi4_random_seq.sv(58) @ 95000: uvm_test_top.env.master_agent.sqr@@bp_seq [axi4_random_seq] [23/40] AXI4_READ: ID=0x6 ADDR=0x896a4326 LEN=68 BURST=AXI4_BURST_INCR
# UVM_INFO ../src/mst/axi4_master_driver.sv(73) @ 95000: uvm_test_top.env.master_agent.drv [axi4_master_driver] Driving AXI4_READ  ID=0xb  ADDR=0xbe878d8b  LEN=189
# UVM_INFO ../src/seq/axi4_random_seq.sv(58) @ 95000: uvm_test_top.env.master_agent.sqr@@bp_seq [axi4_random_seq] [24/40] AXI4_READ: ID=0xb ADDR=0xbe878d8b LEN=189 BURST=AXI4_BURST_INCR
# UVM_INFO ../src/mst/axi4_master_driver.sv(73) @ 95000: uvm_test_top.env.master_agent.drv [axi4_master_driver] Driving AXI4_READ  ID=0x0  ADDR=0x2d593cd1  LEN=110
# UVM_INFO ../src/seq/axi4_random_seq.sv(58) @ 95000: uvm_test_top.env.master_agent.sqr@@bp_seq [axi4_random_seq] [25/40] AXI4_READ: ID=0x0 ADDR=0x2d593cd1 LEN=110 BURST=AXI4_BURST_INCR
# UVM_INFO ../src/mst/axi4_master_driver.sv(73) @ 95000: uvm_test_top.env.master_agent.drv [axi4_master_driver] Driving AXI4_WRITE  ID=0xd  ADDR=0x4ce2ddef  LEN=13
# UVM_INFO ../src/seq/axi4_random_seq.sv(58) @ 95000: uvm_test_top.env.master_agent.sqr@@bp_seq [axi4_random_seq] [26/40] AXI4_WRITE: ID=0xd ADDR=0x4ce2ddef LEN=13 BURST=AXI4_BURST_INCR
# UVM_INFO ../src/mst/axi4_master_driver.sv(73) @ 95000: uvm_test_top.env.master_agent.drv [axi4_master_driver] Driving AXI4_WRITE  ID=0x4  ADDR=0x72491fdb  LEN=218
# UVM_INFO ../src/seq/axi4_random_seq.sv(58) @ 95000: uvm_test_top.env.master_agent.sqr@@bp_seq [axi4_random_seq] [27/40] AXI4_WRITE: ID=0x4 ADDR=0x72491fdb LEN=218 BURST=AXI4_BURST_INCR
# UVM_INFO ../src/mst/axi4_master_driver.sv(73) @ 95000: uvm_test_top.env.master_agent.drv [axi4_master_driver] Driving AXI4_WRITE  ID=0xe  ADDR=0x87b6a038  LEN=248
# UVM_INFO ../src/seq/axi4_random_seq.sv(58) @ 95000: uvm_test_top.env.master_agent.sqr@@bp_seq [axi4_random_seq] [28/40] AXI4_WRITE: ID=0xe ADDR=0x87b6a038 LEN=248 BURST=AXI4_BURST_INCR
# UVM_INFO ../src/mst/axi4_master_driver.sv(73) @ 95000: uvm_test_top.env.master_agent.drv [axi4_master_driver] Driving AXI4_WRITE  ID=0x9  ADDR=0x2787fb44  LEN=8
# UVM_INFO ../src/seq/axi4_random_seq.sv(58) @ 95000: uvm_test_top.env.master_agent.sqr@@bp_seq [axi4_random_seq] [29/40] AXI4_WRITE: ID=0x9 ADDR=0x2787fb44 LEN=8 BURST=AXI4_BURST_INCR
# UVM_INFO ../src/mst/axi4_master_driver.sv(73) @ 95000: uvm_test_top.env.master_agent.drv [axi4_master_driver] Driving AXI4_READ  ID=0x3  ADDR=0x9dd26d8f  LEN=212
# UVM_INFO ../src/seq/axi4_random_seq.sv(58) @ 95000: uvm_test_top.env.master_agent.sqr@@bp_seq [axi4_random_seq] [30/40] AXI4_READ: ID=0x3 ADDR=0x9dd26d8f LEN=212 BURST=AXI4_BURST_INCR
# UVM_INFO ../src/mst/axi4_master_driver.sv(73) @ 95000: uvm_test_top.env.master_agent.drv [axi4_master_driver] Driving AXI4_WRITE  ID=0x2  ADDR=0xe8c69e3f  LEN=173
# UVM_INFO ../src/seq/axi4_random_seq.sv(58) @ 95000: uvm_test_top.env.master_agent.sqr@@bp_seq [axi4_random_seq] [31/40] AXI4_WRITE: ID=0x2 ADDR=0xe8c69e3f LEN=173 BURST=AXI4_BURST_INCR
# UVM_INFO ../src/mst/axi4_master_driver.sv(73) @ 95000: uvm_test_top.env.master_agent.drv [axi4_master_driver] Driving AXI4_WRITE  ID=0x2  ADDR=0xa26522d6  LEN=208
# UVM_INFO ../src/seq/axi4_random_seq.sv(58) @ 95000: uvm_test_top.env.master_agent.sqr@@bp_seq [axi4_random_seq] [32/40] AXI4_WRITE: ID=0x2 ADDR=0xa26522d6 LEN=208 BURST=AXI4_BURST_INCR
# UVM_INFO ../src/mst/axi4_master_driver.sv(73) @ 95000: uvm_test_top.env.master_agent.drv [axi4_master_driver] Driving AXI4_READ  ID=0xd  ADDR=0x46996db1  LEN=98
# UVM_INFO ../src/seq/axi4_random_seq.sv(58) @ 95000: uvm_test_top.env.master_agent.sqr@@bp_seq [axi4_random_seq] [33/40] AXI4_READ: ID=0xd ADDR=0x46996db1 LEN=98 BURST=AXI4_BURST_INCR
# UVM_INFO ../src/mst/axi4_master_driver.sv(73) @ 95000: uvm_test_top.env.master_agent.drv [axi4_master_driver] Driving AXI4_WRITE  ID=0x0  ADDR=0x55510b61  LEN=154
# UVM_INFO ../src/seq/axi4_random_seq.sv(58) @ 95000: uvm_test_top.env.master_agent.sqr@@bp_seq [axi4_random_seq] [34/40] AXI4_WRITE: ID=0x0 ADDR=0x55510b61 LEN=154 BURST=AXI4_BURST_INCR
# UVM_INFO ../src/mst/axi4_master_driver.sv(73) @ 95000: uvm_test_top.env.master_agent.drv [axi4_master_driver] Driving AXI4_WRITE  ID=0x2  ADDR=0x65234fbd  LEN=195
# UVM_INFO ../src/seq/axi4_random_seq.sv(58) @ 95000: uvm_test_top.env.master_agent.sqr@@bp_seq [axi4_random_seq] [35/40] AXI4_WRITE: ID=0x2 ADDR=0x65234fbd LEN=195 BURST=AXI4_BURST_INCR
# UVM_INFO ../src/mst/axi4_master_driver.sv(73) @ 95000: uvm_test_top.env.master_agent.drv [axi4_master_driver] Driving AXI4_READ  ID=0xa  ADDR=0xe5229435  LEN=238
# UVM_INFO ../src/seq/axi4_random_seq.sv(58) @ 95000: uvm_test_top.env.master_agent.sqr@@bp_seq [axi4_random_seq] [36/40] AXI4_READ: ID=0xa ADDR=0xe5229435 LEN=238 BURST=AXI4_BURST_INCR
# UVM_INFO ../src/mst/axi4_master_driver.sv(73) @ 95000: uvm_test_top.env.master_agent.drv [axi4_master_driver] Driving AXI4_WRITE  ID=0xe  ADDR=0x9e47883a  LEN=15
# UVM_INFO ../src/seq/axi4_random_seq.sv(58) @ 95000: uvm_test_top.env.master_agent.sqr@@bp_seq [axi4_random_seq] [37/40] AXI4_WRITE: ID=0xe ADDR=0x9e47883a LEN=15 BURST=AXI4_BURST_FIXED
# UVM_INFO ../src/mst/axi4_master_driver.sv(73) @ 95000: uvm_test_top.env.master_agent.drv [axi4_master_driver] Driving AXI4_READ  ID=0xf  ADDR=0x99f830f3  LEN=175
# UVM_INFO ../src/seq/axi4_random_seq.sv(58) @ 95000: uvm_test_top.env.master_agent.sqr@@bp_seq [axi4_random_seq] [38/40] AXI4_READ: ID=0xf ADDR=0x99f830f3 LEN=175 BURST=AXI4_BURST_INCR
# UVM_INFO ../src/mst/axi4_master_driver.sv(73) @ 95000: uvm_test_top.env.master_agent.drv [axi4_master_driver] Driving AXI4_READ  ID=0x8  ADDR=0xb46533bc  LEN=220
# UVM_INFO ../src/seq/axi4_random_seq.sv(58) @ 95000: uvm_test_top.env.master_agent.sqr@@bp_seq [axi4_random_seq] [39/40] AXI4_READ: ID=0x8 ADDR=0xb46533bc LEN=220 BURST=AXI4_BURST_INCR
# UVM_INFO ../src/mst/axi4_master_driver.sv(73) @ 95000: uvm_test_top.env.master_agent.drv [axi4_master_driver] Driving AXI4_WRITE  ID=0xd  ADDR=0x7389ff55  LEN=201
# UVM_INFO ../src/seq/axi4_random_seq.sv(58) @ 95000: uvm_test_top.env.master_agent.sqr@@bp_seq [axi4_random_seq] [40/40] AXI4_WRITE: ID=0xd ADDR=0x7389ff55 LEN=201 BURST=AXI4_BURST_INCR
# UVM_INFO ../src/seq/axi4_random_seq.sv(63) @ 95000: uvm_test_top.env.master_agent.sqr@@bp_seq [axi4_random_seq] Random sequence complete: 40 transactions sent
# UVM_INFO ../src/slv/axi4_slave_driver.sv(386) @ 165000: uvm_test_top.env.slave_agent.drv [axi4_slave_driver] AR received: ID=0xd ADDR=0xa2068a9e LEN=27 LOCK=AXI4_LOCK_NORMAL
# UVM_INFO ../src/mst/axi4_master_monitor.sv(246) @ 165000: uvm_test_top.env.master_agent.mon [axi4_master_monitor] AR observed: ID=0xd ADDR=0xa2068a9e LEN=27
# UVM_INFO ../src/slv/axi4_slave_monitor.sv(224) @ 165000: uvm_test_top.env.slave_agent.mon [axi4_slave_monitor] AR received: ID=0xd ADDR=0xa2068a9e LEN=27
# UVM_INFO ../src/slv/axi4_slave_driver.sv(228) @ 175000: uvm_test_top.env.slave_agent.drv [axi4_slave_driver] AW received: ID=0x9 ADDR=0xb221ddd2 LEN=7 LOCK=AXI4_LOCK_NORMAL
# UVM_INFO ../src/slv/axi4_slave_monitor.sv(116) @ 175000: uvm_test_top.env.slave_agent.mon [axi4_slave_monitor] AW received: ID=0x9 ADDR=0xb221ddd2 LEN=7
# UVM_INFO ../src/mst/axi4_master_monitor.sv(124) @ 175000: uvm_test_top.env.master_agent.mon [axi4_master_monitor] AW observed: ID=0x9 ADDR=0xb221ddd2 LEN=7
# UVM_INFO ../src/slv/axi4_slave_driver.sv(386) @ 275000: uvm_test_top.env.slave_agent.drv [axi4_slave_driver] AR received: ID=0x1 ADDR=0x3865be81 LEN=235 LOCK=AXI4_LOCK_NORMAL
# UVM_INFO ../src/slv/axi4_slave_monitor.sv(224) @ 275000: uvm_test_top.env.slave_agent.mon [axi4_slave_monitor] AR received: ID=0x1 ADDR=0x3865be81 LEN=235
# UVM_INFO ../src/mst/axi4_master_monitor.sv(246) @ 275000: uvm_test_top.env.master_agent.mon [axi4_master_monitor] AR observed: ID=0x1 ADDR=0x3865be81 LEN=235
# UVM_INFO ../src/slv/axi4_slave_driver.sv(228) @ 285000: uvm_test_top.env.slave_agent.drv [axi4_slave_driver] AW received: ID=0x7 ADDR=0xb3b258a7 LEN=129 LOCK=AXI4_LOCK_NORMAL
# UVM_INFO ../src/mst/axi4_master_monitor.sv(124) @ 285000: uvm_test_top.env.master_agent.mon [axi4_master_monitor] AW observed: ID=0x7 ADDR=0xb3b258a7 LEN=129
# UVM_INFO ../src/slv/axi4_slave_monitor.sv(116) @ 285000: uvm_test_top.env.slave_agent.mon [axi4_slave_monitor] AW received: ID=0x7 ADDR=0xb3b258a7 LEN=129
# UVM_INFO ../src/slv/axi4_slave_driver.sv(228) @ 345000: uvm_test_top.env.slave_agent.drv [axi4_slave_driver] AW received: ID=0x4 ADDR=0x7ac939b4 LEN=14 LOCK=AXI4_LOCK_NORMAL
# UVM_INFO ../src/slv/axi4_slave_driver.sv(386) @ 345000: uvm_test_top.env.slave_agent.drv [axi4_slave_driver] AR received: ID=0x3 ADDR=0xfc9a6fc4 LEN=15 LOCK=AXI4_LOCK_NORMAL
# UVM_INFO ../src/mst/axi4_master_monitor.sv(124) @ 345000: uvm_test_top.env.master_agent.mon [axi4_master_monitor] AW observed: ID=0x4 ADDR=0x7ac939b4 LEN=14
# UVM_INFO ../src/mst/axi4_master_monitor.sv(246) @ 345000: uvm_test_top.env.master_agent.mon [axi4_master_monitor] AR observed: ID=0x3 ADDR=0xfc9a6fc4 LEN=15
# UVM_INFO ../src/slv/axi4_slave_monitor.sv(116) @ 345000: uvm_test_top.env.slave_agent.mon [axi4_slave_monitor] AW received: ID=0x4 ADDR=0x7ac939b4 LEN=14
# UVM_INFO ../src/slv/axi4_slave_monitor.sv(224) @ 345000: uvm_test_top.env.slave_agent.mon [axi4_slave_monitor] AR received: ID=0x3 ADDR=0xfc9a6fc4 LEN=15
# UVM_INFO ../src/slv/axi4_slave_driver.sv(386) @ 405000: uvm_test_top.env.slave_agent.drv [axi4_slave_driver] AR received: ID=0x9 ADDR=0xaeba08f0 LEN=157 LOCK=AXI4_LOCK_NORMAL
# UVM_INFO ../src/mst/axi4_master_monitor.sv(246) @ 405000: uvm_test_top.env.master_agent.mon [axi4_master_monitor] AR observed: ID=0x9 ADDR=0xaeba08f0 LEN=157
# UVM_INFO ../src/slv/axi4_slave_monitor.sv(224) @ 405000: uvm_test_top.env.slave_agent.mon [axi4_slave_monitor] AR received: ID=0x9 ADDR=0xaeba08f0 LEN=157
# UVM_INFO ../src/slv/axi4_slave_driver.sv(386) @ 495000: uvm_test_top.env.slave_agent.drv [axi4_slave_driver] AR received: ID=0xe ADDR=0x0ca2c569 LEN=35 LOCK=AXI4_LOCK_NORMAL
# UVM_INFO ../src/slv/axi4_slave_monitor.sv(224) @ 495000: uvm_test_top.env.slave_agent.mon [axi4_slave_monitor] AR received: ID=0xe ADDR=0x0ca2c569 LEN=35
# UVM_INFO ../src/mst/axi4_master_monitor.sv(246) @ 495000: uvm_test_top.env.master_agent.mon [axi4_master_monitor] AR observed: ID=0xe ADDR=0x0ca2c569 LEN=35
# UVM_INFO ../src/slv/axi4_slave_driver.sv(386) @ 555000: uvm_test_top.env.slave_agent.drv [axi4_slave_driver] AR received: ID=0x6 ADDR=0x896a4326 LEN=68 LOCK=AXI4_LOCK_NORMAL
# UVM_INFO ../src/slv/axi4_slave_monitor.sv(224) @ 555000: uvm_test_top.env.slave_agent.mon [axi4_slave_monitor] AR received: ID=0x6 ADDR=0x896a4326 LEN=68
# UVM_INFO ../src/mst/axi4_master_monitor.sv(246) @ 555000: uvm_test_top.env.master_agent.mon [axi4_master_monitor] AR observed: ID=0x6 ADDR=0x896a4326 LEN=68
# UVM_INFO ../src/slv/axi4_slave_driver.sv(386) @ 645000: uvm_test_top.env.slave_agent.drv [axi4_slave_driver] AR received: ID=0xb ADDR=0xbe878d8b LEN=189 LOCK=AXI4_LOCK_NORMAL
# UVM_INFO ../src/mst/axi4_master_monitor.sv(246) @ 645000: uvm_test_top.env.master_agent.mon [axi4_master_monitor] AR observed: ID=0xb ADDR=0xbe878d8b LEN=189
# UVM_INFO ../src/slv/axi4_slave_monitor.sv(224) @ 645000: uvm_test_top.env.slave_agent.mon [axi4_slave_monitor] AR received: ID=0xb ADDR=0xbe878d8b LEN=189
# UVM_INFO ../src/slv/axi4_slave_monitor.sv(167) @ 695000: uvm_test_top.env.slave_agent.mon [axi4_slave_monitor] W data assembled: ID=0x9 ADDR=0xb221ddd2 8 beats
# UVM_INFO ../src/mst/axi4_master_monitor.sv(184) @ 695000: uvm_test_top.env.master_agent.mon [axi4_master_monitor] W data assembled: ID=0x9 ADDR=0xb221ddd2 8 beats
# UVM_INFO ../src/slv/axi4_slave_driver.sv(386) @ 755000: uvm_test_top.env.slave_agent.drv [axi4_slave_driver] AR received: ID=0x0 ADDR=0x2d593cd1 LEN=110 LOCK=AXI4_LOCK_NORMAL
# UVM_INFO ../src/slv/axi4_slave_monitor.sv(224) @ 755000: uvm_test_top.env.slave_agent.mon [axi4_slave_monitor] AR received: ID=0x0 ADDR=0x2d593cd1 LEN=110
# UVM_INFO ../src/mst/axi4_master_monitor.sv(246) @ 755000: uvm_test_top.env.master_agent.mon [axi4_master_monitor] AR observed: ID=0x0 ADDR=0x2d593cd1 LEN=110
# UVM_INFO ../src/mst/axi4_master_driver.sv(289) @ 765000: uvm_test_top.env.master_agent.drv [axi4_master_driver] Master driver received B response: ID=0x9 RESP=AXI4_RESP_OKAY
# UVM_INFO ../src/slv/axi4_slave_driver.sv(348) @ 765000: uvm_test_top.env.slave_agent.drv [axi4_slave_driver] Write complete: ID=0x9 RESP=AXI4_RESP_OKAY
# UVM_INFO ../src/mst/axi4_master_monitor.sv(210) @ 765000: uvm_test_top.env.master_agent.mon [axi4_master_monitor] Write complete: ID=0x9 ADDR=0xb221ddd2 RESP=AXI4_RESP_OKAY
# UVM_INFO ../src/env/axi4_scoreboard.sv(87) @ 765000: uvm_test_top.env.scb [axi4_scoreboard] Master AXI4_WRITE received: ID=0x9 ADDR=0xb221ddd2 LEN=7
# UVM_INFO ../src/slv/axi4_slave_monitor.sv(189) @ 765000: uvm_test_top.env.slave_agent.mon [axi4_slave_monitor] Write response sent: ID=0x9 ADDR=0xb221ddd2 RESP=AXI4_RESP_OKAY
# UVM_INFO ../src/env/axi4_scoreboard.sv(108) @ 765000: uvm_test_top.env.scb [axi4_scoreboard] Slave AXI4_WRITE received: ID=0x9 ADDR=0xb221ddd2 LEN=7
# UVM_INFO ../src/env/axi4_scoreboard.sv(291) @ 765000: uvm_test_top.env.scb [axi4_scoreboard] [WRITE] MATCH #1: ID=0x9 ADDR=0xb221ddd2 LEN=7
# UVM_INFO ../src/env/axi4_scoreboard.sv(219) @ 765000: uvm_test_top.env.scb [axi4_scoreboard] [REF_MEM_WRITE] Addr=0xb221ddd2 Data=0xaa
# UVM_INFO ../src/env/axi4_scoreboard.sv(219) @ 765000: uvm_test_top.env.scb [axi4_scoreboard] [REF_MEM_WRITE] Addr=0xb221ddd3 Data=0x20
# UVM_INFO ../src/env/axi4_scoreboard.sv(219) @ 765000: uvm_test_top.env.scb [axi4_scoreboard] [REF_MEM_WRITE] Addr=0xb221ddd5 Data=0xab
# UVM_INFO ../src/env/axi4_scoreboard.sv(219) @ 765000: uvm_test_top.env.scb [axi4_scoreboard] [REF_MEM_WRITE] Addr=0xb221ddd6 Data=0x4f
# UVM_INFO ../src/env/axi4_scoreboard.sv(219) @ 765000: uvm_test_top.env.scb [axi4_scoreboard] [REF_MEM_WRITE] Addr=0xb221ddd7 Data=0x97
# UVM_INFO ../src/env/axi4_scoreboard.sv(219) @ 765000: uvm_test_top.env.scb [axi4_scoreboard] [REF_MEM_WRITE] Addr=0xb221ddd9 Data=0xfa
# UVM_INFO ../src/env/axi4_scoreboard.sv(219) @ 765000: uvm_test_top.env.scb [axi4_scoreboard] [REF_MEM_WRITE] Addr=0xb221dddb Data=0xc0
# UVM_INFO ../src/env/axi4_scoreboard.sv(219) @ 765000: uvm_test_top.env.scb [axi4_scoreboard] [REF_MEM_WRITE] Addr=0xb221ddd8 Data=0x48
# UVM_INFO ../src/env/axi4_scoreboard.sv(219) @ 765000: uvm_test_top.env.scb [axi4_scoreboard] [REF_MEM_WRITE] Addr=0xb221ddda Data=0x21
# UVM_INFO ../src/env/axi4_scoreboard.sv(219) @ 765000: uvm_test_top.env.scb [axi4_scoreboard] [REF_MEM_WRITE] Addr=0xb221dddb Data=0x30
# UVM_INFO ../src/env/axi4_scoreboard.sv(219) @ 765000: uvm_test_top.env.scb [axi4_scoreboard] [REF_MEM_WRITE] Addr=0xb221dddd Data=0x44
# UVM_INFO ../src/env/axi4_scoreboard.sv(219) @ 765000: uvm_test_top.env.scb [axi4_scoreboard] [REF_MEM_WRITE] Addr=0xb221ddde Data=0xa9
# UVM_INFO ../src/env/axi4_scoreboard.sv(219) @ 765000: uvm_test_top.env.scb [axi4_scoreboard] [REF_MEM_WRITE] Addr=0xb221dddf Data=0x4e
# UVM_INFO ../src/env/axi4_scoreboard.sv(219) @ 765000: uvm_test_top.env.scb [axi4_scoreboard] [REF_MEM_WRITE] Addr=0xb221dddf Data=0xa7
# UVM_INFO ../src/env/axi4_scoreboard.sv(219) @ 765000: uvm_test_top.env.scb [axi4_scoreboard] [REF_MEM_WRITE] Addr=0xb221ddd0 Data=0x9d
# UVM_INFO ../src/env/axi4_scoreboard.sv(219) @ 765000: uvm_test_top.env.scb [axi4_scoreboard] [REF_MEM_WRITE] Addr=0xb221ddd2 Data=0x2f
# UVM_INFO ../src/env/axi4_scoreboard.sv(219) @ 765000: uvm_test_top.env.scb [axi4_scoreboard] [REF_MEM_WRITE] Addr=0xb221ddd3 Data=0x70
# UVM_INFO ../src/slv/axi4_slave_driver.sv(386) @ 865000: uvm_test_top.env.slave_agent.drv [axi4_slave_driver] AR received: ID=0x3 ADDR=0x9dd26d8f LEN=212 LOCK=AXI4_LOCK_NORMAL
# UVM_INFO ../src/mst/axi4_master_monitor.sv(246) @ 865000: uvm_test_top.env.master_agent.mon [axi4_master_monitor] AR observed: ID=0x3 ADDR=0x9dd26d8f LEN=212
# UVM_INFO ../src/slv/axi4_slave_monitor.sv(224) @ 865000: uvm_test_top.env.slave_agent.mon [axi4_slave_monitor] AR received: ID=0x3 ADDR=0x9dd26d8f LEN=212
# UVM_INFO ../src/slv/axi4_slave_driver.sv(386) @ 935000: uvm_test_top.env.slave_agent.drv [axi4_slave_driver] AR received: ID=0xd ADDR=0x46996db1 LEN=98 LOCK=AXI4_LOCK_NORMAL
# UVM_INFO ../src/slv/axi4_slave_monitor.sv(224) @ 935000: uvm_test_top.env.slave_agent.mon [axi4_slave_monitor] AR received: ID=0xd ADDR=0x46996db1 LEN=98
# UVM_INFO ../src/mst/axi4_master_monitor.sv(246) @ 935000: uvm_test_top.env.master_agent.mon [axi4_master_monitor] AR observed: ID=0xd ADDR=0x46996db1 LEN=98
# UVM_INFO ../src/slv/axi4_slave_driver.sv(386) @ 1025000: uvm_test_top.env.slave_agent.drv [axi4_slave_driver] AR received: ID=0xa ADDR=0xe5229435 LEN=238 LOCK=AXI4_LOCK_NORMAL
# UVM_INFO ../src/mst/axi4_master_monitor.sv(246) @ 1025000: uvm_test_top.env.master_agent.mon [axi4_master_monitor] AR observed: ID=0xa ADDR=0xe5229435 LEN=238
# UVM_INFO ../src/slv/axi4_slave_monitor.sv(224) @ 1025000: uvm_test_top.env.slave_agent.mon [axi4_slave_monitor] AR received: ID=0xa ADDR=0xe5229435 LEN=238
# UVM_INFO ../src/slv/axi4_slave_driver.sv(386) @ 1105000: uvm_test_top.env.slave_agent.drv [axi4_slave_driver] AR received: ID=0xf ADDR=0x99f830f3 LEN=175 LOCK=AXI4_LOCK_NORMAL
# UVM_INFO ../src/mst/axi4_master_monitor.sv(246) @ 1105000: uvm_test_top.env.master_agent.mon [axi4_master_monitor] AR observed: ID=0xf ADDR=0x99f830f3 LEN=175
# UVM_INFO ../src/slv/axi4_slave_monitor.sv(224) @ 1105000: uvm_test_top.env.slave_agent.mon [axi4_slave_monitor] AR received: ID=0xf ADDR=0x99f830f3 LEN=175
# UVM_INFO ../src/slv/axi4_slave_driver.sv(386) @ 1185000: uvm_test_top.env.slave_agent.drv [axi4_slave_driver] AR received: ID=0x8 ADDR=0xb46533bc LEN=220 LOCK=AXI4_LOCK_NORMAL
# UVM_INFO ../src/mst/axi4_master_monitor.sv(246) @ 1185000: uvm_test_top.env.master_agent.mon [axi4_master_monitor] AR observed: ID=0x8 ADDR=0xb46533bc LEN=220
# UVM_INFO ../src/slv/axi4_slave_monitor.sv(224) @ 1185000: uvm_test_top.env.slave_agent.mon [axi4_slave_monitor] AR received: ID=0x8 ADDR=0xb46533bc LEN=220
# UVM_INFO ../src/mst/axi4_master_driver.sv(348) @ 1745000: uvm_test_top.env.master_agent.drv [axi4_master_driver] Master driver received all R beats for ID=0xd
# UVM_INFO ../src/slv/axi4_slave_driver.sv(501) @ 1745000: uvm_test_top.env.slave_agent.drv [axi4_slave_driver] Read complete: ID=0xd ADDR=0xa2068a9e RESP=AXI4_RESP_OKAY  28 beats sent
# UVM_INFO ../src/mst/axi4_master_monitor.sv(314) @ 1745000: uvm_test_top.env.master_agent.mon [axi4_master_monitor] Read complete: ID=0xd ADDR=0xa2068a9e 28 beats
# UVM_INFO ../src/env/axi4_scoreboard.sv(87) @ 1745000: uvm_test_top.env.scb [axi4_scoreboard] Master AXI4_READ received: ID=0xd ADDR=0xa2068a9e LEN=27
# UVM_INFO ../src/slv/axi4_slave_monitor.sv(287) @ 1745000: uvm_test_top.env.slave_agent.mon [axi4_slave_monitor] Read data sent: ID=0xd ADDR=0xa2068a9e 28 beats
# UVM_INFO ../src/env/axi4_scoreboard.sv(108) @ 1745000: uvm_test_top.env.scb [axi4_scoreboard] Slave AXI4_READ received: ID=0xd ADDR=0xa2068a9e LEN=27
# UVM_INFO ../src/env/axi4_scoreboard.sv(291) @ 1745000: uvm_test_top.env.scb [axi4_scoreboard] [READ] MATCH #2: ID=0xd ADDR=0xa2068a9e LEN=27
# UVM_INFO ../src/test/axi4_backpressure_test.sv(53) @ 4095000: uvm_test_top [axi4_backpressure_test] Back-pressure stress test complete
# UVM_INFO ../src/mst/axi4_master_monitor.sv(184) @ 10465000: uvm_test_top.env.master_agent.mon [axi4_master_monitor] W data assembled: ID=0x7 ADDR=0xb3b258a7 130 beats
# UVM_INFO ../src/slv/axi4_slave_monitor.sv(167) @ 10465000: uvm_test_top.env.slave_agent.mon [axi4_slave_monitor] W data assembled: ID=0x7 ADDR=0xb3b258a7 130 beats
# UVM_INFO ../src/mst/axi4_master_driver.sv(289) @ 10515000: uvm_test_top.env.master_agent.drv [axi4_master_driver] Master driver received B response: ID=0x7 RESP=AXI4_RESP_OKAY
# UVM_INFO ../src/slv/axi4_slave_driver.sv(348) @ 10515000: uvm_test_top.env.slave_agent.drv [axi4_slave_driver] Write complete: ID=0x7 RESP=AXI4_RESP_OKAY
# UVM_INFO ../src/slv/axi4_slave_monitor.sv(189) @ 10515000: uvm_test_top.env.slave_agent.mon [axi4_slave_monitor] Write response sent: ID=0x7 ADDR=0xb3b258a7 RESP=AXI4_RESP_OKAY
# UVM_INFO ../src/env/axi4_scoreboard.sv(108) @ 10515000: uvm_test_top.env.scb [axi4_scoreboard] Slave AXI4_WRITE received: ID=0x7 ADDR=0xb3b258a7 LEN=129
# UVM_INFO ../src/mst/axi4_master_monitor.sv(210) @ 10515000: uvm_test_top.env.master_agent.mon [axi4_master_monitor] Write complete: ID=0x7 ADDR=0xb3b258a7 RESP=AXI4_RESP_OKAY
# UVM_INFO ../src/env/axi4_scoreboard.sv(87) @ 10515000: uvm_test_top.env.scb [axi4_scoreboard] Master AXI4_WRITE received: ID=0x7 ADDR=0xb3b258a7 LEN=129
# UVM_INFO ../src/env/axi4_scoreboard.sv(291) @ 10515000: uvm_test_top.env.scb [axi4_scoreboard] [WRITE] MATCH #3: ID=0x7 ADDR=0xb3b258a7 LEN=129
# UVM_INFO ../src/env/axi4_scoreboard.sv(219) @ 10515000: uvm_test_top.env.scb [axi4_scoreboard] [REF_MEM_WRITE] Addr=0xb3b258a4 Data=0x45
# UVM_INFO ../src/env/axi4_scoreboard.sv(219) @ 10515000: uvm_test_top.env.scb [axi4_scoreboard] [REF_MEM_WRITE] Addr=0xb3b258a5 Data=0xb4
# UVM_INFO ../src/env/axi4_scoreboard.sv(219) @ 10515000: uvm_test_top.env.scb [axi4_scoreboard] [REF_MEM_WRITE] Addr=0xb3b258a7 Data=0xd5
# UVM_INFO ../src/env/axi4_scoreboard.sv(219) @ 10515000: uvm_test_top.env.scb [axi4_scoreboard] [REF_MEM_WRITE] Addr=0xb3b258a9 Data=0x96
# UVM_INFO ../src/env/axi4_scoreboard.sv(219) @ 10515000: uvm_test_top.env.scb [axi4_scoreboard] [REF_MEM_WRITE] Addr=0xb3b258a8 Data=0x4c
# UVM_INFO ../src/env/axi4_scoreboard.sv(219) @ 10515000: uvm_test_top.env.scb [axi4_scoreboard] [REF_MEM_WRITE] Addr=0xb3b258a9 Data=0x65
# UVM_INFO ../src/env/axi4_scoreboard.sv(219) @ 10515000: uvm_test_top.env.scb [axi4_scoreboard] [REF_MEM_WRITE] Addr=0xb3b258ab Data=0x11
# UVM_INFO ../src/env/axi4_scoreboard.sv(219) @ 10515000: uvm_test_top.env.scb [axi4_scoreboard] [REF_MEM_WRITE] Addr=0xb3b258ab Data=0x77
# UVM_INFO ../src/env/axi4_scoreboard.sv(219) @ 10515000: uvm_test_top.env.scb [axi4_scoreboard] [REF_MEM_WRITE] Addr=0xb3b258a8 Data=0xbc
# UVM_INFO ../src/env/axi4_scoreboard.sv(219) @ 10515000: uvm_test_top.env.scb [axi4_scoreboard] [REF_MEM_WRITE] Addr=0xb3b258aa Data=0x72
# UVM_INFO ../src/env/axi4_scoreboard.sv(219) @ 10515000: uvm_test_top.env.scb [axi4_scoreboard] [REF_MEM_WRITE] Addr=0xb3b258af Data=0x82
# UVM_INFO ../src/env/axi4_scoreboard.sv(219) @ 10515000: uvm_test_top.env.scb [axi4_scoreboard] [REF_MEM_WRITE] Addr=0xb3b258ac Data=0xc9
# UVM_INFO ../src/env/axi4_scoreboard.sv(219) @ 10515000: uvm_test_top.env.scb [axi4_scoreboard] [REF_MEM_WRITE] Addr=0xb3b258ad Data=0x6f
# UVM_INFO ../src/env/axi4_scoreboard.sv(219) @ 10515000: uvm_test_top.env.scb [axi4_scoreboard] [REF_MEM_WRITE] Addr=0xb3b258ae Data=0xef
# UVM_INFO ../src/env/axi4_scoreboard.sv(219) @ 10515000: uvm_test_top.env.scb [axi4_scoreboard] [REF_MEM_WRITE] Addr=0xb3b258ad Data=0xe6
# UVM_INFO ../src/env/axi4_scoreboard.sv(219) @ 10515000: uvm_test_top.env.scb [axi4_scoreboard] [REF_MEM_WRITE] Addr=0xb3b258af Data=0x4e
# UVM_INFO ../src/env/axi4_scoreboard.sv(219) @ 10515000: uvm_test_top.env.scb [axi4_scoreboard] [REF_MEM_WRITE] Addr=0xb3b258ad Data=0xb8
# UVM_INFO ../src/env/axi4_scoreboard.sv(219) @ 10515000: uvm_test_top.env.scb [axi4_scoreboard] [REF_MEM_WRITE] Addr=0xb3b258b0 Data=0x88
# UVM_INFO ../src/env/axi4_scoreboard.sv(219) @ 10515000: uvm_test_top.env.scb [axi4_scoreboard] [REF_MEM_WRITE] Addr=0xb3b258b1 Data=0x2c
# UVM_INFO ../src/env/axi4_scoreboard.sv(219) @ 10515000: uvm_test_top.env.scb [axi4_scoreboard] [REF_MEM_WRITE] Addr=0xb3b258b3 Data=0xd0
# UVM_INFO ../src/env/axi4_scoreboard.sv(219) @ 10515000: uvm_test_top.env.scb [axi4_scoreboard] [REF_MEM_WRITE] Addr=0xb3b258b2 Data=0x44
# UVM_INFO ../src/env/axi4_scoreboard.sv(219) @ 10515000: uvm_test_top.env.scb [axi4_scoreboard] [REF_MEM_WRITE] Addr=0xb3b258b3 Data=0xb5
# UVM_INFO ../src/env/axi4_scoreboard.sv(219) @ 10515000: uvm_test_top.env.scb [axi4_scoreboard] [REF_MEM_WRITE] Addr=0xb3b258b0 Data=0x3c
# UVM_INFO ../src/env/axi4_scoreboard.sv(219) @ 10515000: uvm_test_top.env.scb [axi4_scoreboard] [REF_MEM_WRITE] Addr=0xb3b258b1 Data=0xcd
# UVM_INFO ../src/env/axi4_scoreboard.sv(219) @ 10515000: uvm_test_top.env.scb [axi4_scoreboard] [REF_MEM_WRITE] Addr=0xb3b258b3 Data=0xd1
# UVM_INFO ../src/env/axi4_scoreboard.sv(219) @ 10515000: uvm_test_top.env.scb [axi4_scoreboard] [REF_MEM_WRITE] Addr=0xb3b258b2 Data=0x69
# UVM_INFO ../src/env/axi4_scoreboard.sv(219) @ 10515000: uvm_test_top.env.scb [axi4_scoreboard] [REF_MEM_WRITE] Addr=0xb3b258b3 Data=0xab
# UVM_INFO ../src/env/axi4_scoreboard.sv(219) @ 10515000: uvm_test_top.env.scb [axi4_scoreboard] [REF_MEM_WRITE] Addr=0xb3b258b7 Data=0xe6
# UVM_INFO ../src/env/axi4_scoreboard.sv(219) @ 10515000: uvm_test_top.env.scb [axi4_scoreboard] [REF_MEM_WRITE] Addr=0xb3b258b4 Data=0xd4
# UVM_INFO ../src/env/axi4_scoreboard.sv(219) @ 10515000: uvm_test_top.env.scb [axi4_scoreboard] [REF_MEM_WRITE] Addr=0xb3b258b5 Data=0x20
# UVM_INFO ../src/env/axi4_scoreboard.sv(219) @ 10515000: uvm_test_top.env.scb [axi4_scoreboard] [REF_MEM_WRITE] Addr=0xb3b258b6 Data=0x3f
# UVM_INFO ../src/env/axi4_scoreboard.sv(219) @ 10515000: uvm_test_top.env.scb [axi4_scoreboard] [REF_MEM_WRITE] Addr=0xb3b258b7 Data=0x1b
# UVM_INFO ../src/env/axi4_scoreboard.sv(219) @ 10515000: uvm_test_top.env.scb [axi4_scoreboard] [REF_MEM_WRITE] Addr=0xb3b258b6 Data=0x55
# UVM_INFO ../src/env/axi4_scoreboard.sv(219) @ 10515000: uvm_test_top.env.scb [axi4_scoreboard] [REF_MEM_WRITE] Addr=0xb3b258b7 Data=0x77
# UVM_INFO ../src/env/axi4_scoreboard.sv(219) @ 10515000: uvm_test_top.env.scb [axi4_scoreboard] [REF_MEM_WRITE] Addr=0xb3b258b4 Data=0x76
# UVM_INFO ../src/env/axi4_scoreboard.sv(219) @ 10515000: uvm_test_top.env.scb [axi4_scoreboard] [REF_MEM_WRITE] Addr=0xb3b258b6 Data=0xc1
# UVM_INFO ../src/env/axi4_scoreboard.sv(219) @ 10515000: uvm_test_top.env.scb [axi4_scoreboard] [REF_MEM_WRITE] Addr=0xb3b258b9 Data=0xd0
# UVM_INFO ../src/env/axi4_scoreboard.sv(219) @ 10515000: uvm_test_top.env.scb [axi4_scoreboard] [REF_MEM_WRITE] Addr=0xb3b258b8 Data=0x94
# UVM_INFO ../src/env/axi4_scoreboard.sv(219) @ 10515000: uvm_test_top.env.scb [axi4_scoreboard] [REF_MEM_WRITE] Addr=0xb3b258bb Data=0xcd
# UVM_INFO ../src/env/axi4_scoreboard.sv(219) @ 10515000: uvm_test_top.env.scb [axi4_scoreboard] [REF_MEM_WRITE] Addr=0xb3b258b8 Data=0xcf
# UVM_INFO ../src/env/axi4_scoreboard.sv(219) @ 10515000: uvm_test_top.env.scb [axi4_scoreboard] [REF_MEM_WRITE] Addr=0xb3b258b9 Data=0x9d
# UVM_INFO ../src/env/axi4_scoreboard.sv(219) @ 10515000: uvm_test_top.env.scb [axi4_scoreboard] [REF_MEM_WRITE] Addr=0xb3b258bb Data=0x60
# UVM_INFO ../src/env/axi4_scoreboard.sv(219) @ 10515000: uvm_test_top.env.scb [axi4_scoreboard] [REF_MEM_WRITE] Addr=0xb3b258bb Data=0xcd
# UVM_INFO ../src/env/axi4_scoreboard.sv(219) @ 10515000: uvm_test_top.env.scb [axi4_scoreboard] [REF_MEM_WRITE] Addr=0xb3b258be Data=0xd4
# UVM_INFO ../src/env/axi4_scoreboard.sv(219) @ 10515000: uvm_test_top.env.scb [axi4_scoreboard] [REF_MEM_WRITE] Addr=0xb3b258bf Data=0xb8
# UVM_INFO ../src/env/axi4_scoreboard.sv(219) @ 10515000: uvm_test_top.env.scb [axi4_scoreboard] [REF_MEM_WRITE] Addr=0xb3b258be Data=0x2e
# UVM_INFO ../src/env/axi4_scoreboard.sv(219) @ 10515000: uvm_test_top.env.scb [axi4_scoreboard] [REF_MEM_WRITE] Addr=0xb3b258be Data=0x48
# UVM_INFO ../src/env/axi4_scoreboard.sv(219) @ 10515000: uvm_test_top.env.scb [axi4_scoreboard] [REF_MEM_WRITE] Addr=0xb3b258bf Data=0x53
# UVM_INFO ../src/env/axi4_scoreboard.sv(219) @ 10515000: uvm_test_top.env.scb [axi4_scoreboard] [REF_MEM_WRITE] Addr=0xb3b258c0 Data=0xa2
# UVM_INFO ../src/env/axi4_scoreboard.sv(219) @ 10515000: uvm_test_top.env.scb [axi4_scoreboard] [REF_MEM_WRITE] Addr=0xb3b258c1 Data=0x8c
# UVM_INFO ../src/env/axi4_scoreboard.sv(219) @ 10515000: uvm_test_top.env.scb [axi4_scoreboard] [REF_MEM_WRITE] Addr=0xb3b258c3 Data=0x5f
# UVM_INFO ../src/env/axi4_scoreboard.sv(219) @ 10515000: uvm_test_top.env.scb [axi4_scoreboard] [REF_MEM_WRITE] Addr=0xb3b258c2 Data=0x8a
# UVM_INFO ../src/env/axi4_scoreboard.sv(219) @ 10515000: uvm_test_top.env.scb [axi4_scoreboard] [REF_MEM_WRITE] Addr=0xb3b258c3 Data=0x38
# UVM_INFO ../src/env/axi4_scoreboard.sv(219) @ 10515000: uvm_test_top.env.scb [axi4_scoreboard] [REF_MEM_WRITE] Addr=0xb3b258c1 Data=0xc3
# UVM_INFO ../src/env/axi4_scoreboard.sv(219) @ 10515000: uvm_test_top.env.scb [axi4_scoreboard] [REF_MEM_WRITE] Addr=0xb3b258c0 Data=0x3c
# UVM_INFO ../src/env/axi4_scoreboard.sv(219) @ 10515000: uvm_test_top.env.scb [axi4_scoreboard] [REF_MEM_WRITE] Addr=0xb3b258c6 Data=0x52
# UVM_INFO ../src/env/axi4_scoreboard.sv(219) @ 10515000: uvm_test_top.env.scb [axi4_scoreboard] [REF_MEM_WRITE] Addr=0xb3b258c7 Data=0x30
# UVM_INFO ../src/env/axi4_scoreboard.sv(219) @ 10515000: uvm_test_top.env.scb [axi4_scoreboard] [REF_MEM_WRITE] Addr=0xb3b258c4 Data=0x27
# UVM_INFO ../src/env/axi4_scoreboard.sv(219) @ 10515000: uvm_test_top.env.scb [axi4_scoreboard] [REF_MEM_WRITE] Addr=0xb3b258c6 Data=0xf6
# UVM_INFO ../src/env/axi4_scoreboard.sv(219) @ 10515000: uvm_test_top.env.scb [axi4_scoreboard] [REF_MEM_WRITE] Addr=0xb3b258c4 Data=0x55
# UVM_INFO ../src/env/axi4_scoreboard.sv(219) @ 10515000: uvm_test_top.env.scb [axi4_scoreboard] [REF_MEM_WRITE] Addr=0xb3b258c5 Data=0xb4
# UVM_INFO ../src/env/axi4_scoreboard.sv(219) @ 10515000: uvm_test_top.env.scb [axi4_scoreboard] [REF_MEM_WRITE] Addr=0xb3b258c7 Data=0x36
# UVM_INFO ../src/env/axi4_scoreboard.sv(219) @ 10515000: uvm_test_top.env.scb [axi4_scoreboard] [REF_MEM_WRITE] Addr=0xb3b258c5 Data=0x0c
# UVM_INFO ../src/env/axi4_scoreboard.sv(219) @ 10515000: uvm_test_top.env.scb [axi4_scoreboard] [REF_MEM_WRITE] Addr=0xb3b258c6 Data=0x30
# UVM_INFO ../src/env/axi4_scoreboard.sv(219) @ 10515000: uvm_test_top.env.scb [axi4_scoreboard] [REF_MEM_WRITE] Addr=0xb3b258c7 Data=0x8d
# UVM_INFO ../src/env/axi4_scoreboard.sv(219) @ 10515000: uvm_test_top.env.scb [axi4_scoreboard] [REF_MEM_WRITE] Addr=0xb3b258c8 Data=0x1c
# UVM_INFO ../src/env/axi4_scoreboard.sv(219) @ 10515000: uvm_test_top.env.scb [axi4_scoreboard] [REF_MEM_WRITE] Addr=0xb3b258c9 Data=0xb5
# UVM_INFO ../src/env/axi4_scoreboard.sv(219) @ 10515000: uvm_test_top.env.scb [axi4_scoreboard] [REF_MEM_WRITE] Addr=0xb3b258ca Data=0xcd
# UVM_INFO ../src/env/axi4_scoreboard.sv(219) @ 10515000: uvm_test_top.env.scb [axi4_scoreboard] [REF_MEM_WRITE] Addr=0xb3b258c8 Data=0x32
# UVM_INFO ../src/env/axi4_scoreboard.sv(219) @ 10515000: uvm_test_top.env.scb [axi4_scoreboard] [REF_MEM_WRITE] Addr=0xb3b258c9 Data=0x8d
# UVM_INFO ../src/env/axi4_scoreboard.sv(219) @ 10515000: uvm_test_top.env.scb [axi4_scoreboard] [REF_MEM_WRITE] Addr=0xb3b258ca Data=0x6e
# UVM_INFO ../src/env/axi4_scoreboard.sv(219) @ 10515000: uvm_test_top.env.scb [axi4_scoreboard] [REF_MEM_WRITE] Addr=0xb3b258c9 Data=0x86
# UVM_INFO ../src/env/axi4_scoreboard.sv(219) @ 10515000: uvm_test_top.env.scb [axi4_scoreboard] [REF_MEM_WRITE] Addr=0xb3b258ca Data=0x5d
# UVM_INFO ../src/env/axi4_scoreboard.sv(219) @ 10515000: uvm_test_top.env.scb [axi4_scoreboard] [REF_MEM_WRITE] Addr=0xb3b258cb Data=0x67
# UVM_INFO ../src/env/axi4_scoreboard.sv(219) @ 10515000: uvm_test_top.env.scb [axi4_scoreboard] [REF_MEM_WRITE] Addr=0xb3b258c8 Data=0x92
# UVM_INFO ../src/env/axi4_scoreboard.sv(219) @ 10515000: uvm_test_top.env.scb [axi4_scoreboard] [REF_MEM_WRITE] Addr=0xb3b258cb Data=0x81
# UVM_INFO ../src/env/axi4_scoreboard.sv(219) @ 10515000: uvm_test_top.env.scb [axi4_scoreboard] [REF_MEM_WRITE] Addr=0xb3b258cc Data=0xae
# UVM_INFO ../src/env/axi4_scoreboard.sv(219) @ 10515000: uvm_test_top.env.scb [axi4_scoreboard] [REF_MEM_WRITE] Addr=0xb3b258cf Data=0x48
# UVM_INFO ../src/env/axi4_scoreboard.sv(219) @ 10515000: uvm_test_top.env.scb [axi4_scoreboard] [REF_MEM_WRITE] Addr=0xb3b258ce Data=0x1e
# UVM_INFO ../src/env/axi4_scoreboard.sv(219) @ 10515000: uvm_test_top.env.scb [axi4_scoreboard] [REF_MEM_WRITE] Addr=0xb3b258cf Data=0x3d
# UVM_INFO ../src/env/axi4_scoreboard.sv(219) @ 10515000: uvm_test_top.env.scb [axi4_scoreboard] [REF_MEM_WRITE] Addr=0xb3b258cd Data=0x0c
# UVM_INFO ../src/env/axi4_scoreboard.sv(219) @ 10515000: uvm_test_top.env.scb [axi4_scoreboard] [REF_MEM_WRITE] Addr=0xb3b258ce Data=0x85
# UVM_INFO ../src/env/axi4_scoreboard.sv(219) @ 10515000: uvm_test_top.env.scb [axi4_scoreboard] [REF_MEM_WRITE] Addr=0xb3b258d1 Data=0xef
# UVM_INFO ../src/env/axi4_scoreboard.sv(219) @ 10515000: uvm_test_top.env.scb [axi4_scoreboard] [REF_MEM_WRITE] Addr=0xb3b258d0 Data=0x6b
# UVM_INFO ../src/env/axi4_scoreboard.sv(219) @ 10515000: uvm_test_top.env.scb [axi4_scoreboard] [REF_MEM_WRITE] Addr=0xb3b258d2 Data=0x17
# UVM_INFO ../src/env/axi4_scoreboard.sv(219) @ 10515000: uvm_test_top.env.scb [axi4_scoreboard] [REF_MEM_WRITE] Addr=0xb3b258d0 Data=0x43
# UVM_INFO ../src/env/axi4_scoreboard.sv(219) @ 10515000: uvm_test_top.env.scb [axi4_scoreboard] [REF_MEM_WRITE] Addr=0xb3b258d1 Data=0x0f
# UVM_INFO ../src/env/axi4_scoreboard.sv(219) @ 10515000: uvm_test_top.env.scb [axi4_scoreboard] [REF_MEM_WRITE] Addr=0xb3b258d2 Data=0x7f
# UVM_INFO ../src/env/axi4_scoreboard.sv(219) @ 10515000: uvm_test_top.env.scb [axi4_scoreboard] [REF_MEM_WRITE] Addr=0xb3b258d0 Data=0x45
# UVM_INFO ../src/env/axi4_scoreboard.sv(219) @ 10515000: uvm_test_top.env.scb [axi4_scoreboard] [REF_MEM_WRITE] Addr=0xb3b258d1 Data=0x90
# UVM_INFO ../src/env/axi4_scoreboard.sv(219) @ 10515000: uvm_test_top.env.scb [axi4_scoreboard] [REF_MEM_WRITE] Addr=0xb3b258d2 Data=0x63
# UVM_INFO ../src/env/axi4_scoreboard.sv(219) @ 10515000: uvm_test_top.env.scb [axi4_scoreboard] [REF_MEM_WRITE] Addr=0xb3b258d5 Data=0xa9
# UVM_INFO ../src/env/axi4_scoreboard.sv(219) @ 10515000: uvm_test_top.env.scb [axi4_scoreboard] [REF_MEM_WRITE] Addr=0xb3b258d6 Data=0xe1
# UVM_INFO ../src/env/axi4_scoreboard.sv(219) @ 10515000: uvm_test_top.env.scb [axi4_scoreboard] [REF_MEM_WRITE] Addr=0xb3b258d5 Data=0x77
# UVM_INFO ../src/env/axi4_scoreboard.sv(219) @ 10515000: uvm_test_top.env.scb [axi4_scoreboard] [REF_MEM_WRITE] Addr=0xb3b258d6 Data=0x6f
# UVM_INFO ../src/env/axi4_scoreboard.sv(219) @ 10515000: uvm_test_top.env.scb [axi4_scoreboard] [REF_MEM_WRITE] Addr=0xb3b258d4 Data=0x4d
# UVM_INFO ../src/env/axi4_scoreboard.sv(219) @ 10515000: uvm_test_top.env.scb [axi4_scoreboard] [REF_MEM_WRITE] Addr=0xb3b258d8 Data=0x8b
# UVM_INFO ../src/env/axi4_scoreboard.sv(219) @ 10515000: uvm_test_top.env.scb [axi4_scoreboard] [REF_MEM_WRITE] Addr=0xb3b258d8 Data=0xe2
# UVM_INFO ../src/env/axi4_scoreboard.sv(219) @ 10515000: uvm_test_top.env.scb [axi4_scoreboard] [REF_MEM_WRITE] Addr=0xb3b258d8 Data=0x02
# UVM_INFO ../src/env/axi4_scoreboard.sv(219) @ 10515000: uvm_test_top.env.scb [axi4_scoreboard] [REF_MEM_WRITE] Addr=0xb3b258d8 Data=0x90
# UVM_INFO ../src/env/axi4_scoreboard.sv(219) @ 10515000: uvm_test_top.env.scb [axi4_scoreboard] [REF_MEM_WRITE] Addr=0xb3b258dc Data=0x5e
# UVM_INFO ../src/env/axi4_scoreboard.sv(219) @ 10515000: uvm_test_top.env.scb [axi4_scoreboard] [REF_MEM_WRITE] Addr=0xb3b258dd Data=0x7e
# UVM_INFO ../src/env/axi4_scoreboard.sv(219) @ 10515000: uvm_test_top.env.scb [axi4_scoreboard] [REF_MEM_WRITE] Addr=0xb3b258de Data=0xcf
# UVM_INFO ../src/env/axi4_scoreboard.sv(219) @ 10515000: uvm_test_top.env.scb [axi4_scoreboard] [REF_MEM_WRITE] Addr=0xb3b258df Data=0x2a
# UVM_INFO ../src/env/axi4_scoreboard.sv(219) @ 10515000: uvm_test_top.env.scb [axi4_scoreboard] [REF_MEM_WRITE] Addr=0xb3b258dd Data=0xd2
# UVM_INFO ../src/env/axi4_scoreboard.sv(219) @ 10515000: uvm_test_top.env.scb [axi4_scoreboard] [REF_MEM_WRITE] Addr=0xb3b258df Data=0x6f
# UVM_INFO ../src/env/axi4_scoreboard.sv(219) @ 10515000: uvm_test_top.env.scb [axi4_scoreboard] [REF_MEM_WRITE] Addr=0xb3b258e0 Data=0xc0
# UVM_INFO ../src/env/axi4_scoreboard.sv(219) @ 10515000: uvm_test_top.env.scb [axi4_scoreboard] [REF_MEM_WRITE] Addr=0xb3b258e2 Data=0xbc
# UVM_INFO ../src/env/axi4_scoreboard.sv(219) @ 10515000: uvm_test_top.env.scb [axi4_scoreboard] [REF_MEM_WRITE] Addr=0xb3b258e2 Data=0x7b
# UVM_INFO ../src/env/axi4_scoreboard.sv(219) @ 10515000: uvm_test_top.env.scb [axi4_scoreboard] [REF_MEM_WRITE] Addr=0xb3b258e3 Data=0xe6
# UVM_INFO ../src/env/axi4_scoreboard.sv(219) @ 10515000: uvm_test_top.env.scb [axi4_scoreboard] [REF_MEM_WRITE] Addr=0xb3b258e0 Data=0xa4
# UVM_INFO ../src/env/axi4_scoreboard.sv(219) @ 10515000: uvm_test_top.env.scb [axi4_scoreboard] [REF_MEM_WRITE] Addr=0xb3b258e0 Data=0xa6
# UVM_INFO ../src/env/axi4_scoreboard.sv(219) @ 10515000: uvm_test_top.env.scb [axi4_scoreboard] [REF_MEM_WRITE] Addr=0xb3b258e1 Data=0x7f
# UVM_INFO ../src/env/axi4_scoreboard.sv(219) @ 10515000: uvm_test_top.env.scb [axi4_scoreboard] [REF_MEM_WRITE] Addr=0xb3b258e3 Data=0x8c
# UVM_INFO ../src/env/axi4_scoreboard.sv(219) @ 10515000: uvm_test_top.env.scb [axi4_scoreboard] [REF_MEM_WRITE] Addr=0xb3b258e4 Data=0x0a
# UVM_INFO ../src/env/axi4_scoreboard.sv(219) @ 10515000: uvm_test_top.env.scb [axi4_scoreboard] [REF_MEM_WRITE] Addr=0xb3b258e5 Data=0x62
# UVM_INFO ../src/env/axi4_scoreboard.sv(219) @ 10515000: uvm_test_top.env.scb [axi4_scoreboard] [REF_MEM_WRITE] Addr=0xb3b258e6 Data=0xe4
# UVM_INFO ../src/env/axi4_scoreboard.sv(219) @ 10515000: uvm_test_top.env.scb [axi4_scoreboard] [REF_MEM_WRITE] Addr=0xb3b258e5 Data=0x82
# UVM_INFO ../src/env/axi4_scoreboard.sv(219) @ 10515000: uvm_test_top.env.scb [axi4_scoreboard] [REF_MEM_WRITE] Addr=0xb3b258e7 Data=0x8f
# UVM_INFO ../src/env/axi4_scoreboard.sv(219) @ 10515000: uvm_test_top.env.scb [axi4_scoreboard] [REF_MEM_WRITE] Addr=0xb3b258e4 Data=0xa1
# UVM_INFO ../src/env/axi4_scoreboard.sv(219) @ 10515000: uvm_test_top.env.scb [axi4_scoreboard] [REF_MEM_WRITE] Addr=0xb3b258e5 Data=0xa2
# UVM_INFO ../src/env/axi4_scoreboard.sv(219) @ 10515000: uvm_test_top.env.scb [axi4_scoreboard] [REF_MEM_WRITE] Addr=0xb3b258e6 Data=0xf6
# UVM_INFO ../src/env/axi4_scoreboard.sv(219) @ 10515000: uvm_test_top.env.scb [axi4_scoreboard] [REF_MEM_WRITE] Addr=0xb3b258e7 Data=0x7c
# UVM_INFO ../src/env/axi4_scoreboard.sv(219) @ 10515000: uvm_test_top.env.scb [axi4_scoreboard] [REF_MEM_WRITE] Addr=0xb3b258e4 Data=0x07
# UVM_INFO ../src/env/axi4_scoreboard.sv(219) @ 10515000: uvm_test_top.env.scb [axi4_scoreboard] [REF_MEM_WRITE] Addr=0xb3b258ea Data=0xfd
# UVM_INFO ../src/env/axi4_scoreboard.sv(219) @ 10515000: uvm_test_top.env.scb [axi4_scoreboard] [REF_MEM_WRITE] Addr=0xb3b258eb Data=0x9a
# UVM_INFO ../src/env/axi4_scoreboard.sv(219) @ 10515000: uvm_test_top.env.scb [axi4_scoreboard] [REF_MEM_WRITE] Addr=0xb3b258e8 Data=0xf6
# UVM_INFO ../src/env/axi4_scoreboard.sv(219) @ 10515000: uvm_test_top.env.scb [axi4_scoreboard] [REF_MEM_WRITE] Addr=0xb3b258ed Data=0x14
# UVM_INFO ../src/env/axi4_scoreboard.sv(219) @ 10515000: uvm_test_top.env.scb [axi4_scoreboard] [REF_MEM_WRITE] Addr=0xb3b258ec Data=0xd1
# UVM_INFO ../src/env/axi4_scoreboard.sv(219) @ 10515000: uvm_test_top.env.scb [axi4_scoreboard] [REF_MEM_WRITE] Addr=0xb3b258ed Data=0xeb
# UVM_INFO ../src/env/axi4_scoreboard.sv(219) @ 10515000: uvm_test_top.env.scb [axi4_scoreboard] [REF_MEM_WRITE] Addr=0xb3b258ef Data=0xa1
# UVM_INFO ../src/env/axi4_scoreboard.sv(219) @ 10515000: uvm_test_top.env.scb [axi4_scoreboard] [REF_MEM_WRITE] Addr=0xb3b258ee Data=0x6a
# UVM_INFO ../src/env/axi4_scoreboard.sv(219) @ 10515000: uvm_test_top.env.scb [axi4_scoreboard] [REF_MEM_WRITE] Addr=0xb3b258ef Data=0xc0
# UVM_INFO ../src/env/axi4_scoreboard.sv(219) @ 10515000: uvm_test_top.env.scb [axi4_scoreboard] [REF_MEM_WRITE] Addr=0xb3b258ed Data=0x0d
# UVM_INFO ../src/env/axi4_scoreboard.sv(219) @ 10515000: uvm_test_top.env.scb [axi4_scoreboard] [REF_MEM_WRITE] Addr=0xb3b258ee Data=0x7f
# UVM_INFO ../src/env/axi4_scoreboard.sv(219) @ 10515000: uvm_test_top.env.scb [axi4_scoreboard] [REF_MEM_WRITE] Addr=0xb3b258f3 Data=0x3b
# UVM_INFO ../src/env/axi4_scoreboard.sv(219) @ 10515000: uvm_test_top.env.scb [axi4_scoreboard] [REF_MEM_WRITE] Addr=0xb3b258f0 Data=0x38
# UVM_INFO ../src/env/axi4_scoreboard.sv(219) @ 10515000: uvm_test_top.env.scb [axi4_scoreboard] [REF_MEM_WRITE] Addr=0xb3b258f1 Data=0xbe
# UVM_INFO ../src/env/axi4_scoreboard.sv(219) @ 10515000: uvm_test_top.env.scb [axi4_scoreboard] [REF_MEM_WRITE] Addr=0xb3b258f2 Data=0xa5
# UVM_INFO ../src/env/axi4_scoreboard.sv(219) @ 10515000: uvm_test_top.env.scb [axi4_scoreboard] [REF_MEM_WRITE] Addr=0xb3b258f0 Data=0xc4
# UVM_INFO ../src/env/axi4_scoreboard.sv(219) @ 10515000: uvm_test_top.env.scb [axi4_scoreboard] [REF_MEM_WRITE] Addr=0xb3b258f2 Data=0x91
# UVM_INFO ../src/env/axi4_scoreboard.sv(219) @ 10515000: uvm_test_top.env.scb [axi4_scoreboard] [REF_MEM_WRITE] Addr=0xb3b258f5 Data=0xb8
# UVM_INFO ../src/env/axi4_scoreboard.sv(219) @ 10515000: uvm_test_top.env.scb [axi4_scoreboard] [REF_MEM_WRITE] Addr=0xb3b258f6 Data=0x1b
# UVM_INFO ../src/env/axi4_scoreboard.sv(219) @ 10515000: uvm_test_top.env.scb [axi4_scoreboard] [REF_MEM_WRITE] Addr=0xb3b258f7 Data=0xe8
# UVM_INFO ../src/env/axi4_scoreboard.sv(219) @ 10515000: uvm_test_top.env.scb [axi4_scoreboard] [REF_MEM_WRITE] Addr=0xb3b258f7 Data=0x88
# UVM_INFO ../src/env/axi4_scoreboard.sv(219) @ 10515000: uvm_test_top.env.scb [axi4_scoreboard] [REF_MEM_WRITE] Addr=0xb3b258f4 Data=0x9b
# UVM_INFO ../src/env/axi4_scoreboard.sv(219) @ 10515000: uvm_test_top.env.scb [axi4_scoreboard] [REF_MEM_WRITE] Addr=0xb3b258f7 Data=0x98
# UVM_INFO ../src/env/axi4_scoreboard.sv(219) @ 10515000: uvm_test_top.env.scb [axi4_scoreboard] [REF_MEM_WRITE] Addr=0xb3b258f4 Data=0x4d
# UVM_INFO ../src/env/axi4_scoreboard.sv(219) @ 10515000: uvm_test_top.env.scb [axi4_scoreboard] [REF_MEM_WRITE] Addr=0xb3b258f5 Data=0x40
# UVM_INFO ../src/env/axi4_scoreboard.sv(219) @ 10515000: uvm_test_top.env.scb [axi4_scoreboard] [REF_MEM_WRITE] Addr=0xb3b258f6 Data=0xf5
# UVM_INFO ../src/env/axi4_scoreboard.sv(219) @ 10515000: uvm_test_top.env.scb [axi4_scoreboard] [REF_MEM_WRITE] Addr=0xb3b258f7 Data=0x1b
# UVM_INFO ../src/env/axi4_scoreboard.sv(219) @ 10515000: uvm_test_top.env.scb [axi4_scoreboard] [REF_MEM_WRITE] Addr=0xb3b258f9 Data=0xd6
# UVM_INFO ../src/env/axi4_scoreboard.sv(219) @ 10515000: uvm_test_top.env.scb [axi4_scoreboard] [REF_MEM_WRITE] Addr=0xb3b258fa Data=0xea
# UVM_INFO ../src/env/axi4_scoreboard.sv(219) @ 10515000: uvm_test_top.env.scb [axi4_scoreboard] [REF_MEM_WRITE] Addr=0xb3b258fb Data=0x12
# UVM_INFO ../src/env/axi4_scoreboard.sv(219) @ 10515000: uvm_test_top.env.scb [axi4_scoreboard] [REF_MEM_WRITE] Addr=0xb3b258f8 Data=0x4d
# UVM_INFO ../src/env/axi4_scoreboard.sv(219) @ 10515000: uvm_test_top.env.scb [axi4_scoreboard] [REF_MEM_WRITE] Addr=0xb3b258f9 Data=0x53
# UVM_INFO ../src/env/axi4_scoreboard.sv(219) @ 10515000: uvm_test_top.env.scb [axi4_scoreboard] [REF_MEM_WRITE] Addr=0xb3b258f8 Data=0x63
# UVM_INFO ../src/env/axi4_scoreboard.sv(219) @ 10515000: uvm_test_top.env.scb [axi4_scoreboard] [REF_MEM_WRITE] Addr=0xb3b258f9 Data=0xae
# UVM_INFO ../src/env/axi4_scoreboard.sv(219) @ 10515000: uvm_test_top.env.scb [axi4_scoreboard] [REF_MEM_WRITE] Addr=0xb3b258fa Data=0x87
# UVM_INFO ../src/env/axi4_scoreboard.sv(219) @ 10515000: uvm_test_top.env.scb [axi4_scoreboard] [REF_MEM_WRITE] Addr=0xb3b258fe Data=0x8b
# UVM_INFO ../src/env/axi4_scoreboard.sv(219) @ 10515000: uvm_test_top.env.scb [axi4_scoreboard] [REF_MEM_WRITE] Addr=0xb3b258fc Data=0x27
# UVM_INFO ../src/env/axi4_scoreboard.sv(219) @ 10515000: uvm_test_top.env.scb [axi4_scoreboard] [REF_MEM_WRITE] Addr=0xb3b258fe Data=0xfb
# UVM_INFO ../src/env/axi4_scoreboard.sv(219) @ 10515000: uvm_test_top.env.scb [axi4_scoreboard] [REF_MEM_WRITE] Addr=0xb3b258fc Data=0xe6
# UVM_INFO ../src/env/axi4_scoreboard.sv(219) @ 10515000: uvm_test_top.env.scb [axi4_scoreboard] [REF_MEM_WRITE] Addr=0xb3b258fd Data=0xd5
# UVM_INFO ../src/env/axi4_scoreboard.sv(219) @ 10515000: uvm_test_top.env.scb [axi4_scoreboard] [REF_MEM_WRITE] Addr=0xb3b258fe Data=0xbd
# UVM_INFO ../src/env/axi4_scoreboard.sv(219) @ 10515000: uvm_test_top.env.scb [axi4_scoreboard] [REF_MEM_WRITE] Addr=0xb3b258ff Data=0x99
# UVM_INFO ../src/env/axi4_scoreboard.sv(219) @ 10515000: uvm_test_top.env.scb [axi4_scoreboard] [REF_MEM_WRITE] Addr=0xb3b25902 Data=0x7d
# UVM_INFO ../src/env/axi4_scoreboard.sv(219) @ 10515000: uvm_test_top.env.scb [axi4_scoreboard] [REF_MEM_WRITE] Addr=0xb3b25903 Data=0xa2
# UVM_INFO ../src/env/axi4_scoreboard.sv(219) @ 10515000: uvm_test_top.env.scb [axi4_scoreboard] [REF_MEM_WRITE] Addr=0xb3b25901 Data=0xe4
# UVM_INFO ../src/env/axi4_scoreboard.sv(219) @ 10515000: uvm_test_top.env.scb [axi4_scoreboard] [REF_MEM_WRITE] Addr=0xb3b25900 Data=0x02
# UVM_INFO ../src/env/axi4_scoreboard.sv(219) @ 10515000: uvm_test_top.env.scb [axi4_scoreboard] [REF_MEM_WRITE] Addr=0xb3b25903 Data=0x85
# UVM_INFO ../src/env/axi4_scoreboard.sv(219) @ 10515000: uvm_test_top.env.scb [axi4_scoreboard] [REF_MEM_WRITE] Addr=0xb3b25902 Data=0x92
# UVM_INFO ../src/env/axi4_scoreboard.sv(219) @ 10515000: uvm_test_top.env.scb [axi4_scoreboard] [REF_MEM_WRITE] Addr=0xb3b25904 Data=0x4f
# UVM_INFO ../src/env/axi4_scoreboard.sv(219) @ 10515000: uvm_test_top.env.scb [axi4_scoreboard] [REF_MEM_WRITE] Addr=0xb3b25905 Data=0x5a
# UVM_INFO ../src/env/axi4_scoreboard.sv(219) @ 10515000: uvm_test_top.env.scb [axi4_scoreboard] [REF_MEM_WRITE] Addr=0xb3b25906 Data=0x64
# UVM_INFO ../src/env/axi4_scoreboard.sv(219) @ 10515000: uvm_test_top.env.scb [axi4_scoreboard] [REF_MEM_WRITE] Addr=0xb3b25907 Data=0x81
# UVM_INFO ../src/env/axi4_scoreboard.sv(219) @ 10515000: uvm_test_top.env.scb [axi4_scoreboard] [REF_MEM_WRITE] Addr=0xb3b25904 Data=0xc7
# UVM_INFO ../src/env/axi4_scoreboard.sv(219) @ 10515000: uvm_test_top.env.scb [axi4_scoreboard] [REF_MEM_WRITE] Addr=0xb3b25905 Data=0xcf
# UVM_INFO ../src/env/axi4_scoreboard.sv(219) @ 10515000: uvm_test_top.env.scb [axi4_scoreboard] [REF_MEM_WRITE] Addr=0xb3b25906 Data=0x92
# UVM_INFO ../src/env/axi4_scoreboard.sv(219) @ 10515000: uvm_test_top.env.scb [axi4_scoreboard] [REF_MEM_WRITE] Addr=0xb3b25907 Data=0x32
# UVM_INFO ../src/env/axi4_scoreboard.sv(219) @ 10515000: uvm_test_top.env.scb [axi4_scoreboard] [REF_MEM_WRITE] Addr=0xb3b25904 Data=0xc4
# UVM_INFO ../src/env/axi4_scoreboard.sv(219) @ 10515000: uvm_test_top.env.scb [axi4_scoreboard] [REF_MEM_WRITE] Addr=0xb3b25905 Data=0x6a
# UVM_INFO ../src/env/axi4_scoreboard.sv(219) @ 10515000: uvm_test_top.env.scb [axi4_scoreboard] [REF_MEM_WRITE] Addr=0xb3b25906 Data=0x1d
# UVM_INFO ../src/env/axi4_scoreboard.sv(219) @ 10515000: uvm_test_top.env.scb [axi4_scoreboard] [REF_MEM_WRITE] Addr=0xb3b25907 Data=0xbf
# UVM_INFO ../src/env/axi4_scoreboard.sv(219) @ 10515000: uvm_test_top.env.scb [axi4_scoreboard] [REF_MEM_WRITE] Addr=0xb3b25904 Data=0xa8
# UVM_INFO ../src/env/axi4_scoreboard.sv(219) @ 10515000: uvm_test_top.env.scb [axi4_scoreboard] [REF_MEM_WRITE] Addr=0xb3b25905 Data=0x3b
# UVM_INFO ../src/env/axi4_scoreboard.sv(219) @ 10515000: uvm_test_top.env.scb [axi4_scoreboard] [REF_MEM_WRITE] Addr=0xb3b25906 Data=0x05
# UVM_INFO ../src/env/axi4_scoreboard.sv(219) @ 10515000: uvm_test_top.env.scb [axi4_scoreboard] [REF_MEM_WRITE] Addr=0xb3b25907 Data=0xad
# UVM_INFO ../src/env/axi4_scoreboard.sv(219) @ 10515000: uvm_test_top.env.scb [axi4_scoreboard] [REF_MEM_WRITE] Addr=0xb3b2590b Data=0x22
# UVM_INFO ../src/env/axi4_scoreboard.sv(219) @ 10515000: uvm_test_top.env.scb [axi4_scoreboard] [REF_MEM_WRITE] Addr=0xb3b25908 Data=0xcf
# UVM_INFO ../src/env/axi4_scoreboard.sv(219) @ 10515000: uvm_test_top.env.scb [axi4_scoreboard] [REF_MEM_WRITE] Addr=0xb3b2590a Data=0x83
# UVM_INFO ../src/env/axi4_scoreboard.sv(219) @ 10515000: uvm_test_top.env.scb [axi4_scoreboard] [REF_MEM_WRITE] Addr=0xb3b2590b Data=0x41
# UVM_INFO ../src/env/axi4_scoreboard.sv(219) @ 10515000: uvm_test_top.env.scb [axi4_scoreboard] [REF_MEM_WRITE] Addr=0xb3b25909 Data=0x30
# UVM_INFO ../src/env/axi4_scoreboard.sv(219) @ 10515000: uvm_test_top.env.scb [axi4_scoreboard] [REF_MEM_WRITE] Addr=0xb3b2590a Data=0xf7
# UVM_INFO ../src/env/axi4_scoreboard.sv(219) @ 10515000: uvm_test_top.env.scb [axi4_scoreboard] [REF_MEM_WRITE] Addr=0xb3b2590b Data=0x61
# UVM_INFO ../src/env/axi4_scoreboard.sv(219) @ 10515000: uvm_test_top.env.scb [axi4_scoreboard] [REF_MEM_WRITE] Addr=0xb3b25909 Data=0x40
# UVM_INFO ../src/env/axi4_scoreboard.sv(219) @ 10515000: uvm_test_top.env.scb [axi4_scoreboard] [REF_MEM_WRITE] Addr=0xb3b2590c Data=0xbb
# UVM_INFO ../src/env/axi4_scoreboard.sv(219) @ 10515000: uvm_test_top.env.scb [axi4_scoreboard] [REF_MEM_WRITE] Addr=0xb3b2590c Data=0x9d
# UVM_INFO ../src/env/axi4_scoreboard.sv(219) @ 10515000: uvm_test_top.env.scb [axi4_scoreboard] [REF_MEM_WRITE] Addr=0xb3b2590e Data=0x41
# UVM_INFO ../src/env/axi4_scoreboard.sv(219) @ 10515000: uvm_test_top.env.scb [axi4_scoreboard] [REF_MEM_WRITE] Addr=0xb3b2590c Data=0x81
# UVM_INFO ../src/env/axi4_scoreboard.sv(219) @ 10515000: uvm_test_top.env.scb [axi4_scoreboard] [REF_MEM_WRITE] Addr=0xb3b2590f Data=0xb9
# UVM_INFO ../src/env/axi4_scoreboard.sv(219) @ 10515000: uvm_test_top.env.scb [axi4_scoreboard] [REF_MEM_WRITE] Addr=0xb3b2590d Data=0x02
# UVM_INFO ../src/env/axi4_scoreboard.sv(219) @ 10515000: uvm_test_top.env.scb [axi4_scoreboard] [REF_MEM_WRITE] Addr=0xb3b2590e Data=0xe0
# UVM_INFO ../src/env/axi4_scoreboard.sv(219) @ 10515000: uvm_test_top.env.scb [axi4_scoreboard] [REF_MEM_WRITE] Addr=0xb3b25911 Data=0xf3
# UVM_INFO ../src/env/axi4_scoreboard.sv(219) @ 10515000: uvm_test_top.env.scb [axi4_scoreboard] [REF_MEM_WRITE] Addr=0xb3b25912 Data=0xbe
# UVM_INFO ../src/env/axi4_scoreboard.sv(219) @ 10515000: uvm_test_top.env.scb [axi4_scoreboard] [REF_MEM_WRITE] Addr=0xb3b25913 Data=0xc3
# UVM_INFO ../src/env/axi4_scoreboard.sv(219) @ 10515000: uvm_test_top.env.scb [axi4_scoreboard] [REF_MEM_WRITE] Addr=0xb3b25911 Data=0x0b
# UVM_INFO ../src/env/axi4_scoreboard.sv(219) @ 10515000: uvm_test_top.env.scb [axi4_scoreboard] [REF_MEM_WRITE] Addr=0xb3b25912 Data=0xe4
# UVM_INFO ../src/env/axi4_scoreboard.sv(219) @ 10515000: uvm_test_top.env.scb [axi4_scoreboard] [REF_MEM_WRITE] Addr=0xb3b25913 Data=0x05
# UVM_INFO ../src/env/axi4_scoreboard.sv(219) @ 10515000: uvm_test_top.env.scb [axi4_scoreboard] [REF_MEM_WRITE] Addr=0xb3b25910 Data=0xfc
# UVM_INFO ../src/env/axi4_scoreboard.sv(219) @ 10515000: uvm_test_top.env.scb [axi4_scoreboard] [REF_MEM_WRITE] Addr=0xb3b25913 Data=0xce
# UVM_INFO ../src/env/axi4_scoreboard.sv(219) @ 10515000: uvm_test_top.env.scb [axi4_scoreboard] [REF_MEM_WRITE] Addr=0xb3b25910 Data=0x9f
# UVM_INFO ../src/env/axi4_scoreboard.sv(219) @ 10515000: uvm_test_top.env.scb [axi4_scoreboard] [REF_MEM_WRITE] Addr=0xb3b25911 Data=0x52
# UVM_INFO ../src/env/axi4_scoreboard.sv(219) @ 10515000: uvm_test_top.env.scb [axi4_scoreboard] [REF_MEM_WRITE] Addr=0xb3b25913 Data=0xe4
# UVM_INFO ../src/env/axi4_scoreboard.sv(219) @ 10515000: uvm_test_top.env.scb [axi4_scoreboard] [REF_MEM_WRITE] Addr=0xb3b25914 Data=0xc7
# UVM_INFO ../src/env/axi4_scoreboard.sv(219) @ 10515000: uvm_test_top.env.scb [axi4_scoreboard] [REF_MEM_WRITE] Addr=0xb3b25916 Data=0x60
# UVM_INFO ../src/env/axi4_scoreboard.sv(219) @ 10515000: uvm_test_top.env.scb [axi4_scoreboard] [REF_MEM_WRITE] Addr=0xb3b25917 Data=0xd9
# UVM_INFO ../src/env/axi4_scoreboard.sv(219) @ 10515000: uvm_test_top.env.scb [axi4_scoreboard] [REF_MEM_WRITE] Addr=0xb3b25917 Data=0xc8
# UVM_INFO ../src/env/axi4_scoreboard.sv(219) @ 10515000: uvm_test_top.env.scb [axi4_scoreboard] [REF_MEM_WRITE] Addr=0xb3b25915 Data=0x61
# UVM_INFO ../src/env/axi4_scoreboard.sv(219) @ 10515000: uvm_test_top.env.scb [axi4_scoreboard] [REF_MEM_WRITE] Addr=0xb3b25914 Data=0x45
# UVM_INFO ../src/env/axi4_scoreboard.sv(219) @ 10515000: uvm_test_top.env.scb [axi4_scoreboard] [REF_MEM_WRITE] Addr=0xb3b25916 Data=0x05
# UVM_INFO ../src/env/axi4_scoreboard.sv(219) @ 10515000: uvm_test_top.env.scb [axi4_scoreboard] [REF_MEM_WRITE] Addr=0xb3b25917 Data=0x6a
# UVM_INFO ../src/env/axi4_scoreboard.sv(219) @ 10515000: uvm_test_top.env.scb [axi4_scoreboard] [REF_MEM_WRITE] Addr=0xb3b2591a Data=0xe1
# UVM_INFO ../src/env/axi4_scoreboard.sv(219) @ 10515000: uvm_test_top.env.scb [axi4_scoreboard] [REF_MEM_WRITE] Addr=0xb3b2591b Data=0x0b
# UVM_INFO ../src/env/axi4_scoreboard.sv(219) @ 10515000: uvm_test_top.env.scb [axi4_scoreboard] [REF_MEM_WRITE] Addr=0xb3b25919 Data=0x53
# UVM_INFO ../src/env/axi4_scoreboard.sv(219) @ 10515000: uvm_test_top.env.scb [axi4_scoreboard] [REF_MEM_WRITE] Addr=0xb3b2591b Data=0xc2
# UVM_INFO ../src/env/axi4_scoreboard.sv(219) @ 10515000: uvm_test_top.env.scb [axi4_scoreboard] [REF_MEM_WRITE] Addr=0xb3b2591d Data=0x7a
# UVM_INFO ../src/env/axi4_scoreboard.sv(219) @ 10515000: uvm_test_top.env.scb [axi4_scoreboard] [REF_MEM_WRITE] Addr=0xb3b2591c Data=0x0f
# UVM_INFO ../src/env/axi4_scoreboard.sv(219) @ 10515000: uvm_test_top.env.scb [axi4_scoreboard] [REF_MEM_WRITE] Addr=0xb3b2591f Data=0x85
# UVM_INFO ../src/env/axi4_scoreboard.sv(219) @ 10515000: uvm_test_top.env.scb [axi4_scoreboard] [REF_MEM_WRITE] Addr=0xb3b2591c Data=0x93
# UVM_INFO ../src/env/axi4_scoreboard.sv(219) @ 10515000: uvm_test_top.env.scb [axi4_scoreboard] [REF_MEM_WRITE] Addr=0xb3b2591e Data=0x09
# UVM_INFO ../src/env/axi4_scoreboard.sv(219) @ 10515000: uvm_test_top.env.scb [axi4_scoreboard] [REF_MEM_WRITE] Addr=0xb3b2591c Data=0x5b
# UVM_INFO ../src/env/axi4_scoreboard.sv(219) @ 10515000: uvm_test_top.env.scb [axi4_scoreboard] [REF_MEM_WRITE] Addr=0xb3b2591f Data=0x40
# UVM_INFO ../src/env/axi4_scoreboard.sv(219) @ 10515000: uvm_test_top.env.scb [axi4_scoreboard] [REF_MEM_WRITE] Addr=0xb3b25922 Data=0x63
# UVM_INFO ../src/env/axi4_scoreboard.sv(219) @ 10515000: uvm_test_top.env.scb [axi4_scoreboard] [REF_MEM_WRITE] Addr=0xb3b25923 Data=0x2d
# UVM_INFO ../src/env/axi4_scoreboard.sv(219) @ 10515000: uvm_test_top.env.scb [axi4_scoreboard] [REF_MEM_WRITE] Addr=0xb3b25923 Data=0xa0
# UVM_INFO ../src/env/axi4_scoreboard.sv(219) @ 10515000: uvm_test_top.env.scb [axi4_scoreboard] [REF_MEM_WRITE] Addr=0xb3b25920 Data=0x71
# UVM_INFO ../src/env/axi4_scoreboard.sv(219) @ 10515000: uvm_test_top.env.scb [axi4_scoreboard] [REF_MEM_WRITE] Addr=0xb3b25921 Data=0x68
# UVM_INFO ../src/env/axi4_scoreboard.sv(219) @ 10515000: uvm_test_top.env.scb [axi4_scoreboard] [REF_MEM_WRITE] Addr=0xb3b25923 Data=0x3c
# UVM_INFO ../src/env/axi4_scoreboard.sv(219) @ 10515000: uvm_test_top.env.scb [axi4_scoreboard] [REF_MEM_WRITE] Addr=0xb3b25924 Data=0x0d
# UVM_INFO ../src/env/axi4_scoreboard.sv(219) @ 10515000: uvm_test_top.env.scb [axi4_scoreboard] [REF_MEM_WRITE] Addr=0xb3b25926 Data=0xd7
# UVM_INFO ../src/env/axi4_scoreboard.sv(219) @ 10515000: uvm_test_top.env.scb [axi4_scoreboard] [REF_MEM_WRITE] Addr=0xb3b25926 Data=0xa1
# UVM_INFO ../src/env/axi4_scoreboard.sv(219) @ 10515000: uvm_test_top.env.scb [axi4_scoreboard] [REF_MEM_WRITE] Addr=0xb3b25925 Data=0xcf
# UVM_INFO ../src/env/axi4_scoreboard.sv(219) @ 10515000: uvm_test_top.env.scb [axi4_scoreboard] [REF_MEM_WRITE] Addr=0xb3b25927 Data=0xe8
# UVM_INFO ../src/env/axi4_scoreboard.sv(219) @ 10515000: uvm_test_top.env.scb [axi4_scoreboard] [REF_MEM_WRITE] Addr=0xb3b25924 Data=0x0a
# UVM_INFO ../src/env/axi4_scoreboard.sv(219) @ 10515000: uvm_test_top.env.scb [axi4_scoreboard] [REF_MEM_WRITE] Addr=0xb3b25925 Data=0xfb
# UVM_INFO ../src/env/axi4_scoreboard.sv(219) @ 10515000: uvm_test_top.env.scb [axi4_scoreboard] [REF_MEM_WRITE] Addr=0xb3b25927 Data=0xc1
# UVM_INFO ../src/env/axi4_scoreboard.sv(219) @ 10515000: uvm_test_top.env.scb [axi4_scoreboard] [REF_MEM_WRITE] Addr=0xb3b25928 Data=0x76
# UVM_INFO ../src/env/axi4_scoreboard.sv(219) @ 10515000: uvm_test_top.env.scb [axi4_scoreboard] [REF_MEM_WRITE] Addr=0xb3b2592a Data=0x59
# UVM_INFO ../src/slv/axi4_slave_monitor.sv(167) @ 11635000: uvm_test_top.env.slave_agent.mon [axi4_slave_monitor] W data assembled: ID=0x4 ADDR=0x7ac939b4 15 beats
# UVM_INFO ../src/mst/axi4_master_monitor.sv(184) @ 11635000: uvm_test_top.env.master_agent.mon [axi4_master_monitor] W data assembled: ID=0x4 ADDR=0x7ac939b4 15 beats
# UVM_INFO ../src/mst/axi4_master_driver.sv(289) @ 11725000: uvm_test_top.env.master_agent.drv [axi4_master_driver] Master driver received B response: ID=0x4 RESP=AXI4_RESP_OKAY
# UVM_INFO ../src/slv/axi4_slave_driver.sv(348) @ 11725000: uvm_test_top.env.slave_agent.drv [axi4_slave_driver] Write complete: ID=0x4 RESP=AXI4_RESP_OKAY
# UVM_INFO ../src/mst/axi4_master_monitor.sv(210) @ 11725000: uvm_test_top.env.master_agent.mon [axi4_master_monitor] Write complete: ID=0x4 ADDR=0x7ac939b4 RESP=AXI4_RESP_OKAY
# UVM_INFO ../src/env/axi4_scoreboard.sv(87) @ 11725000: uvm_test_top.env.scb [axi4_scoreboard] Master AXI4_WRITE received: ID=0x4 ADDR=0x7ac939b4 LEN=14
# UVM_INFO ../src/slv/axi4_slave_monitor.sv(189) @ 11725000: uvm_test_top.env.slave_agent.mon [axi4_slave_monitor] Write response sent: ID=0x4 ADDR=0x7ac939b4 RESP=AXI4_RESP_OKAY
# UVM_INFO ../src/env/axi4_scoreboard.sv(108) @ 11725000: uvm_test_top.env.scb [axi4_scoreboard] Slave AXI4_WRITE received: ID=0x4 ADDR=0x7ac939b4 LEN=14
# UVM_INFO ../src/env/axi4_scoreboard.sv(291) @ 11725000: uvm_test_top.env.scb [axi4_scoreboard] [WRITE] MATCH #4: ID=0x4 ADDR=0x7ac939b4 LEN=14
# UVM_INFO ../src/env/axi4_scoreboard.sv(219) @ 11725000: uvm_test_top.env.scb [axi4_scoreboard] [REF_MEM_WRITE] Addr=0x7ac939b4 Data=0x5e
# UVM_INFO ../src/env/axi4_scoreboard.sv(219) @ 11725000: uvm_test_top.env.scb [axi4_scoreboard] [REF_MEM_WRITE] Addr=0x7ac939b5 Data=0xc8
# UVM_INFO ../src/env/axi4_scoreboard.sv(219) @ 11725000: uvm_test_top.env.scb [axi4_scoreboard] [REF_MEM_WRITE] Addr=0x7ac939b7 Data=0x37
# UVM_INFO ../src/env/axi4_scoreboard.sv(219) @ 11725000: uvm_test_top.env.scb [axi4_scoreboard] [REF_MEM_WRITE] Addr=0x7ac939b4 Data=0x2e
# UVM_INFO ../src/env/axi4_scoreboard.sv(219) @ 11725000: uvm_test_top.env.scb [axi4_scoreboard] [REF_MEM_WRITE] Addr=0x7ac939b7 Data=0x3c
# UVM_INFO ../src/env/axi4_scoreboard.sv(219) @ 11725000: uvm_test_top.env.scb [axi4_scoreboard] [REF_MEM_WRITE] Addr=0x7ac939b4 Data=0x69
# UVM_INFO ../src/env/axi4_scoreboard.sv(219) @ 11725000: uvm_test_top.env.scb [axi4_scoreboard] [REF_MEM_WRITE] Addr=0x7ac939b5 Data=0xce
# UVM_INFO ../src/env/axi4_scoreboard.sv(219) @ 11725000: uvm_test_top.env.scb [axi4_scoreboard] [REF_MEM_WRITE] Addr=0x7ac939b6 Data=0x50
# UVM_INFO ../src/env/axi4_scoreboard.sv(219) @ 11725000: uvm_test_top.env.scb [axi4_scoreboard] [REF_MEM_WRITE] Addr=0x7ac939b4 Data=0xf1
# UVM_INFO ../src/env/axi4_scoreboard.sv(219) @ 11725000: uvm_test_top.env.scb [axi4_scoreboard] [REF_MEM_WRITE] Addr=0x7ac939b5 Data=0x01
# UVM_INFO ../src/env/axi4_scoreboard.sv(219) @ 11725000: uvm_test_top.env.scb [axi4_scoreboard] [REF_MEM_WRITE] Addr=0x7ac939b6 Data=0x08
# UVM_INFO ../src/env/axi4_scoreboard.sv(219) @ 11725000: uvm_test_top.env.scb [axi4_scoreboard] [REF_MEM_WRITE] Addr=0x7ac939b7 Data=0x23
# UVM_INFO ../src/env/axi4_scoreboard.sv(219) @ 11725000: uvm_test_top.env.scb [axi4_scoreboard] [REF_MEM_WRITE] Addr=0x7ac939b6 Data=0xd7
# UVM_INFO ../src/env/axi4_scoreboard.sv(219) @ 11725000: uvm_test_top.env.scb [axi4_scoreboard] [REF_MEM_WRITE] Addr=0x7ac939b7 Data=0x7a
# UVM_INFO ../src/env/axi4_scoreboard.sv(219) @ 11725000: uvm_test_top.env.scb [axi4_scoreboard] [REF_MEM_WRITE] Addr=0x7ac939b4 Data=0xec
# UVM_INFO ../src/env/axi4_scoreboard.sv(219) @ 11725000: uvm_test_top.env.scb [axi4_scoreboard] [REF_MEM_WRITE] Addr=0x7ac939b5 Data=0x8c
# UVM_INFO ../src/env/axi4_scoreboard.sv(219) @ 11725000: uvm_test_top.env.scb [axi4_scoreboard] [REF_MEM_WRITE] Addr=0x7ac939b6 Data=0x43
# UVM_INFO ../src/env/axi4_scoreboard.sv(219) @ 11725000: uvm_test_top.env.scb [axi4_scoreboard] [REF_MEM_WRITE] Addr=0x7ac939b6 Data=0xec
# UVM_INFO ../src/env/axi4_scoreboard.sv(219) @ 11725000: uvm_test_top.env.scb [axi4_scoreboard] [REF_MEM_WRITE] Addr=0x7ac939b7 Data=0x47
# UVM_INFO ../src/env/axi4_scoreboard.sv(219) @ 11725000: uvm_test_top.env.scb [axi4_scoreboard] [REF_MEM_WRITE] Addr=0x7ac939b7 Data=0x79
# UVM_INFO ../src/env/axi4_scoreboard.sv(219) @ 11725000: uvm_test_top.env.scb [axi4_scoreboard] [REF_MEM_WRITE] Addr=0x7ac939b5 Data=0xea
# UVM_INFO ../src/slv/axi4_slave_driver.sv(228) @ 11735000: uvm_test_top.env.slave_agent.drv [axi4_slave_driver] AW received: ID=0x8 ADDR=0xf2323a15 LEN=211 LOCK=AXI4_LOCK_NORMAL
# UVM_INFO ../src/slv/axi4_slave_monitor.sv(116) @ 11735000: uvm_test_top.env.slave_agent.mon [axi4_slave_monitor] AW received: ID=0x8 ADDR=0xf2323a15 LEN=211
# UVM_INFO ../src/mst/axi4_master_monitor.sv(124) @ 11735000: uvm_test_top.env.master_agent.mon [axi4_master_monitor] AW observed: ID=0x8 ADDR=0xf2323a15 LEN=211
# UVM_INFO ../src/mst/axi4_master_driver.sv(348) @ 15885000: uvm_test_top.env.master_agent.drv [axi4_master_driver] Master driver received all R beats for ID=0x1
# UVM_INFO ../src/slv/axi4_slave_driver.sv(501) @ 15885000: uvm_test_top.env.slave_agent.drv [axi4_slave_driver] Read complete: ID=0x1 ADDR=0x3865be81 RESP=AXI4_RESP_OKAY  236 beats sent
# UVM_INFO ../src/mst/axi4_master_monitor.sv(314) @ 15885000: uvm_test_top.env.master_agent.mon [axi4_master_monitor] Read complete: ID=0x1 ADDR=0x3865be81 236 beats
# UVM_INFO ../src/env/axi4_scoreboard.sv(87) @ 15885000: uvm_test_top.env.scb [axi4_scoreboard] Master AXI4_READ received: ID=0x1 ADDR=0x3865be81 LEN=235
# UVM_INFO ../src/slv/axi4_slave_monitor.sv(287) @ 15885000: uvm_test_top.env.slave_agent.mon [axi4_slave_monitor] Read data sent: ID=0x1 ADDR=0x3865be81 236 beats
# UVM_INFO ../src/env/axi4_scoreboard.sv(108) @ 15885000: uvm_test_top.env.scb [axi4_scoreboard] Slave AXI4_READ received: ID=0x1 ADDR=0x3865be81 LEN=235
# UVM_INFO ../src/env/axi4_scoreboard.sv(291) @ 15885000: uvm_test_top.env.scb [axi4_scoreboard] [READ] MATCH #5: ID=0x1 ADDR=0x3865be81 LEN=235
# UVM_INFO ../src/mst/axi4_master_driver.sv(348) @ 16755000: uvm_test_top.env.master_agent.drv [axi4_master_driver] Master driver received all R beats for ID=0x3
# UVM_INFO ../src/slv/axi4_slave_driver.sv(501) @ 16755000: uvm_test_top.env.slave_agent.drv [axi4_slave_driver] Read complete: ID=0x3 ADDR=0xfc9a6fc4 RESP=AXI4_RESP_DECERR  16 beats sent
# UVM_INFO ../src/slv/axi4_slave_monitor.sv(287) @ 16755000: uvm_test_top.env.slave_agent.mon [axi4_slave_monitor] Read data sent: ID=0x3 ADDR=0xfc9a6fc4 16 beats
# UVM_INFO ../src/env/axi4_scoreboard.sv(108) @ 16755000: uvm_test_top.env.scb [axi4_scoreboard] Slave AXI4_READ received: ID=0x3 ADDR=0xfc9a6fc4 LEN=15
# UVM_INFO ../src/mst/axi4_master_monitor.sv(314) @ 16755000: uvm_test_top.env.master_agent.mon [axi4_master_monitor] Read complete: ID=0x3 ADDR=0xfc9a6fc4 16 beats
# UVM_INFO ../src/env/axi4_scoreboard.sv(87) @ 16755000: uvm_test_top.env.scb [axi4_scoreboard] Master AXI4_READ received: ID=0x3 ADDR=0xfc9a6fc4 LEN=15
# UVM_INFO ../src/env/axi4_scoreboard.sv(291) @ 16755000: uvm_test_top.env.scb [axi4_scoreboard] [READ] MATCH #6: ID=0x3 ADDR=0xfc9a6fc4 LEN=15
# UVM_INFO ../src/mst/axi4_master_driver.sv(348) @ 26295000: uvm_test_top.env.master_agent.drv [axi4_master_driver] Master driver received all R beats for ID=0x9
# UVM_INFO ../src/slv/axi4_slave_driver.sv(501) @ 26295000: uvm_test_top.env.slave_agent.drv [axi4_slave_driver] Read complete: ID=0x9 ADDR=0xaeba08f0 RESP=AXI4_RESP_OKAY  158 beats sent
# UVM_INFO ../src/slv/axi4_slave_monitor.sv(287) @ 26295000: uvm_test_top.env.slave_agent.mon [axi4_slave_monitor] Read data sent: ID=0x9 ADDR=0xaeba08f0 158 beats
# UVM_INFO ../src/env/axi4_scoreboard.sv(108) @ 26295000: uvm_test_top.env.scb [axi4_scoreboard] Slave AXI4_READ received: ID=0x9 ADDR=0xaeba08f0 LEN=157
# UVM_INFO ../src/mst/axi4_master_monitor.sv(314) @ 26295000: uvm_test_top.env.master_agent.mon [axi4_master_monitor] Read complete: ID=0x9 ADDR=0xaeba08f0 158 beats
# UVM_INFO ../src/env/axi4_scoreboard.sv(87) @ 26295000: uvm_test_top.env.scb [axi4_scoreboard] Master AXI4_READ received: ID=0x9 ADDR=0xaeba08f0 LEN=157
# UVM_INFO ../src/env/axi4_scoreboard.sv(291) @ 26295000: uvm_test_top.env.scb [axi4_scoreboard] [READ] MATCH #7: ID=0x9 ADDR=0xaeba08f0 LEN=157
# UVM_INFO ../src/slv/axi4_slave_monitor.sv(167) @ 27915000: uvm_test_top.env.slave_agent.mon [axi4_slave_monitor] W data assembled: ID=0x8 ADDR=0xf2323a15 212 beats
# UVM_INFO ../src/mst/axi4_master_monitor.sv(184) @ 27915000: uvm_test_top.env.master_agent.mon [axi4_master_monitor] W data assembled: ID=0x8 ADDR=0xf2323a15 212 beats
# UVM_INFO ../src/mst/axi4_master_driver.sv(289) @ 27975000: uvm_test_top.env.master_agent.drv [axi4_master_driver] Master driver received B response: ID=0x8 RESP=AXI4_RESP_DECERR
# UVM_INFO ../src/slv/axi4_slave_driver.sv(348) @ 27975000: uvm_test_top.env.slave_agent.drv [axi4_slave_driver] Write complete: ID=0x8 RESP=AXI4_RESP_DECERR
# UVM_INFO ../src/slv/axi4_slave_monitor.sv(189) @ 27975000: uvm_test_top.env.slave_agent.mon [axi4_slave_monitor] Write response sent: ID=0x8 ADDR=0xf2323a15 RESP=AXI4_RESP_DECERR
# UVM_INFO ../src/env/axi4_scoreboard.sv(108) @ 27975000: uvm_test_top.env.scb [axi4_scoreboard] Slave AXI4_WRITE received: ID=0x8 ADDR=0xf2323a15 LEN=211
# UVM_INFO ../src/mst/axi4_master_monitor.sv(210) @ 27975000: uvm_test_top.env.master_agent.mon [axi4_master_monitor] Write complete: ID=0x8 ADDR=0xf2323a15 RESP=AXI4_RESP_DECERR
# UVM_INFO ../src/env/axi4_scoreboard.sv(87) @ 27975000: uvm_test_top.env.scb [axi4_scoreboard] Master AXI4_WRITE received: ID=0x8 ADDR=0xf2323a15 LEN=211
# UVM_INFO ../src/env/axi4_scoreboard.sv(291) @ 27975000: uvm_test_top.env.scb [axi4_scoreboard] [WRITE] MATCH #8: ID=0x8 ADDR=0xf2323a15 LEN=211
# UVM_INFO ../src/env/axi4_scoreboard.sv(226) @ 27975000: uvm_test_top.env.scb [axi4_scoreboard] [REF_MEM_WRITE_IGNORED] Write ignored for ADDR=0xf2323a15 LOCK=AXI4_LOCK_NORMAL RESP=AXI4_RESP_DECERR
# UVM_INFO ../src/slv/axi4_slave_driver.sv(228) @ 27995000: uvm_test_top.env.slave_agent.drv [axi4_slave_driver] AW received: ID=0x0 ADDR=0xaee6df7d LEN=193 LOCK=AXI4_LOCK_NORMAL
# UVM_INFO ../src/slv/axi4_slave_monitor.sv(116) @ 27995000: uvm_test_top.env.slave_agent.mon [axi4_slave_monitor] AW received: ID=0x0 ADDR=0xaee6df7d LEN=193
# UVM_INFO ../src/mst/axi4_master_monitor.sv(124) @ 27995000: uvm_test_top.env.master_agent.mon [axi4_master_monitor] AW observed: ID=0x0 ADDR=0xaee6df7d LEN=193
# UVM_INFO ../src/slv/axi4_slave_driver.sv(228) @ 28065000: uvm_test_top.env.slave_agent.drv [axi4_slave_driver] AW received: ID=0x4 ADDR=0xb97a6fca LEN=216 LOCK=AXI4_LOCK_NORMAL
# UVM_INFO ../src/mst/axi4_master_monitor.sv(124) @ 28065000: uvm_test_top.env.master_agent.mon [axi4_master_monitor] AW observed: ID=0x4 ADDR=0xb97a6fca LEN=216
# UVM_INFO ../src/slv/axi4_slave_monitor.sv(116) @ 28065000: uvm_test_top.env.slave_agent.mon [axi4_slave_monitor] AW received: ID=0x4 ADDR=0xb97a6fca LEN=216
# UVM_INFO ../src/slv/axi4_slave_driver.sv(228) @ 28145000: uvm_test_top.env.slave_agent.drv [axi4_slave_driver] AW received: ID=0xd ADDR=0xe4af4766 LEN=171 LOCK=AXI4_LOCK_NORMAL
# UVM_INFO ../src/mst/axi4_master_monitor.sv(124) @ 28145000: uvm_test_top.env.master_agent.mon [axi4_master_monitor] AW observed: ID=0xd ADDR=0xe4af4766 LEN=171
# UVM_INFO ../src/slv/axi4_slave_monitor.sv(116) @ 28145000: uvm_test_top.env.slave_agent.mon [axi4_slave_monitor] AW received: ID=0xd ADDR=0xe4af4766 LEN=171
# UVM_INFO ../src/slv/axi4_slave_driver.sv(228) @ 28225000: uvm_test_top.env.slave_agent.drv [axi4_slave_driver] AW received: ID=0x8 ADDR=0xf8f1056b LEN=207 LOCK=AXI4_LOCK_NORMAL
# UVM_INFO ../src/mst/axi4_master_monitor.sv(124) @ 28225000: uvm_test_top.env.master_agent.mon [axi4_master_monitor] AW observed: ID=0x8 ADDR=0xf8f1056b LEN=207
# UVM_INFO ../src/slv/axi4_slave_monitor.sv(116) @ 28225000: uvm_test_top.env.slave_agent.mon [axi4_slave_monitor] AW received: ID=0x8 ADDR=0xf8f1056b LEN=207
# UVM_INFO ../src/slv/axi4_slave_driver.sv(228) @ 28285000: uvm_test_top.env.slave_agent.drv [axi4_slave_driver] AW received: ID=0x1 ADDR=0xccee3d40 LEN=142 LOCK=AXI4_LOCK_NORMAL
# UVM_INFO ../src/mst/axi4_master_monitor.sv(124) @ 28285000: uvm_test_top.env.master_agent.mon [axi4_master_monitor] AW observed: ID=0x1 ADDR=0xccee3d40 LEN=142
# UVM_INFO ../src/slv/axi4_slave_monitor.sv(116) @ 28285000: uvm_test_top.env.slave_agent.mon [axi4_slave_monitor] AW received: ID=0x1 ADDR=0xccee3d40 LEN=142
# UVM_INFO ../src/slv/axi4_slave_driver.sv(228) @ 28395000: uvm_test_top.env.slave_agent.drv [axi4_slave_driver] AW received: ID=0xa ADDR=0x46b36e9f LEN=10 LOCK=AXI4_LOCK_NORMAL
# UVM_INFO ../src/slv/axi4_slave_monitor.sv(116) @ 28395000: uvm_test_top.env.slave_agent.mon [axi4_slave_monitor] AW received: ID=0xa ADDR=0x46b36e9f LEN=10
# UVM_INFO ../src/mst/axi4_master_monitor.sv(124) @ 28395000: uvm_test_top.env.master_agent.mon [axi4_master_monitor] AW observed: ID=0xa ADDR=0x46b36e9f LEN=10
# UVM_INFO ../src/mst/axi4_master_driver.sv(348) @ 28405000: uvm_test_top.env.master_agent.drv [axi4_master_driver] Master driver received all R beats for ID=0xe
# UVM_INFO ../src/slv/axi4_slave_driver.sv(501) @ 28405000: uvm_test_top.env.slave_agent.drv [axi4_slave_driver] Read complete: ID=0xe ADDR=0x0ca2c569 RESP=AXI4_RESP_OKAY  36 beats sent
# UVM_INFO ../src/mst/axi4_master_monitor.sv(314) @ 28405000: uvm_test_top.env.master_agent.mon [axi4_master_monitor] Read complete: ID=0xe ADDR=0x0ca2c569 36 beats
# UVM_INFO ../src/env/axi4_scoreboard.sv(87) @ 28405000: uvm_test_top.env.scb [axi4_scoreboard] Master AXI4_READ received: ID=0xe ADDR=0x0ca2c569 LEN=35
# UVM_INFO ../src/slv/axi4_slave_monitor.sv(287) @ 28405000: uvm_test_top.env.slave_agent.mon [axi4_slave_monitor] Read data sent: ID=0xe ADDR=0x0ca2c569 36 beats
# UVM_INFO ../src/env/axi4_scoreboard.sv(108) @ 28405000: uvm_test_top.env.scb [axi4_scoreboard] Slave AXI4_READ received: ID=0xe ADDR=0x0ca2c569 LEN=35
# UVM_INFO ../src/env/axi4_scoreboard.sv(291) @ 28405000: uvm_test_top.env.scb [axi4_scoreboard] [READ] MATCH #9: ID=0xe ADDR=0x0ca2c569 LEN=35
# UVM_INFO ../src/slv/axi4_slave_driver.sv(228) @ 28495000: uvm_test_top.env.slave_agent.drv [axi4_slave_driver] AW received: ID=0x3 ADDR=0xcb32b5cb LEN=123 LOCK=AXI4_LOCK_NORMAL
# UVM_INFO ../src/slv/axi4_slave_monitor.sv(116) @ 28495000: uvm_test_top.env.slave_agent.mon [axi4_slave_monitor] AW received: ID=0x3 ADDR=0xcb32b5cb LEN=123
# UVM_INFO ../src/mst/axi4_master_monitor.sv(124) @ 28495000: uvm_test_top.env.master_agent.mon [axi4_master_monitor] AW observed: ID=0x3 ADDR=0xcb32b5cb LEN=123
# UVM_INFO ../src/slv/axi4_slave_driver.sv(228) @ 28555000: uvm_test_top.env.slave_agent.drv [axi4_slave_driver] AW received: ID=0x0 ADDR=0x46899cc9 LEN=138 LOCK=AXI4_LOCK_NORMAL
# UVM_INFO ../src/slv/axi4_slave_monitor.sv(116) @ 28555000: uvm_test_top.env.slave_agent.mon [axi4_slave_monitor] AW received: ID=0x0 ADDR=0x46899cc9 LEN=138
# UVM_INFO ../src/mst/axi4_master_monitor.sv(124) @ 28555000: uvm_test_top.env.master_agent.mon [axi4_master_monitor] AW observed: ID=0x0 ADDR=0x46899cc9 LEN=138
# UVM_INFO ../src/slv/axi4_slave_driver.sv(228) @ 28655000: uvm_test_top.env.slave_agent.drv [axi4_slave_driver] AW received: ID=0x4 ADDR=0x387e1e2c LEN=82 LOCK=AXI4_LOCK_NORMAL
# UVM_INFO ../src/slv/axi4_slave_monitor.sv(116) @ 28655000: uvm_test_top.env.slave_agent.mon [axi4_slave_monitor] AW received: ID=0x4 ADDR=0x387e1e2c LEN=82
# UVM_INFO ../src/mst/axi4_master_monitor.sv(124) @ 28655000: uvm_test_top.env.master_agent.mon [axi4_master_monitor] AW observed: ID=0x4 ADDR=0x387e1e2c LEN=82
# UVM_INFO ../src/slv/axi4_slave_driver.sv(228) @ 28725000: uvm_test_top.env.slave_agent.drv [axi4_slave_driver] AW received: ID=0x6 ADDR=0x39d3b7a5 LEN=20 LOCK=AXI4_LOCK_NORMAL
# UVM_INFO ../src/mst/axi4_master_monitor.sv(124) @ 28725000: uvm_test_top.env.master_agent.mon [axi4_master_monitor] AW observed: ID=0x6 ADDR=0x39d3b7a5 LEN=20
# UVM_INFO ../src/slv/axi4_slave_monitor.sv(116) @ 28725000: uvm_test_top.env.slave_agent.mon [axi4_slave_monitor] AW received: ID=0x6 ADDR=0x39d3b7a5 LEN=20
# UVM_INFO ../src/mst/axi4_master_driver.sv(348) @ 32515000: uvm_test_top.env.master_agent.drv [axi4_master_driver] Master driver received all R beats for ID=0x6
# UVM_INFO ../src/slv/axi4_slave_driver.sv(501) @ 32515000: uvm_test_top.env.slave_agent.drv [axi4_slave_driver] Read complete: ID=0x6 ADDR=0x896a4326 RESP=AXI4_RESP_OKAY  69 beats sent
# UVM_INFO ../src/slv/axi4_slave_monitor.sv(287) @ 32515000: uvm_test_top.env.slave_agent.mon [axi4_slave_monitor] Read data sent: ID=0x6 ADDR=0x896a4326 69 beats
# UVM_INFO ../src/env/axi4_scoreboard.sv(108) @ 32515000: uvm_test_top.env.scb [axi4_scoreboard] Slave AXI4_READ received: ID=0x6 ADDR=0x896a4326 LEN=68
# UVM_INFO ../src/mst/axi4_master_monitor.sv(314) @ 32515000: uvm_test_top.env.master_agent.mon [axi4_master_monitor] Read complete: ID=0x6 ADDR=0x896a4326 69 beats
# UVM_INFO ../src/env/axi4_scoreboard.sv(87) @ 32515000: uvm_test_top.env.scb [axi4_scoreboard] Master AXI4_READ received: ID=0x6 ADDR=0x896a4326 LEN=68
# UVM_INFO ../src/env/axi4_scoreboard.sv(291) @ 32515000: uvm_test_top.env.scb [axi4_scoreboard] [READ] MATCH #10: ID=0x6 ADDR=0x896a4326 LEN=68
# UVM_INFO ../src/mst/axi4_master_monitor.sv(184) @ 42605000: uvm_test_top.env.master_agent.mon [axi4_master_monitor] W data assembled: ID=0x0 ADDR=0xaee6df7d 194 beats
# UVM_INFO ../src/slv/axi4_slave_monitor.sv(167) @ 42605000: uvm_test_top.env.slave_agent.mon [axi4_slave_monitor] W data assembled: ID=0x0 ADDR=0xaee6df7d 194 beats
# UVM_INFO ../src/mst/axi4_master_driver.sv(289) @ 42665000: uvm_test_top.env.master_agent.drv [axi4_master_driver] Master driver received B response: ID=0x0 RESP=AXI4_RESP_OKAY
# UVM_INFO ../src/slv/axi4_slave_driver.sv(348) @ 42665000: uvm_test_top.env.slave_agent.drv [axi4_slave_driver] Write complete: ID=0x0 RESP=AXI4_RESP_OKAY
# UVM_INFO ../src/mst/axi4_master_monitor.sv(210) @ 42665000: uvm_test_top.env.master_agent.mon [axi4_master_monitor] Write complete: ID=0x0 ADDR=0xaee6df7d RESP=AXI4_RESP_OKAY
# UVM_INFO ../src/env/axi4_scoreboard.sv(87) @ 42665000: uvm_test_top.env.scb [axi4_scoreboard] Master AXI4_WRITE received: ID=0x0 ADDR=0xaee6df7d LEN=193
# UVM_INFO ../src/slv/axi4_slave_monitor.sv(189) @ 42665000: uvm_test_top.env.slave_agent.mon [axi4_slave_monitor] Write response sent: ID=0x0 ADDR=0xaee6df7d RESP=AXI4_RESP_OKAY
# UVM_INFO ../src/env/axi4_scoreboard.sv(108) @ 42665000: uvm_test_top.env.scb [axi4_scoreboard] Slave AXI4_WRITE received: ID=0x0 ADDR=0xaee6df7d LEN=193
# UVM_INFO ../src/env/axi4_scoreboard.sv(291) @ 42665000: uvm_test_top.env.scb [axi4_scoreboard] [WRITE] MATCH #11: ID=0x0 ADDR=0xaee6df7d LEN=193
# UVM_INFO ../src/env/axi4_scoreboard.sv(219) @ 42665000: uvm_test_top.env.scb [axi4_scoreboard] [REF_MEM_WRITE] Addr=0xaee6df82 Data=0xe8
# UVM_INFO ../src/env/axi4_scoreboard.sv(219) @ 42665000: uvm_test_top.env.scb [axi4_scoreboard] [REF_MEM_WRITE] Addr=0xaee6df83 Data=0x94
# UVM_INFO ../src/env/axi4_scoreboard.sv(219) @ 42665000: uvm_test_top.env.scb [axi4_scoreboard] [REF_MEM_WRITE] Addr=0xaee6df88 Data=0x31
# UVM_INFO ../src/env/axi4_scoreboard.sv(219) @ 42665000: uvm_test_top.env.scb [axi4_scoreboard] [REF_MEM_WRITE] Addr=0xaee6df89 Data=0x62
# UVM_INFO ../src/env/axi4_scoreboard.sv(219) @ 42665000: uvm_test_top.env.scb [axi4_scoreboard] [REF_MEM_WRITE] Addr=0xaee6df8a Data=0x56
# UVM_INFO ../src/env/axi4_scoreboard.sv(219) @ 42665000: uvm_test_top.env.scb [axi4_scoreboard] [REF_MEM_WRITE] Addr=0xaee6df8d Data=0xd6
# UVM_INFO ../src/env/axi4_scoreboard.sv(219) @ 42665000: uvm_test_top.env.scb [axi4_scoreboard] [REF_MEM_WRITE] Addr=0xaee6df8e Data=0xc1
# UVM_INFO ../src/env/axi4_scoreboard.sv(219) @ 42665000: uvm_test_top.env.scb [axi4_scoreboard] [REF_MEM_WRITE] Addr=0xaee6df8f Data=0xcb
# UVM_INFO ../src/env/axi4_scoreboard.sv(219) @ 42665000: uvm_test_top.env.scb [axi4_scoreboard] [REF_MEM_WRITE] Addr=0xaee6df90 Data=0x3b
# UVM_INFO ../src/env/axi4_scoreboard.sv(219) @ 42665000: uvm_test_top.env.scb [axi4_scoreboard] [REF_MEM_WRITE] Addr=0xaee6df91 Data=0x03
# UVM_INFO ../src/env/axi4_scoreboard.sv(219) @ 42665000: uvm_test_top.env.scb [axi4_scoreboard] [REF_MEM_WRITE] Addr=0xaee6df94 Data=0xf5
# UVM_INFO ../src/env/axi4_scoreboard.sv(219) @ 42665000: uvm_test_top.env.scb [axi4_scoreboard] [REF_MEM_WRITE] Addr=0xaee6df97 Data=0x25
# UVM_INFO ../src/env/axi4_scoreboard.sv(219) @ 42665000: uvm_test_top.env.scb [axi4_scoreboard] [REF_MEM_WRITE] Addr=0xaee6df99 Data=0xbf
# UVM_INFO ../src/env/axi4_scoreboard.sv(219) @ 42665000: uvm_test_top.env.scb [axi4_scoreboard] [REF_MEM_WRITE] Addr=0xaee6df9a Data=0xe5
# UVM_INFO ../src/env/axi4_scoreboard.sv(219) @ 42665000: uvm_test_top.env.scb [axi4_scoreboard] [REF_MEM_WRITE] Addr=0xaee6df9c Data=0x2f
# UVM_INFO ../src/env/axi4_scoreboard.sv(219) @ 42665000: uvm_test_top.env.scb [axi4_scoreboard] [REF_MEM_WRITE] Addr=0xaee6df9d Data=0x09
# UVM_INFO ../src/env/axi4_scoreboard.sv(219) @ 42665000: uvm_test_top.env.scb [axi4_scoreboard] [REF_MEM_WRITE] Addr=0xaee6dfa2 Data=0x3b
# UVM_INFO ../src/env/axi4_scoreboard.sv(219) @ 42665000: uvm_test_top.env.scb [axi4_scoreboard] [REF_MEM_WRITE] Addr=0xaee6dfa3 Data=0x9d
# UVM_INFO ../src/env/axi4_scoreboard.sv(219) @ 42665000: uvm_test_top.env.scb [axi4_scoreboard] [REF_MEM_WRITE] Addr=0xaee6dfa4 Data=0xb6
# UVM_INFO ../src/env/axi4_scoreboard.sv(219) @ 42665000: uvm_test_top.env.scb [axi4_scoreboard] [REF_MEM_WRITE] Addr=0xaee6dfa5 Data=0xfc
# UVM_INFO ../src/env/axi4_scoreboard.sv(219) @ 42665000: uvm_test_top.env.scb [axi4_scoreboard] [REF_MEM_WRITE] Addr=0xaee6dfab Data=0xdb
# UVM_INFO ../src/env/axi4_scoreboard.sv(219) @ 42665000: uvm_test_top.env.scb [axi4_scoreboard] [REF_MEM_WRITE] Addr=0xaee6dfac Data=0xff
# UVM_INFO ../src/env/axi4_scoreboard.sv(219) @ 42665000: uvm_test_top.env.scb [axi4_scoreboard] [REF_MEM_WRITE] Addr=0xaee6dfad Data=0x7a
# UVM_INFO ../src/env/axi4_scoreboard.sv(219) @ 42665000: uvm_test_top.env.scb [axi4_scoreboard] [REF_MEM_WRITE] Addr=0xaee6dfb0 Data=0x51
# UVM_INFO ../src/env/axi4_scoreboard.sv(219) @ 42665000: uvm_test_top.env.scb [axi4_scoreboard] [REF_MEM_WRITE] Addr=0xaee6dfb1 Data=0xe8
# UVM_INFO ../src/env/axi4_scoreboard.sv(219) @ 42665000: uvm_test_top.env.scb [axi4_scoreboard] [REF_MEM_WRITE] Addr=0xaee6dfb3 Data=0xd0
# UVM_INFO ../src/env/axi4_scoreboard.sv(219) @ 42665000: uvm_test_top.env.scb [axi4_scoreboard] [REF_MEM_WRITE] Addr=0xaee6dfb5 Data=0x33
# UVM_INFO ../src/env/axi4_scoreboard.sv(219) @ 42665000: uvm_test_top.env.scb [axi4_scoreboard] [REF_MEM_WRITE] Addr=0xaee6dfb7 Data=0xfb
# UVM_INFO ../src/env/axi4_scoreboard.sv(219) @ 42665000: uvm_test_top.env.scb [axi4_scoreboard] [REF_MEM_WRITE] Addr=0xaee6dfb8 Data=0xc9
# UVM_INFO ../src/env/axi4_scoreboard.sv(219) @ 42665000: uvm_test_top.env.scb [axi4_scoreboard] [REF_MEM_WRITE] Addr=0xaee6dfb9 Data=0xc2
# UVM_INFO ../src/env/axi4_scoreboard.sv(219) @ 42665000: uvm_test_top.env.scb [axi4_scoreboard] [REF_MEM_WRITE] Addr=0xaee6dfbb Data=0x45
# UVM_INFO ../src/env/axi4_scoreboard.sv(219) @ 42665000: uvm_test_top.env.scb [axi4_scoreboard] [REF_MEM_WRITE] Addr=0xaee6dfbd Data=0xfd
# UVM_INFO ../src/env/axi4_scoreboard.sv(219) @ 42665000: uvm_test_top.env.scb [axi4_scoreboard] [REF_MEM_WRITE] Addr=0xaee6dfbe Data=0x60
# UVM_INFO ../src/env/axi4_scoreboard.sv(219) @ 42665000: uvm_test_top.env.scb [axi4_scoreboard] [REF_MEM_WRITE] Addr=0xaee6dfc2 Data=0x2a
# UVM_INFO ../src/env/axi4_scoreboard.sv(219) @ 42665000: uvm_test_top.env.scb [axi4_scoreboard] [REF_MEM_WRITE] Addr=0xaee6dfc4 Data=0xfa
# UVM_INFO ../src/env/axi4_scoreboard.sv(219) @ 42665000: uvm_test_top.env.scb [axi4_scoreboard] [REF_MEM_WRITE] Addr=0xaee6dfc6 Data=0x23
# UVM_INFO ../src/env/axi4_scoreboard.sv(219) @ 42665000: uvm_test_top.env.scb [axi4_scoreboard] [REF_MEM_WRITE] Addr=0xaee6dfc9 Data=0xc5
# UVM_INFO ../src/env/axi4_scoreboard.sv(219) @ 42665000: uvm_test_top.env.scb [axi4_scoreboard] [REF_MEM_WRITE] Addr=0xaee6dfcb Data=0x99
# UVM_INFO ../src/env/axi4_scoreboard.sv(219) @ 42665000: uvm_test_top.env.scb [axi4_scoreboard] [REF_MEM_WRITE] Addr=0xaee6dfcc Data=0x92
# UVM_INFO ../src/env/axi4_scoreboard.sv(219) @ 42665000: uvm_test_top.env.scb [axi4_scoreboard] [REF_MEM_WRITE] Addr=0xaee6dfce Data=0x4b
# UVM_INFO ../src/env/axi4_scoreboard.sv(219) @ 42665000: uvm_test_top.env.scb [axi4_scoreboard] [REF_MEM_WRITE] Addr=0xaee6dfd2 Data=0x9b
# UVM_INFO ../src/env/axi4_scoreboard.sv(219) @ 42665000: uvm_test_top.env.scb [axi4_scoreboard] [REF_MEM_WRITE] Addr=0xaee6dfd3 Data=0xcb
# UVM_INFO ../src/env/axi4_scoreboard.sv(219) @ 42665000: uvm_test_top.env.scb [axi4_scoreboard] [REF_MEM_WRITE] Addr=0xaee6dfd4 Data=0x91
# UVM_INFO ../src/env/axi4_scoreboard.sv(219) @ 42665000: uvm_test_top.env.scb [axi4_scoreboard] [REF_MEM_WRITE] Addr=0xaee6dfd8 Data=0xb5
# UVM_INFO ../src/env/axi4_scoreboard.sv(219) @ 42665000: uvm_test_top.env.scb [axi4_scoreboard] [REF_MEM_WRITE] Addr=0xaee6dfd9 Data=0x12
# UVM_INFO ../src/env/axi4_scoreboard.sv(219) @ 42665000: uvm_test_top.env.scb [axi4_scoreboard] [REF_MEM_WRITE] Addr=0xaee6dfdd Data=0x69
# UVM_INFO ../src/env/axi4_scoreboard.sv(219) @ 42665000: uvm_test_top.env.scb [axi4_scoreboard] [REF_MEM_WRITE] Addr=0xaee6dfe2 Data=0x41
# UVM_INFO ../src/env/axi4_scoreboard.sv(219) @ 42665000: uvm_test_top.env.scb [axi4_scoreboard] [REF_MEM_WRITE] Addr=0xaee6dfe9 Data=0xed
# UVM_INFO ../src/env/axi4_scoreboard.sv(219) @ 42665000: uvm_test_top.env.scb [axi4_scoreboard] [REF_MEM_WRITE] Addr=0xaee6dfea Data=0xea
# UVM_INFO ../src/env/axi4_scoreboard.sv(219) @ 42665000: uvm_test_top.env.scb [axi4_scoreboard] [REF_MEM_WRITE] Addr=0xaee6dfeb Data=0x6f
# UVM_INFO ../src/env/axi4_scoreboard.sv(219) @ 42665000: uvm_test_top.env.scb [axi4_scoreboard] [REF_MEM_WRITE] Addr=0xaee6dfec Data=0xed
# UVM_INFO ../src/env/axi4_scoreboard.sv(219) @ 42665000: uvm_test_top.env.scb [axi4_scoreboard] [REF_MEM_WRITE] Addr=0xaee6dfed Data=0x1b
# UVM_INFO ../src/env/axi4_scoreboard.sv(219) @ 42665000: uvm_test_top.env.scb [axi4_scoreboard] [REF_MEM_WRITE] Addr=0xaee6dff0 Data=0x22
# UVM_INFO ../src/env/axi4_scoreboard.sv(219) @ 42665000: uvm_test_top.env.scb [axi4_scoreboard] [REF_MEM_WRITE] Addr=0xaee6dff1 Data=0x6b
# UVM_INFO ../src/env/axi4_scoreboard.sv(219) @ 42665000: uvm_test_top.env.scb [axi4_scoreboard] [REF_MEM_WRITE] Addr=0xaee6dff2 Data=0xdb
# UVM_INFO ../src/env/axi4_scoreboard.sv(219) @ 42665000: uvm_test_top.env.scb [axi4_scoreboard] [REF_MEM_WRITE] Addr=0xaee6dff3 Data=0x3d
# UVM_INFO ../src/env/axi4_scoreboard.sv(219) @ 42665000: uvm_test_top.env.scb [axi4_scoreboard] [REF_MEM_WRITE] Addr=0xaee6dff4 Data=0x74
# UVM_INFO ../src/env/axi4_scoreboard.sv(219) @ 42665000: uvm_test_top.env.scb [axi4_scoreboard] [REF_MEM_WRITE] Addr=0xaee6dff7 Data=0x0a
# UVM_INFO ../src/env/axi4_scoreboard.sv(219) @ 42665000: uvm_test_top.env.scb [axi4_scoreboard] [REF_MEM_WRITE] Addr=0xaee6dff9 Data=0xfc
# UVM_INFO ../src/env/axi4_scoreboard.sv(219) @ 42665000: uvm_test_top.env.scb [axi4_scoreboard] [REF_MEM_WRITE] Addr=0xaee6dffb Data=0xa3
# UVM_INFO ../src/env/axi4_scoreboard.sv(219) @ 42665000: uvm_test_top.env.scb [axi4_scoreboard] [REF_MEM_WRITE] Addr=0xaee6dffc Data=0x92
# UVM_INFO ../src/env/axi4_scoreboard.sv(219) @ 42665000: uvm_test_top.env.scb [axi4_scoreboard] [REF_MEM_WRITE] Addr=0xaee6dffe Data=0x5b
# UVM_INFO ../src/env/axi4_scoreboard.sv(219) @ 42665000: uvm_test_top.env.scb [axi4_scoreboard] [REF_MEM_WRITE] Addr=0xaee6e000 Data=0x84
# UVM_INFO ../src/env/axi4_scoreboard.sv(219) @ 42665000: uvm_test_top.env.scb [axi4_scoreboard] [REF_MEM_WRITE] Addr=0xaee6e001 Data=0x75
# UVM_INFO ../src/env/axi4_scoreboard.sv(219) @ 42665000: uvm_test_top.env.scb [axi4_scoreboard] [REF_MEM_WRITE] Addr=0xaee6e003 Data=0xd5
# UVM_INFO ../src/env/axi4_scoreboard.sv(219) @ 42665000: uvm_test_top.env.scb [axi4_scoreboard] [REF_MEM_WRITE] Addr=0xaee6e004 Data=0x9d
# UVM_INFO ../src/env/axi4_scoreboard.sv(219) @ 42665000: uvm_test_top.env.scb [axi4_scoreboard] [REF_MEM_WRITE] Addr=0xaee6e009 Data=0x1f
# UVM_INFO ../src/env/axi4_scoreboard.sv(219) @ 42665000: uvm_test_top.env.scb [axi4_scoreboard] [REF_MEM_WRITE] Addr=0xaee6e00f Data=0x7f
# UVM_INFO ../src/env/axi4_scoreboard.sv(219) @ 42665000: uvm_test_top.env.scb [axi4_scoreboard] [REF_MEM_WRITE] Addr=0xaee6e011 Data=0x6e
# UVM_INFO ../src/env/axi4_scoreboard.sv(219) @ 42665000: uvm_test_top.env.scb [axi4_scoreboard] [REF_MEM_WRITE] Addr=0xaee6e013 Data=0x17
# UVM_INFO ../src/env/axi4_scoreboard.sv(219) @ 42665000: uvm_test_top.env.scb [axi4_scoreboard] [REF_MEM_WRITE] Addr=0xaee6e015 Data=0x31
# UVM_INFO ../src/env/axi4_scoreboard.sv(219) @ 42665000: uvm_test_top.env.scb [axi4_scoreboard] [REF_MEM_WRITE] Addr=0xaee6e016 Data=0xc6
# UVM_INFO ../src/env/axi4_scoreboard.sv(219) @ 42665000: uvm_test_top.env.scb [axi4_scoreboard] [REF_MEM_WRITE] Addr=0xaee6e017 Data=0x53
# UVM_INFO ../src/env/axi4_scoreboard.sv(219) @ 42665000: uvm_test_top.env.scb [axi4_scoreboard] [REF_MEM_WRITE] Addr=0xaee6e018 Data=0xf1
# UVM_INFO ../src/env/axi4_scoreboard.sv(219) @ 42665000: uvm_test_top.env.scb [axi4_scoreboard] [REF_MEM_WRITE] Addr=0xaee6e019 Data=0x5f
# UVM_INFO ../src/env/axi4_scoreboard.sv(219) @ 42665000: uvm_test_top.env.scb [axi4_scoreboard] [REF_MEM_WRITE] Addr=0xaee6e01b Data=0x50
# UVM_INFO ../src/env/axi4_scoreboard.sv(219) @ 42665000: uvm_test_top.env.scb [axi4_scoreboard] [REF_MEM_WRITE] Addr=0xaee6e01d Data=0x24
