# vsim -c -coverage -sv_seed 23062494 "+UVM_TESTNAME=axi4_outstanding_test" "+UVM_VERBOSITY=UVM_HIGH" "+DUMP_VCD" -l ./report/logs/axi4_outstanding_test_run_4_seed_23062494.log -do "coverage save -onexit ./report/coverage/axi4_outstanding_test_run_4_seed_23062494.ucdb; run -all; quit -f" opt_tb_top 
# Start time: 12:33:29 on Jun 05,2026
# //  Questa Sim-64
# //  Version 10.6b linux_x86_64 May 25 2017
# //
# //  Copyright 1991-2017 Mentor Graphics Corporation
# //  All Rights Reserved.
# //
# //  QuestaSim and its associated documentation contain trade
# //  secrets and commercial or financial information that are the property of
# //  Mentor Graphics Corporation and are privileged, confidential,
# //  and exempt from disclosure under the Freedom of Information Act,
# //  5 U.S.C. Section 552. Furthermore, this information
# //  is prohibited from disclosure under the Trade Secrets Act,
# //  18 U.S.C. Section 1905.
# //
# Loading sv_std.std
# Loading work.axi4_if(fast)
# Loading mtiUvm.uvm_pkg
# Loading work.axi4_pkg(fast)
# Loading work.axi4_test_pkg(fast)
# Loading work.tb_top(fast)
# Loading work.axi4_if(fast)
# Loading work.axi4_sva(fast)
# Loading mtiUvm.questa_uvm_pkg(fast)
# Loading /cadtools/mentor/Questa_10.6b/questasim/uvm-1.1d/linux_x86_64/uvm_dpi.so
# coverage save -onexit ./report/coverage/axi4_outstanding_test_run_4_seed_23062494.ucdb
#  run -all
# ----------------------------------------------------------------
# UVM-1.1d
# (C) 2007-2013 Mentor Graphics Corporation
# (C) 2007-2013 Cadence Design Systems, Inc.
# (C) 2006-2013 Synopsys, Inc.
# (C) 2011-2013 Cypress Semiconductor Corp.
# ----------------------------------------------------------------
# 
#   ***********       IMPORTANT RELEASE NOTES         ************
# 
#   You are using a version of the UVM library that has been compiled
#   with `UVM_NO_DEPRECATED undefined.
#   See http://www.eda.org/svdb/view.php?id=3313 for more details.
# 
#   You are using a version of the UVM library that has been compiled
#   with `UVM_OBJECT_MUST_HAVE_CONSTRUCTOR undefined.
#   See http://www.eda.org/svdb/view.php?id=3770 for more details.
# 
#       (Specify +UVM_NO_RELNOTES to turn off this notice)
# 
# UVM_INFO verilog_src/questa_uvm_pkg-1.2/src/questa_uvm_pkg.sv(215) @ 0: reporter [Questa UVM] QUESTA_UVM-1.2.3
# UVM_INFO verilog_src/questa_uvm_pkg-1.2/src/questa_uvm_pkg.sv(217) @ 0: reporter [Questa UVM]  questa_uvm::init(+struct)
# UVM_INFO ../src/tb_top.sv(128) @ 0: reporter [TB_TOP] Virtual interface set in config_db
# UVM_INFO @ 0: reporter [RNTST] Running test axi4_outstanding_test...
# UVM_INFO ../src/tb_top.sv(142) @ 0: reporter [TB_TOP] Waveform VCD dumping enabled (axi4_vip.vcd)
# UVM_INFO ../src/env/axi4_vip_env.sv(83) @ 0: uvm_test_top.env [axi4_vip_env] slave_vif not set - reusing master_vif (passthrough mode)
# UVM_INFO ../src/env/axi4_vip_env.sv(93) @ 0: uvm_test_top.env [axi4_vip_env] Scoreboard created
# UVM_INFO ../src/env/axi4_vip_env.sv(100) @ 0: uvm_test_top.env [axi4_vip_env] Coverage collectors created
# UVM_INFO ../src/mst/axi4_master_agent.sv(69) @ 0: uvm_test_top.env.master_agent [axi4_master_agent] ACTIVE mode - driver + sequencer created
# UVM_INFO ../src/slv/axi4_slave_agent.sv(82) @ 0: uvm_test_top.env.slave_agent [axi4_slave_agent] ACTIVE mode — ready_delay=[0:0] resp_delay=[0:0]
# UVM_INFO ../src/env/axi4_vip_env.sv(116) @ 0: uvm_test_top.env [axi4_vip_env] Scoreboard connected: master_mon.ap -> scb, slave_mon.ap -> scb
# UVM_INFO ../src/env/axi4_vip_env.sv(124) @ 0: uvm_test_top.env [axi4_vip_env] Coverage connected: master_mon.ap -> master_cov, slave_mon.ap -> slave_cov
# UVM_INFO @ 0: reporter [UVMTOP] UVM testbench topology:
# ---------------------------------------------------------------
# Name                       Type                     Size  Value
# ---------------------------------------------------------------
# uvm_test_top               axi4_outstanding_test    -     @473 
#   env                      axi4_vip_env             -     @488 
#     master_agent           axi4_master_agent        -     @503 
#       drv                  axi4_master_driver       -     @567 
#         rsp_port           uvm_analysis_port        -     @582 
#         seq_item_port      uvm_seq_item_pull_port   -     @574 
#       mon                  axi4_master_monitor      -     @559 
#         ap                 uvm_analysis_port        -     @700 
#       sqr                  axi4_master_sequencer    -     @590 
#         rsp_export         uvm_analysis_export      -     @597 
#         seq_item_export    uvm_seq_item_pull_imp    -     @691 
#         arbitration_queue  array                    0     -    
#         lock_queue         array                    0     -    
#         num_last_reqs      integral                 32    'd1  
#         num_last_rsps      integral                 32    'd1  
#     master_cov             axi4_coverage            -     @524 
#       analysis_imp         uvm_analysis_imp         -     @531 
#     scb                    axi4_scoreboard          -     @517 
#       master_export        uvm_analysis_imp_master  -     @714 
#       slave_export         uvm_analysis_imp_slave   -     @722 
#     slave_agent            axi4_slave_agent         -     @510 
#       drv                  axi4_slave_driver        -     @753 
#         rsp_port           uvm_analysis_port        -     @768 
#         seq_item_port      uvm_seq_item_pull_port   -     @760 
#       mon                  axi4_slave_monitor       -     @735 
#         ap                 uvm_analysis_port        -     @890 
#       sqr                  axi4_slave_sequencer     -     @776 
#         rsp_export         uvm_analysis_export      -     @783 
#         seq_item_export    uvm_seq_item_pull_imp    -     @877 
#         arbitration_queue  array                    0     -    
#         lock_queue         array                    0     -    
#         num_last_reqs      integral                 32    'd1  
#         num_last_rsps      integral                 32    'd1  
#     slave_cov              axi4_coverage            -     @539 
#       analysis_imp         uvm_analysis_imp         -     @546 
# ---------------------------------------------------------------
# 
# UVM_INFO verilog_src/questa_uvm_pkg-1.2/src/questa_uvm_pkg.sv(277) @ 0: reporter [Questa UVM] End Of Elaboration
# UVM_INFO ../src/test/axi4_outstanding_test.sv(45) @ 0: uvm_test_top [axi4_outstanding_test] Starting outstanding test with 15 writes, 15 reads, depth=4
# UVM_INFO ../src/seq/axi4_outstanding_seq.sv(40) @ 0: uvm_test_top.env.master_agent.sqr@@outstanding_seq [axi4_outstanding_seq] Starting outstanding sequence: writes=15, reads=15, depth=4
# UVM_INFO ../src/tb_top.sv(49) @ 95000: reporter [TOP_TB] Reset de-asserted
# UVM_INFO ../src/slv/axi4_slave_driver.sv(70) @ 95000: uvm_test_top.env.slave_agent.drv [axi4_slave_driver] Reset deasserted - slave driver active
# UVM_INFO ../src/mst/axi4_master_driver.sv(46) @ 95000: uvm_test_top.env.master_agent.drv [axi4_master_driver] Reset deasserted - master driver active
# UVM_INFO ../src/mst/axi4_master_monitor.sv(77) @ 95000: uvm_test_top.env.master_agent.mon [axi4_master_monitor] Reset deasserted — monitor active
# UVM_INFO ../src/slv/axi4_slave_monitor.sv(71) @ 95000: uvm_test_top.env.slave_agent.mon [axi4_slave_monitor] Reset deasserted — monitor active
# UVM_INFO ../src/seq/axi4_outstanding_seq.sv(65) @ 95000: uvm_test_top.env.master_agent.sqr@@outstanding_seq [axi4_outstanding_seq] Outstanding Write [#3] started: ID=0x8 ADDR=0xdb9cc85a LEN=132
# UVM_INFO ../src/mst/axi4_master_driver.sv(55) @ 95000: uvm_test_top.env.master_agent.drv [axi4_master_driver] Driving AXI4_WRITE  ID=0x8  ADDR=0xdb9cc85a  LEN=132
# UVM_INFO ../src/mst/axi4_master_driver.sv(106) @ 95000: uvm_test_top.env.master_agent.drv [axi4_master_driver] Write order: W -> AW (W first)
# UVM_INFO ../src/slv/axi4_slave_driver.sv(165) @ 155000: uvm_test_top.env.slave_agent.drv [axi4_slave_driver] AW received: ID=0x8 ADDR=0xdb9cc85a LEN=132 LOCK=AXI4_LOCK_NORMAL
# UVM_INFO ../src/slv/axi4_slave_monitor.sv(116) @ 155000: uvm_test_top.env.slave_agent.mon [axi4_slave_monitor] AW received: ID=0x8 ADDR=0xdb9cc85a LEN=132
# UVM_INFO ../src/mst/axi4_master_monitor.sv(124) @ 155000: uvm_test_top.env.master_agent.mon [axi4_master_monitor] AW observed: ID=0x8 ADDR=0xdb9cc85a LEN=132
# UVM_INFO ../src/mst/axi4_master_monitor.sv(184) @ 2745000: uvm_test_top.env.master_agent.mon [axi4_master_monitor] W data assembled: ID=0x8 ADDR=0xdb9cc85a 133 beats
# UVM_INFO ../src/slv/axi4_slave_monitor.sv(167) @ 2745000: uvm_test_top.env.slave_agent.mon [axi4_slave_monitor] W data assembled: ID=0x8 ADDR=0xdb9cc85a 133 beats
# UVM_INFO ../src/mst/axi4_master_driver.sv(197) @ 2775000: uvm_test_top.env.master_agent.drv [axi4_master_driver] Write response: AXI4_RESP_OKAY
# UVM_INFO ../src/slv/axi4_slave_driver.sv(263) @ 2775000: uvm_test_top.env.slave_agent.drv [axi4_slave_driver] Write complete: ID=0x8 ADDR=0xdb9cc85a RESP=AXI4_RESP_OKAY  133 beats processed
# UVM_INFO ../src/slv/axi4_slave_monitor.sv(189) @ 2775000: uvm_test_top.env.slave_agent.mon [axi4_slave_monitor] Write response sent: ID=0x8 ADDR=0xdb9cc85a RESP=AXI4_RESP_OKAY
# UVM_INFO ../src/env/axi4_scoreboard.sv(103) @ 2775000: uvm_test_top.env.scb [axi4_scoreboard] Slave AXI4_WRITE received: ID=0x8 ADDR=0xdb9cc85a LEN=132
# UVM_INFO ../src/mst/axi4_master_monitor.sv(210) @ 2775000: uvm_test_top.env.master_agent.mon [axi4_master_monitor] Write complete: ID=0x8 ADDR=0xdb9cc85a RESP=AXI4_RESP_OKAY
# UVM_INFO ../src/env/axi4_scoreboard.sv(82) @ 2775000: uvm_test_top.env.scb [axi4_scoreboard] Master AXI4_WRITE received: ID=0x8 ADDR=0xdb9cc85a LEN=132
# UVM_INFO ../src/env/axi4_scoreboard.sv(154) @ 2775000: uvm_test_top.env.scb [axi4_scoreboard] [WRITE] MATCH #1: ID=0x8 ADDR=0xdb9cc85a LEN=132
# UVM_INFO ../src/seq/axi4_outstanding_seq.sv(71) @ 2775000: uvm_test_top.env.master_agent.sqr@@outstanding_seq [axi4_outstanding_seq] Outstanding Write [#3] complete: ID=0x8
# UVM_INFO ../src/seq/axi4_outstanding_seq.sv(65) @ 2775000: uvm_test_top.env.master_agent.sqr@@outstanding_seq [axi4_outstanding_seq] Outstanding Write [#2] started: ID=0x9 ADDR=0xb79a7909 LEN=32
# UVM_INFO ../src/mst/axi4_master_driver.sv(55) @ 2775000: uvm_test_top.env.master_agent.drv [axi4_master_driver] Driving AXI4_WRITE  ID=0x9  ADDR=0xb79a7909  LEN=32
# UVM_INFO ../src/mst/axi4_master_driver.sv(94) @ 2775000: uvm_test_top.env.master_agent.drv [axi4_master_driver] Write order: AW || W (parallel)
# UVM_INFO ../src/slv/axi4_slave_driver.sv(165) @ 2805000: uvm_test_top.env.slave_agent.drv [axi4_slave_driver] AW received: ID=0x9 ADDR=0xb79a7909 LEN=32 LOCK=AXI4_LOCK_EXCLUSIVE
# UVM_INFO ../src/mst/axi4_master_monitor.sv(124) @ 2805000: uvm_test_top.env.master_agent.mon [axi4_master_monitor] AW observed: ID=0x9 ADDR=0xb79a7909 LEN=32
# UVM_INFO ../src/slv/axi4_slave_monitor.sv(116) @ 2805000: uvm_test_top.env.slave_agent.mon [axi4_slave_monitor] AW received: ID=0x9 ADDR=0xb79a7909 LEN=32
# UVM_INFO ../src/slv/axi4_slave_monitor.sv(167) @ 3435000: uvm_test_top.env.slave_agent.mon [axi4_slave_monitor] W data assembled: ID=0x9 ADDR=0xb79a7909 33 beats
# UVM_INFO ../src/mst/axi4_master_monitor.sv(184) @ 3435000: uvm_test_top.env.master_agent.mon [axi4_master_monitor] W data assembled: ID=0x9 ADDR=0xb79a7909 33 beats
# UVM_INFO ../src/mst/axi4_master_driver.sv(197) @ 3465000: uvm_test_top.env.master_agent.drv [axi4_master_driver] Write response: AXI4_RESP_OKAY
# UVM_INFO ../src/slv/axi4_slave_driver.sv(263) @ 3465000: uvm_test_top.env.slave_agent.drv [axi4_slave_driver] Write complete: ID=0x9 ADDR=0xb79a7909 RESP=AXI4_RESP_OKAY  33 beats processed
# UVM_INFO ../src/mst/axi4_master_monitor.sv(210) @ 3465000: uvm_test_top.env.master_agent.mon [axi4_master_monitor] Write complete: ID=0x9 ADDR=0xb79a7909 RESP=AXI4_RESP_OKAY
# UVM_INFO ../src/env/axi4_scoreboard.sv(82) @ 3465000: uvm_test_top.env.scb [axi4_scoreboard] Master AXI4_WRITE received: ID=0x9 ADDR=0xb79a7909 LEN=32
# UVM_INFO ../src/slv/axi4_slave_monitor.sv(189) @ 3465000: uvm_test_top.env.slave_agent.mon [axi4_slave_monitor] Write response sent: ID=0x9 ADDR=0xb79a7909 RESP=AXI4_RESP_OKAY
# UVM_INFO ../src/env/axi4_scoreboard.sv(103) @ 3465000: uvm_test_top.env.scb [axi4_scoreboard] Slave AXI4_WRITE received: ID=0x9 ADDR=0xb79a7909 LEN=32
# UVM_INFO ../src/env/axi4_scoreboard.sv(154) @ 3465000: uvm_test_top.env.scb [axi4_scoreboard] [WRITE] MATCH #2: ID=0x9 ADDR=0xb79a7909 LEN=32
# UVM_INFO ../src/seq/axi4_outstanding_seq.sv(71) @ 3465000: uvm_test_top.env.master_agent.sqr@@outstanding_seq [axi4_outstanding_seq] Outstanding Write [#2] complete: ID=0x9
# UVM_INFO ../src/seq/axi4_outstanding_seq.sv(65) @ 3465000: uvm_test_top.env.master_agent.sqr@@outstanding_seq [axi4_outstanding_seq] Outstanding Write [#1] started: ID=0x7 ADDR=0xf6038642 LEN=181
# UVM_INFO ../src/mst/axi4_master_driver.sv(55) @ 3465000: uvm_test_top.env.master_agent.drv [axi4_master_driver] Driving AXI4_WRITE  ID=0x7  ADDR=0xf6038642  LEN=181
# UVM_INFO ../src/mst/axi4_master_driver.sv(101) @ 3465000: uvm_test_top.env.master_agent.drv [axi4_master_driver] Write order: AW -> W (sequential)
# UVM_INFO ../src/slv/axi4_slave_driver.sv(165) @ 3495000: uvm_test_top.env.slave_agent.drv [axi4_slave_driver] AW received: ID=0x7 ADDR=0xf6038642 LEN=181 LOCK=AXI4_LOCK_EXCLUSIVE
# UVM_INFO ../src/slv/axi4_slave_monitor.sv(116) @ 3495000: uvm_test_top.env.slave_agent.mon [axi4_slave_monitor] AW received: ID=0x7 ADDR=0xf6038642 LEN=181
# UVM_INFO ../src/mst/axi4_master_monitor.sv(124) @ 3495000: uvm_test_top.env.master_agent.mon [axi4_master_monitor] AW observed: ID=0x7 ADDR=0xf6038642 LEN=181
# UVM_INFO ../src/slv/axi4_slave_monitor.sv(167) @ 7135000: uvm_test_top.env.slave_agent.mon [axi4_slave_monitor] W data assembled: ID=0x7 ADDR=0xf6038642 182 beats
# UVM_INFO ../src/mst/axi4_master_monitor.sv(184) @ 7135000: uvm_test_top.env.master_agent.mon [axi4_master_monitor] W data assembled: ID=0x7 ADDR=0xf6038642 182 beats
# UVM_INFO ../src/mst/axi4_master_driver.sv(197) @ 7165000: uvm_test_top.env.master_agent.drv [axi4_master_driver] Write response: AXI4_RESP_DECERR
# UVM_INFO ../src/slv/axi4_slave_driver.sv(263) @ 7165000: uvm_test_top.env.slave_agent.drv [axi4_slave_driver] Write complete: ID=0x7 ADDR=0xf6038642 RESP=AXI4_RESP_DECERR  182 beats processed
# UVM_INFO ../src/mst/axi4_master_monitor.sv(210) @ 7165000: uvm_test_top.env.master_agent.mon [axi4_master_monitor] Write complete: ID=0x7 ADDR=0xf6038642 RESP=AXI4_RESP_DECERR
# UVM_INFO ../src/env/axi4_scoreboard.sv(82) @ 7165000: uvm_test_top.env.scb [axi4_scoreboard] Master AXI4_WRITE received: ID=0x7 ADDR=0xf6038642 LEN=181
# UVM_INFO ../src/slv/axi4_slave_monitor.sv(189) @ 7165000: uvm_test_top.env.slave_agent.mon [axi4_slave_monitor] Write response sent: ID=0x7 ADDR=0xf6038642 RESP=AXI4_RESP_DECERR
# UVM_INFO ../src/env/axi4_scoreboard.sv(103) @ 7165000: uvm_test_top.env.scb [axi4_scoreboard] Slave AXI4_WRITE received: ID=0x7 ADDR=0xf6038642 LEN=181
# UVM_INFO ../src/env/axi4_scoreboard.sv(154) @ 7165000: uvm_test_top.env.scb [axi4_scoreboard] [WRITE] MATCH #3: ID=0x7 ADDR=0xf6038642 LEN=181
# UVM_INFO ../src/seq/axi4_outstanding_seq.sv(71) @ 7165000: uvm_test_top.env.master_agent.sqr@@outstanding_seq [axi4_outstanding_seq] Outstanding Write [#1] complete: ID=0x7
# UVM_INFO ../src/seq/axi4_outstanding_seq.sv(65) @ 7165000: uvm_test_top.env.master_agent.sqr@@outstanding_seq [axi4_outstanding_seq] Outstanding Write [#0] started: ID=0x2 ADDR=0xd7bfcbb7 LEN=199
# UVM_INFO ../src/mst/axi4_master_driver.sv(55) @ 7165000: uvm_test_top.env.master_agent.drv [axi4_master_driver] Driving AXI4_WRITE  ID=0x2  ADDR=0xd7bfcbb7  LEN=199
# UVM_INFO ../src/mst/axi4_master_driver.sv(94) @ 7165000: uvm_test_top.env.master_agent.drv [axi4_master_driver] Write order: AW || W (parallel)
# UVM_INFO ../src/slv/axi4_slave_driver.sv(165) @ 7195000: uvm_test_top.env.slave_agent.drv [axi4_slave_driver] AW received: ID=0x2 ADDR=0xd7bfcbb7 LEN=199 LOCK=AXI4_LOCK_NORMAL
# UVM_INFO ../src/slv/axi4_slave_monitor.sv(116) @ 7195000: uvm_test_top.env.slave_agent.mon [axi4_slave_monitor] AW received: ID=0x2 ADDR=0xd7bfcbb7 LEN=199
# UVM_INFO ../src/mst/axi4_master_monitor.sv(124) @ 7195000: uvm_test_top.env.master_agent.mon [axi4_master_monitor] AW observed: ID=0x2 ADDR=0xd7bfcbb7 LEN=199
# UVM_INFO ../src/mst/axi4_master_monitor.sv(184) @ 11165000: uvm_test_top.env.master_agent.mon [axi4_master_monitor] W data assembled: ID=0x2 ADDR=0xd7bfcbb7 200 beats
# UVM_INFO ../src/slv/axi4_slave_monitor.sv(167) @ 11165000: uvm_test_top.env.slave_agent.mon [axi4_slave_monitor] W data assembled: ID=0x2 ADDR=0xd7bfcbb7 200 beats
# UVM_INFO ../src/mst/axi4_master_driver.sv(197) @ 11195000: uvm_test_top.env.master_agent.drv [axi4_master_driver] Write response: AXI4_RESP_OKAY
# UVM_INFO ../src/slv/axi4_slave_driver.sv(263) @ 11195000: uvm_test_top.env.slave_agent.drv [axi4_slave_driver] Write complete: ID=0x2 ADDR=0xd7bfcbb7 RESP=AXI4_RESP_OKAY  200 beats processed
# UVM_INFO ../src/slv/axi4_slave_monitor.sv(189) @ 11195000: uvm_test_top.env.slave_agent.mon [axi4_slave_monitor] Write response sent: ID=0x2 ADDR=0xd7bfcbb7 RESP=AXI4_RESP_OKAY
# UVM_INFO ../src/env/axi4_scoreboard.sv(103) @ 11195000: uvm_test_top.env.scb [axi4_scoreboard] Slave AXI4_WRITE received: ID=0x2 ADDR=0xd7bfcbb7 LEN=199
# UVM_INFO ../src/mst/axi4_master_monitor.sv(210) @ 11195000: uvm_test_top.env.master_agent.mon [axi4_master_monitor] Write complete: ID=0x2 ADDR=0xd7bfcbb7 RESP=AXI4_RESP_OKAY
# UVM_INFO ../src/env/axi4_scoreboard.sv(82) @ 11195000: uvm_test_top.env.scb [axi4_scoreboard] Master AXI4_WRITE received: ID=0x2 ADDR=0xd7bfcbb7 LEN=199
# UVM_INFO ../src/env/axi4_scoreboard.sv(154) @ 11195000: uvm_test_top.env.scb [axi4_scoreboard] [WRITE] MATCH #4: ID=0x2 ADDR=0xd7bfcbb7 LEN=199
# UVM_INFO ../src/seq/axi4_outstanding_seq.sv(71) @ 11195000: uvm_test_top.env.master_agent.sqr@@outstanding_seq [axi4_outstanding_seq] Outstanding Write [#0] complete: ID=0x2
# UVM_INFO ../src/seq/axi4_outstanding_seq.sv(100) @ 11195000: uvm_test_top.env.master_agent.sqr@@outstanding_seq [axi4_outstanding_seq] Outstanding Read [#3] started: ID=0x9 ADDR=0x043df0ec LEN=2
# UVM_INFO ../src/mst/axi4_master_driver.sv(55) @ 11195000: uvm_test_top.env.master_agent.drv [axi4_master_driver] Driving AXI4_READ  ID=0x9  ADDR=0x043df0ec  LEN=2
# UVM_INFO ../src/slv/axi4_slave_driver.sv(302) @ 11225000: uvm_test_top.env.slave_agent.drv [axi4_slave_driver] AR received: ID=0x9 ADDR=0x043df0ec LEN=2 LOCK=AXI4_LOCK_NORMAL
# UVM_INFO ../src/mst/axi4_master_monitor.sv(246) @ 11225000: uvm_test_top.env.master_agent.mon [axi4_master_monitor] AR observed: ID=0x9 ADDR=0x043df0ec LEN=2
# UVM_INFO ../src/slv/axi4_slave_monitor.sv(224) @ 11225000: uvm_test_top.env.slave_agent.mon [axi4_slave_monitor] AR received: ID=0x9 ADDR=0x043df0ec LEN=2
# UVM_INFO ../src/mst/axi4_master_driver.sv(254) @ 11285000: uvm_test_top.env.master_agent.drv [axi4_master_driver] Read complete: 3 beats received
# UVM_INFO ../src/slv/axi4_slave_driver.sv(356) @ 11285000: uvm_test_top.env.slave_agent.drv [axi4_slave_driver] Read complete: ID=0x9 ADDR=0x043df0ec RESP=AXI4_RESP_OKAY  3 beats sent
# UVM_INFO ../src/mst/axi4_master_monitor.sv(314) @ 11285000: uvm_test_top.env.master_agent.mon [axi4_master_monitor] Read complete: ID=0x9 ADDR=0x043df0ec 3 beats
# UVM_INFO ../src/env/axi4_scoreboard.sv(82) @ 11285000: uvm_test_top.env.scb [axi4_scoreboard] Master AXI4_READ received: ID=0x9 ADDR=0x043df0ec LEN=2
# UVM_INFO ../src/slv/axi4_slave_monitor.sv(287) @ 11285000: uvm_test_top.env.slave_agent.mon [axi4_slave_monitor] Read data sent: ID=0x9 ADDR=0x043df0ec 3 beats
# UVM_INFO ../src/env/axi4_scoreboard.sv(103) @ 11285000: uvm_test_top.env.scb [axi4_scoreboard] Slave AXI4_READ received: ID=0x9 ADDR=0x043df0ec LEN=2
# UVM_INFO ../src/env/axi4_scoreboard.sv(154) @ 11285000: uvm_test_top.env.scb [axi4_scoreboard] [READ] MATCH #5: ID=0x9 ADDR=0x043df0ec LEN=2
# UVM_INFO ../src/seq/axi4_outstanding_seq.sv(106) @ 11285000: uvm_test_top.env.master_agent.sqr@@outstanding_seq [axi4_outstanding_seq] Outstanding Read [#3] complete: ID=0x9
# UVM_INFO ../src/seq/axi4_outstanding_seq.sv(100) @ 11285000: uvm_test_top.env.master_agent.sqr@@outstanding_seq [axi4_outstanding_seq] Outstanding Read [#2] started: ID=0xb ADDR=0xb902b790 LEN=15
# UVM_INFO ../src/mst/axi4_master_driver.sv(55) @ 11285000: uvm_test_top.env.master_agent.drv [axi4_master_driver] Driving AXI4_READ  ID=0xb  ADDR=0xb902b790  LEN=15
# UVM_INFO ../src/slv/axi4_slave_driver.sv(302) @ 11315000: uvm_test_top.env.slave_agent.drv [axi4_slave_driver] AR received: ID=0xb ADDR=0xb902b790 LEN=15 LOCK=AXI4_LOCK_NORMAL
# UVM_INFO ../src/slv/axi4_slave_monitor.sv(224) @ 11315000: uvm_test_top.env.slave_agent.mon [axi4_slave_monitor] AR received: ID=0xb ADDR=0xb902b790 LEN=15
# UVM_INFO ../src/mst/axi4_master_monitor.sv(246) @ 11315000: uvm_test_top.env.master_agent.mon [axi4_master_monitor] AR observed: ID=0xb ADDR=0xb902b790 LEN=15
# UVM_INFO ../src/mst/axi4_master_driver.sv(254) @ 11635000: uvm_test_top.env.master_agent.drv [axi4_master_driver] Read complete: 16 beats received
# UVM_INFO ../src/slv/axi4_slave_driver.sv(356) @ 11635000: uvm_test_top.env.slave_agent.drv [axi4_slave_driver] Read complete: ID=0xb ADDR=0xb902b790 RESP=AXI4_RESP_OKAY  16 beats sent
# UVM_INFO ../src/slv/axi4_slave_monitor.sv(287) @ 11635000: uvm_test_top.env.slave_agent.mon [axi4_slave_monitor] Read data sent: ID=0xb ADDR=0xb902b790 16 beats
# UVM_INFO ../src/env/axi4_scoreboard.sv(103) @ 11635000: uvm_test_top.env.scb [axi4_scoreboard] Slave AXI4_READ received: ID=0xb ADDR=0xb902b790 LEN=15
# UVM_INFO ../src/mst/axi4_master_monitor.sv(314) @ 11635000: uvm_test_top.env.master_agent.mon [axi4_master_monitor] Read complete: ID=0xb ADDR=0xb902b790 16 beats
# UVM_INFO ../src/env/axi4_scoreboard.sv(82) @ 11635000: uvm_test_top.env.scb [axi4_scoreboard] Master AXI4_READ received: ID=0xb ADDR=0xb902b790 LEN=15
# UVM_INFO ../src/env/axi4_scoreboard.sv(154) @ 11635000: uvm_test_top.env.scb [axi4_scoreboard] [READ] MATCH #6: ID=0xb ADDR=0xb902b790 LEN=15
# UVM_INFO ../src/seq/axi4_outstanding_seq.sv(106) @ 11635000: uvm_test_top.env.master_agent.sqr@@outstanding_seq [axi4_outstanding_seq] Outstanding Read [#2] complete: ID=0xb
# UVM_INFO ../src/seq/axi4_outstanding_seq.sv(100) @ 11635000: uvm_test_top.env.master_agent.sqr@@outstanding_seq [axi4_outstanding_seq] Outstanding Read [#1] started: ID=0x9 ADDR=0x3265278b LEN=61
# UVM_INFO ../src/mst/axi4_master_driver.sv(55) @ 11635000: uvm_test_top.env.master_agent.drv [axi4_master_driver] Driving AXI4_READ  ID=0x9  ADDR=0x3265278b  LEN=61
# UVM_INFO ../src/slv/axi4_slave_driver.sv(302) @ 11665000: uvm_test_top.env.slave_agent.drv [axi4_slave_driver] AR received: ID=0x9 ADDR=0x3265278b LEN=61 LOCK=AXI4_LOCK_NORMAL
# UVM_INFO ../src/mst/axi4_master_monitor.sv(246) @ 11665000: uvm_test_top.env.master_agent.mon [axi4_master_monitor] AR observed: ID=0x9 ADDR=0x3265278b LEN=61
# UVM_INFO ../src/slv/axi4_slave_monitor.sv(224) @ 11665000: uvm_test_top.env.slave_agent.mon [axi4_slave_monitor] AR received: ID=0x9 ADDR=0x3265278b LEN=61
# UVM_INFO ../src/mst/axi4_master_driver.sv(254) @ 12905000: uvm_test_top.env.master_agent.drv [axi4_master_driver] Read complete: 62 beats received
# UVM_INFO ../src/slv/axi4_slave_driver.sv(356) @ 12905000: uvm_test_top.env.slave_agent.drv [axi4_slave_driver] Read complete: ID=0x9 ADDR=0x3265278b RESP=AXI4_RESP_OKAY  62 beats sent
# UVM_INFO ../src/mst/axi4_master_monitor.sv(314) @ 12905000: uvm_test_top.env.master_agent.mon [axi4_master_monitor] Read complete: ID=0x9 ADDR=0x3265278b 62 beats
# UVM_INFO ../src/env/axi4_scoreboard.sv(82) @ 12905000: uvm_test_top.env.scb [axi4_scoreboard] Master AXI4_READ received: ID=0x9 ADDR=0x3265278b LEN=61
# UVM_INFO ../src/slv/axi4_slave_monitor.sv(287) @ 12905000: uvm_test_top.env.slave_agent.mon [axi4_slave_monitor] Read data sent: ID=0x9 ADDR=0x3265278b 62 beats
# UVM_INFO ../src/env/axi4_scoreboard.sv(103) @ 12905000: uvm_test_top.env.scb [axi4_scoreboard] Slave AXI4_READ received: ID=0x9 ADDR=0x3265278b LEN=61
# UVM_INFO ../src/env/axi4_scoreboard.sv(154) @ 12905000: uvm_test_top.env.scb [axi4_scoreboard] [READ] MATCH #7: ID=0x9 ADDR=0x3265278b LEN=61
# UVM_INFO ../src/seq/axi4_outstanding_seq.sv(106) @ 12905000: uvm_test_top.env.master_agent.sqr@@outstanding_seq [axi4_outstanding_seq] Outstanding Read [#1] complete: ID=0x9
# UVM_INFO ../src/seq/axi4_outstanding_seq.sv(100) @ 12905000: uvm_test_top.env.master_agent.sqr@@outstanding_seq [axi4_outstanding_seq] Outstanding Read [#0] started: ID=0xf ADDR=0x9f589801 LEN=6
# UVM_INFO ../src/mst/axi4_master_driver.sv(55) @ 12905000: uvm_test_top.env.master_agent.drv [axi4_master_driver] Driving AXI4_READ  ID=0xf  ADDR=0x9f589801  LEN=6
# UVM_INFO ../src/slv/axi4_slave_driver.sv(302) @ 12935000: uvm_test_top.env.slave_agent.drv [axi4_slave_driver] AR received: ID=0xf ADDR=0x9f589801 LEN=6 LOCK=AXI4_LOCK_NORMAL
# UVM_INFO ../src/slv/axi4_slave_monitor.sv(224) @ 12935000: uvm_test_top.env.slave_agent.mon [axi4_slave_monitor] AR received: ID=0xf ADDR=0x9f589801 LEN=6
# UVM_INFO ../src/mst/axi4_master_monitor.sv(246) @ 12935000: uvm_test_top.env.master_agent.mon [axi4_master_monitor] AR observed: ID=0xf ADDR=0x9f589801 LEN=6
# UVM_INFO ../src/mst/axi4_master_driver.sv(254) @ 13075000: uvm_test_top.env.master_agent.drv [axi4_master_driver] Read complete: 7 beats received
# UVM_INFO ../src/slv/axi4_slave_driver.sv(356) @ 13075000: uvm_test_top.env.slave_agent.drv [axi4_slave_driver] Read complete: ID=0xf ADDR=0x9f589801 RESP=AXI4_RESP_OKAY  7 beats sent
# UVM_INFO ../src/slv/axi4_slave_monitor.sv(287) @ 13075000: uvm_test_top.env.slave_agent.mon [axi4_slave_monitor] Read data sent: ID=0xf ADDR=0x9f589801 7 beats
# UVM_INFO ../src/env/axi4_scoreboard.sv(103) @ 13075000: uvm_test_top.env.scb [axi4_scoreboard] Slave AXI4_READ received: ID=0xf ADDR=0x9f589801 LEN=6
# UVM_INFO ../src/mst/axi4_master_monitor.sv(314) @ 13075000: uvm_test_top.env.master_agent.mon [axi4_master_monitor] Read complete: ID=0xf ADDR=0x9f589801 7 beats
# UVM_INFO ../src/env/axi4_scoreboard.sv(82) @ 13075000: uvm_test_top.env.scb [axi4_scoreboard] Master AXI4_READ received: ID=0xf ADDR=0x9f589801 LEN=6
# UVM_INFO ../src/env/axi4_scoreboard.sv(154) @ 13075000: uvm_test_top.env.scb [axi4_scoreboard] [READ] MATCH #8: ID=0xf ADDR=0x9f589801 LEN=6
# UVM_INFO ../src/seq/axi4_outstanding_seq.sv(106) @ 13075000: uvm_test_top.env.master_agent.sqr@@outstanding_seq [axi4_outstanding_seq] Outstanding Read [#0] complete: ID=0xf
# UVM_INFO ../src/seq/axi4_outstanding_seq.sv(65) @ 13075000: uvm_test_top.env.master_agent.sqr@@outstanding_seq [axi4_outstanding_seq] Outstanding Write [#4] started: ID=0xe ADDR=0x7c898904 LEN=15
# UVM_INFO ../src/mst/axi4_master_driver.sv(55) @ 13075000: uvm_test_top.env.master_agent.drv [axi4_master_driver] Driving AXI4_WRITE  ID=0xe  ADDR=0x7c898904  LEN=15
# UVM_INFO ../src/mst/axi4_master_driver.sv(106) @ 13075000: uvm_test_top.env.master_agent.drv [axi4_master_driver] Write order: W -> AW (W first)
# UVM_INFO ../src/slv/axi4_slave_driver.sv(165) @ 13125000: uvm_test_top.env.slave_agent.drv [axi4_slave_driver] AW received: ID=0xe ADDR=0x7c898904 LEN=15 LOCK=AXI4_LOCK_EXCLUSIVE
# UVM_INFO ../src/mst/axi4_master_monitor.sv(124) @ 13125000: uvm_test_top.env.master_agent.mon [axi4_master_monitor] AW observed: ID=0xe ADDR=0x7c898904 LEN=15
# UVM_INFO ../src/slv/axi4_slave_monitor.sv(116) @ 13125000: uvm_test_top.env.slave_agent.mon [axi4_slave_monitor] AW received: ID=0xe ADDR=0x7c898904 LEN=15
# UVM_INFO ../src/slv/axi4_slave_monitor.sv(167) @ 13395000: uvm_test_top.env.slave_agent.mon [axi4_slave_monitor] W data assembled: ID=0xe ADDR=0x7c898904 16 beats
# UVM_INFO ../src/mst/axi4_master_monitor.sv(184) @ 13395000: uvm_test_top.env.master_agent.mon [axi4_master_monitor] W data assembled: ID=0xe ADDR=0x7c898904 16 beats
# UVM_INFO ../src/mst/axi4_master_driver.sv(197) @ 13425000: uvm_test_top.env.master_agent.drv [axi4_master_driver] Write response: AXI4_RESP_OKAY
# UVM_INFO ../src/slv/axi4_slave_driver.sv(263) @ 13425000: uvm_test_top.env.slave_agent.drv [axi4_slave_driver] Write complete: ID=0xe ADDR=0x7c898904 RESP=AXI4_RESP_OKAY  16 beats processed
# UVM_INFO ../src/mst/axi4_master_monitor.sv(210) @ 13425000: uvm_test_top.env.master_agent.mon [axi4_master_monitor] Write complete: ID=0xe ADDR=0x7c898904 RESP=AXI4_RESP_OKAY
# UVM_INFO ../src/env/axi4_scoreboard.sv(82) @ 13425000: uvm_test_top.env.scb [axi4_scoreboard] Master AXI4_WRITE received: ID=0xe ADDR=0x7c898904 LEN=15
# UVM_INFO ../src/slv/axi4_slave_monitor.sv(189) @ 13425000: uvm_test_top.env.slave_agent.mon [axi4_slave_monitor] Write response sent: ID=0xe ADDR=0x7c898904 RESP=AXI4_RESP_OKAY
# UVM_INFO ../src/env/axi4_scoreboard.sv(103) @ 13425000: uvm_test_top.env.scb [axi4_scoreboard] Slave AXI4_WRITE received: ID=0xe ADDR=0x7c898904 LEN=15
# UVM_INFO ../src/env/axi4_scoreboard.sv(154) @ 13425000: uvm_test_top.env.scb [axi4_scoreboard] [WRITE] MATCH #9: ID=0xe ADDR=0x7c898904 LEN=15
# UVM_INFO ../src/seq/axi4_outstanding_seq.sv(71) @ 13425000: uvm_test_top.env.master_agent.sqr@@outstanding_seq [axi4_outstanding_seq] Outstanding Write [#4] complete: ID=0xe
# UVM_INFO ../src/seq/axi4_outstanding_seq.sv(65) @ 13425000: uvm_test_top.env.master_agent.sqr@@outstanding_seq [axi4_outstanding_seq] Outstanding Write [#5] started: ID=0xc ADDR=0x7d4be104 LEN=57
# UVM_INFO ../src/mst/axi4_master_driver.sv(55) @ 13425000: uvm_test_top.env.master_agent.drv [axi4_master_driver] Driving AXI4_WRITE  ID=0xc  ADDR=0x7d4be104  LEN=57
# UVM_INFO ../src/mst/axi4_master_driver.sv(94) @ 13425000: uvm_test_top.env.master_agent.drv [axi4_master_driver] Write order: AW || W (parallel)
# UVM_INFO ../src/slv/axi4_slave_driver.sv(165) @ 13455000: uvm_test_top.env.slave_agent.drv [axi4_slave_driver] AW received: ID=0xc ADDR=0x7d4be104 LEN=57 LOCK=AXI4_LOCK_NORMAL
# UVM_INFO ../src/slv/axi4_slave_monitor.sv(116) @ 13455000: uvm_test_top.env.slave_agent.mon [axi4_slave_monitor] AW received: ID=0xc ADDR=0x7d4be104 LEN=57
# UVM_INFO ../src/mst/axi4_master_monitor.sv(124) @ 13455000: uvm_test_top.env.master_agent.mon [axi4_master_monitor] AW observed: ID=0xc ADDR=0x7d4be104 LEN=57
# UVM_INFO ../src/mst/axi4_master_monitor.sv(184) @ 14585000: uvm_test_top.env.master_agent.mon [axi4_master_monitor] W data assembled: ID=0xc ADDR=0x7d4be104 58 beats
# UVM_INFO ../src/slv/axi4_slave_monitor.sv(167) @ 14585000: uvm_test_top.env.slave_agent.mon [axi4_slave_monitor] W data assembled: ID=0xc ADDR=0x7d4be104 58 beats
# UVM_INFO ../src/mst/axi4_master_driver.sv(197) @ 14615000: uvm_test_top.env.master_agent.drv [axi4_master_driver] Write response: AXI4_RESP_OKAY
# UVM_INFO ../src/slv/axi4_slave_driver.sv(263) @ 14615000: uvm_test_top.env.slave_agent.drv [axi4_slave_driver] Write complete: ID=0xc ADDR=0x7d4be104 RESP=AXI4_RESP_OKAY  58 beats processed
# UVM_INFO ../src/slv/axi4_slave_monitor.sv(189) @ 14615000: uvm_test_top.env.slave_agent.mon [axi4_slave_monitor] Write response sent: ID=0xc ADDR=0x7d4be104 RESP=AXI4_RESP_OKAY
# UVM_INFO ../src/env/axi4_scoreboard.sv(103) @ 14615000: uvm_test_top.env.scb [axi4_scoreboard] Slave AXI4_WRITE received: ID=0xc ADDR=0x7d4be104 LEN=57
# UVM_INFO ../src/mst/axi4_master_monitor.sv(210) @ 14615000: uvm_test_top.env.master_agent.mon [axi4_master_monitor] Write complete: ID=0xc ADDR=0x7d4be104 RESP=AXI4_RESP_OKAY
# UVM_INFO ../src/env/axi4_scoreboard.sv(82) @ 14615000: uvm_test_top.env.scb [axi4_scoreboard] Master AXI4_WRITE received: ID=0xc ADDR=0x7d4be104 LEN=57
# UVM_INFO ../src/env/axi4_scoreboard.sv(154) @ 14615000: uvm_test_top.env.scb [axi4_scoreboard] [WRITE] MATCH #10: ID=0xc ADDR=0x7d4be104 LEN=57
# UVM_INFO ../src/seq/axi4_outstanding_seq.sv(71) @ 14615000: uvm_test_top.env.master_agent.sqr@@outstanding_seq [axi4_outstanding_seq] Outstanding Write [#5] complete: ID=0xc
# UVM_INFO ../src/seq/axi4_outstanding_seq.sv(65) @ 14615000: uvm_test_top.env.master_agent.sqr@@outstanding_seq [axi4_outstanding_seq] Outstanding Write [#6] started: ID=0x2 ADDR=0x97dcd339 LEN=17
# UVM_INFO ../src/mst/axi4_master_driver.sv(55) @ 14615000: uvm_test_top.env.master_agent.drv [axi4_master_driver] Driving AXI4_WRITE  ID=0x2  ADDR=0x97dcd339  LEN=17
# UVM_INFO ../src/mst/axi4_master_driver.sv(94) @ 14615000: uvm_test_top.env.master_agent.drv [axi4_master_driver] Write order: AW || W (parallel)
# UVM_INFO ../src/slv/axi4_slave_driver.sv(165) @ 14645000: uvm_test_top.env.slave_agent.drv [axi4_slave_driver] AW received: ID=0x2 ADDR=0x97dcd339 LEN=17 LOCK=AXI4_LOCK_NORMAL
# UVM_INFO ../src/mst/axi4_master_monitor.sv(124) @ 14645000: uvm_test_top.env.master_agent.mon [axi4_master_monitor] AW observed: ID=0x2 ADDR=0x97dcd339 LEN=17
# UVM_INFO ../src/slv/axi4_slave_monitor.sv(116) @ 14645000: uvm_test_top.env.slave_agent.mon [axi4_slave_monitor] AW received: ID=0x2 ADDR=0x97dcd339 LEN=17
# UVM_INFO ../src/slv/axi4_slave_monitor.sv(167) @ 14975000: uvm_test_top.env.slave_agent.mon [axi4_slave_monitor] W data assembled: ID=0x2 ADDR=0x97dcd339 18 beats
# UVM_INFO ../src/mst/axi4_master_monitor.sv(184) @ 14975000: uvm_test_top.env.master_agent.mon [axi4_master_monitor] W data assembled: ID=0x2 ADDR=0x97dcd339 18 beats
# UVM_INFO ../src/mst/axi4_master_driver.sv(197) @ 15005000: uvm_test_top.env.master_agent.drv [axi4_master_driver] Write response: AXI4_RESP_OKAY
# UVM_INFO ../src/slv/axi4_slave_driver.sv(263) @ 15005000: uvm_test_top.env.slave_agent.drv [axi4_slave_driver] Write complete: ID=0x2 ADDR=0x97dcd339 RESP=AXI4_RESP_OKAY  18 beats processed
# UVM_INFO ../src/mst/axi4_master_monitor.sv(210) @ 15005000: uvm_test_top.env.master_agent.mon [axi4_master_monitor] Write complete: ID=0x2 ADDR=0x97dcd339 RESP=AXI4_RESP_OKAY
# UVM_INFO ../src/env/axi4_scoreboard.sv(82) @ 15005000: uvm_test_top.env.scb [axi4_scoreboard] Master AXI4_WRITE received: ID=0x2 ADDR=0x97dcd339 LEN=17
# UVM_INFO ../src/slv/axi4_slave_monitor.sv(189) @ 15005000: uvm_test_top.env.slave_agent.mon [axi4_slave_monitor] Write response sent: ID=0x2 ADDR=0x97dcd339 RESP=AXI4_RESP_OKAY
# UVM_INFO ../src/env/axi4_scoreboard.sv(103) @ 15005000: uvm_test_top.env.scb [axi4_scoreboard] Slave AXI4_WRITE received: ID=0x2 ADDR=0x97dcd339 LEN=17
# UVM_INFO ../src/env/axi4_scoreboard.sv(154) @ 15005000: uvm_test_top.env.scb [axi4_scoreboard] [WRITE] MATCH #11: ID=0x2 ADDR=0x97dcd339 LEN=17
# UVM_INFO ../src/seq/axi4_outstanding_seq.sv(71) @ 15005000: uvm_test_top.env.master_agent.sqr@@outstanding_seq [axi4_outstanding_seq] Outstanding Write [#6] complete: ID=0x2
# UVM_INFO ../src/seq/axi4_outstanding_seq.sv(65) @ 15005000: uvm_test_top.env.master_agent.sqr@@outstanding_seq [axi4_outstanding_seq] Outstanding Write [#7] started: ID=0xe ADDR=0x3cf090c8 LEN=212
# UVM_INFO ../src/mst/axi4_master_driver.sv(55) @ 15005000: uvm_test_top.env.master_agent.drv [axi4_master_driver] Driving AXI4_WRITE  ID=0xe  ADDR=0x3cf090c8  LEN=212
# UVM_INFO ../src/mst/axi4_master_driver.sv(94) @ 15005000: uvm_test_top.env.master_agent.drv [axi4_master_driver] Write order: AW || W (parallel)
# UVM_INFO ../src/slv/axi4_slave_driver.sv(165) @ 15035000: uvm_test_top.env.slave_agent.drv [axi4_slave_driver] AW received: ID=0xe ADDR=0x3cf090c8 LEN=212 LOCK=AXI4_LOCK_NORMAL
# UVM_INFO ../src/slv/axi4_slave_monitor.sv(116) @ 15035000: uvm_test_top.env.slave_agent.mon [axi4_slave_monitor] AW received: ID=0xe ADDR=0x3cf090c8 LEN=212
# UVM_INFO ../src/mst/axi4_master_monitor.sv(124) @ 15035000: uvm_test_top.env.master_agent.mon [axi4_master_monitor] AW observed: ID=0xe ADDR=0x3cf090c8 LEN=212
# UVM_INFO ../src/mst/axi4_master_monitor.sv(184) @ 19265000: uvm_test_top.env.master_agent.mon [axi4_master_monitor] W data assembled: ID=0xe ADDR=0x3cf090c8 213 beats
# UVM_INFO ../src/slv/axi4_slave_monitor.sv(167) @ 19265000: uvm_test_top.env.slave_agent.mon [axi4_slave_monitor] W data assembled: ID=0xe ADDR=0x3cf090c8 213 beats
# UVM_INFO ../src/mst/axi4_master_driver.sv(197) @ 19295000: uvm_test_top.env.master_agent.drv [axi4_master_driver] Write response: AXI4_RESP_OKAY
# UVM_INFO ../src/slv/axi4_slave_driver.sv(263) @ 19295000: uvm_test_top.env.slave_agent.drv [axi4_slave_driver] Write complete: ID=0xe ADDR=0x3cf090c8 RESP=AXI4_RESP_OKAY  213 beats processed
# UVM_INFO ../src/slv/axi4_slave_monitor.sv(189) @ 19295000: uvm_test_top.env.slave_agent.mon [axi4_slave_monitor] Write response sent: ID=0xe ADDR=0x3cf090c8 RESP=AXI4_RESP_OKAY
# UVM_INFO ../src/env/axi4_scoreboard.sv(103) @ 19295000: uvm_test_top.env.scb [axi4_scoreboard] Slave AXI4_WRITE received: ID=0xe ADDR=0x3cf090c8 LEN=212
# UVM_INFO ../src/mst/axi4_master_monitor.sv(210) @ 19295000: uvm_test_top.env.master_agent.mon [axi4_master_monitor] Write complete: ID=0xe ADDR=0x3cf090c8 RESP=AXI4_RESP_OKAY
# UVM_INFO ../src/env/axi4_scoreboard.sv(82) @ 19295000: uvm_test_top.env.scb [axi4_scoreboard] Master AXI4_WRITE received: ID=0xe ADDR=0x3cf090c8 LEN=212
# UVM_INFO ../src/env/axi4_scoreboard.sv(154) @ 19295000: uvm_test_top.env.scb [axi4_scoreboard] [WRITE] MATCH #12: ID=0xe ADDR=0x3cf090c8 LEN=212
# UVM_INFO ../src/seq/axi4_outstanding_seq.sv(71) @ 19295000: uvm_test_top.env.master_agent.sqr@@outstanding_seq [axi4_outstanding_seq] Outstanding Write [#7] complete: ID=0xe
# UVM_INFO ../src/seq/axi4_outstanding_seq.sv(100) @ 19295000: uvm_test_top.env.master_agent.sqr@@outstanding_seq [axi4_outstanding_seq] Outstanding Read [#4] started: ID=0xb ADDR=0x930c3b3d LEN=30
# UVM_INFO ../src/mst/axi4_master_driver.sv(55) @ 19295000: uvm_test_top.env.master_agent.drv [axi4_master_driver] Driving AXI4_READ  ID=0xb  ADDR=0x930c3b3d  LEN=30
# UVM_INFO ../src/slv/axi4_slave_driver.sv(302) @ 19325000: uvm_test_top.env.slave_agent.drv [axi4_slave_driver] AR received: ID=0xb ADDR=0x930c3b3d LEN=30 LOCK=AXI4_LOCK_NORMAL
# UVM_INFO ../src/mst/axi4_master_monitor.sv(246) @ 19325000: uvm_test_top.env.master_agent.mon [axi4_master_monitor] AR observed: ID=0xb ADDR=0x930c3b3d LEN=30
# UVM_INFO ../src/slv/axi4_slave_monitor.sv(224) @ 19325000: uvm_test_top.env.slave_agent.mon [axi4_slave_monitor] AR received: ID=0xb ADDR=0x930c3b3d LEN=30
# UVM_INFO ../src/mst/axi4_master_driver.sv(254) @ 19945000: uvm_test_top.env.master_agent.drv [axi4_master_driver] Read complete: 31 beats received
# UVM_INFO ../src/slv/axi4_slave_driver.sv(356) @ 19945000: uvm_test_top.env.slave_agent.drv [axi4_slave_driver] Read complete: ID=0xb ADDR=0x930c3b3d RESP=AXI4_RESP_OKAY  31 beats sent
# UVM_INFO ../src/mst/axi4_master_monitor.sv(314) @ 19945000: uvm_test_top.env.master_agent.mon [axi4_master_monitor] Read complete: ID=0xb ADDR=0x930c3b3d 31 beats
# UVM_INFO ../src/env/axi4_scoreboard.sv(82) @ 19945000: uvm_test_top.env.scb [axi4_scoreboard] Master AXI4_READ received: ID=0xb ADDR=0x930c3b3d LEN=30
# UVM_INFO ../src/slv/axi4_slave_monitor.sv(287) @ 19945000: uvm_test_top.env.slave_agent.mon [axi4_slave_monitor] Read data sent: ID=0xb ADDR=0x930c3b3d 31 beats
# UVM_INFO ../src/env/axi4_scoreboard.sv(103) @ 19945000: uvm_test_top.env.scb [axi4_scoreboard] Slave AXI4_READ received: ID=0xb ADDR=0x930c3b3d LEN=30
# UVM_INFO ../src/env/axi4_scoreboard.sv(154) @ 19945000: uvm_test_top.env.scb [axi4_scoreboard] [READ] MATCH #13: ID=0xb ADDR=0x930c3b3d LEN=30
# UVM_INFO ../src/seq/axi4_outstanding_seq.sv(106) @ 19945000: uvm_test_top.env.master_agent.sqr@@outstanding_seq [axi4_outstanding_seq] Outstanding Read [#4] complete: ID=0xb
# UVM_INFO ../src/seq/axi4_outstanding_seq.sv(100) @ 19945000: uvm_test_top.env.master_agent.sqr@@outstanding_seq [axi4_outstanding_seq] Outstanding Read [#5] started: ID=0xa ADDR=0x7eb6c733 LEN=105
# UVM_INFO ../src/mst/axi4_master_driver.sv(55) @ 19945000: uvm_test_top.env.master_agent.drv [axi4_master_driver] Driving AXI4_READ  ID=0xa  ADDR=0x7eb6c733  LEN=105
# UVM_INFO ../src/slv/axi4_slave_driver.sv(302) @ 19975000: uvm_test_top.env.slave_agent.drv [axi4_slave_driver] AR received: ID=0xa ADDR=0x7eb6c733 LEN=105 LOCK=AXI4_LOCK_NORMAL
# UVM_INFO ../src/slv/axi4_slave_monitor.sv(224) @ 19975000: uvm_test_top.env.slave_agent.mon [axi4_slave_monitor] AR received: ID=0xa ADDR=0x7eb6c733 LEN=105
# UVM_INFO ../src/mst/axi4_master_monitor.sv(246) @ 19975000: uvm_test_top.env.master_agent.mon [axi4_master_monitor] AR observed: ID=0xa ADDR=0x7eb6c733 LEN=105
# UVM_INFO ../src/mst/axi4_master_driver.sv(254) @ 22095000: uvm_test_top.env.master_agent.drv [axi4_master_driver] Read complete: 106 beats received
# UVM_INFO ../src/slv/axi4_slave_driver.sv(356) @ 22095000: uvm_test_top.env.slave_agent.drv [axi4_slave_driver] Read complete: ID=0xa ADDR=0x7eb6c733 RESP=AXI4_RESP_OKAY  106 beats sent
# UVM_INFO ../src/slv/axi4_slave_monitor.sv(287) @ 22095000: uvm_test_top.env.slave_agent.mon [axi4_slave_monitor] Read data sent: ID=0xa ADDR=0x7eb6c733 106 beats
# UVM_INFO ../src/env/axi4_scoreboard.sv(103) @ 22095000: uvm_test_top.env.scb [axi4_scoreboard] Slave AXI4_READ received: ID=0xa ADDR=0x7eb6c733 LEN=105
# UVM_INFO ../src/mst/axi4_master_monitor.sv(314) @ 22095000: uvm_test_top.env.master_agent.mon [axi4_master_monitor] Read complete: ID=0xa ADDR=0x7eb6c733 106 beats
# UVM_INFO ../src/env/axi4_scoreboard.sv(82) @ 22095000: uvm_test_top.env.scb [axi4_scoreboard] Master AXI4_READ received: ID=0xa ADDR=0x7eb6c733 LEN=105
# UVM_INFO ../src/env/axi4_scoreboard.sv(154) @ 22095000: uvm_test_top.env.scb [axi4_scoreboard] [READ] MATCH #14: ID=0xa ADDR=0x7eb6c733 LEN=105
# UVM_INFO ../src/seq/axi4_outstanding_seq.sv(106) @ 22095000: uvm_test_top.env.master_agent.sqr@@outstanding_seq [axi4_outstanding_seq] Outstanding Read [#5] complete: ID=0xa
# UVM_INFO ../src/seq/axi4_outstanding_seq.sv(100) @ 22095000: uvm_test_top.env.master_agent.sqr@@outstanding_seq [axi4_outstanding_seq] Outstanding Read [#6] started: ID=0xd ADDR=0x88a5c3a2 LEN=40
# UVM_INFO ../src/mst/axi4_master_driver.sv(55) @ 22095000: uvm_test_top.env.master_agent.drv [axi4_master_driver] Driving AXI4_READ  ID=0xd  ADDR=0x88a5c3a2  LEN=40
# UVM_INFO ../src/slv/axi4_slave_driver.sv(302) @ 22125000: uvm_test_top.env.slave_agent.drv [axi4_slave_driver] AR received: ID=0xd ADDR=0x88a5c3a2 LEN=40 LOCK=AXI4_LOCK_NORMAL
# UVM_INFO ../src/mst/axi4_master_monitor.sv(246) @ 22125000: uvm_test_top.env.master_agent.mon [axi4_master_monitor] AR observed: ID=0xd ADDR=0x88a5c3a2 LEN=40
# UVM_INFO ../src/slv/axi4_slave_monitor.sv(224) @ 22125000: uvm_test_top.env.slave_agent.mon [axi4_slave_monitor] AR received: ID=0xd ADDR=0x88a5c3a2 LEN=40
# UVM_INFO ../src/mst/axi4_master_driver.sv(254) @ 22945000: uvm_test_top.env.master_agent.drv [axi4_master_driver] Read complete: 41 beats received
# UVM_INFO ../src/slv/axi4_slave_driver.sv(356) @ 22945000: uvm_test_top.env.slave_agent.drv [axi4_slave_driver] Read complete: ID=0xd ADDR=0x88a5c3a2 RESP=AXI4_RESP_OKAY  41 beats sent
# UVM_INFO ../src/mst/axi4_master_monitor.sv(314) @ 22945000: uvm_test_top.env.master_agent.mon [axi4_master_monitor] Read complete: ID=0xd ADDR=0x88a5c3a2 41 beats
# UVM_INFO ../src/env/axi4_scoreboard.sv(82) @ 22945000: uvm_test_top.env.scb [axi4_scoreboard] Master AXI4_READ received: ID=0xd ADDR=0x88a5c3a2 LEN=40
# UVM_INFO ../src/slv/axi4_slave_monitor.sv(287) @ 22945000: uvm_test_top.env.slave_agent.mon [axi4_slave_monitor] Read data sent: ID=0xd ADDR=0x88a5c3a2 41 beats
# UVM_INFO ../src/env/axi4_scoreboard.sv(103) @ 22945000: uvm_test_top.env.scb [axi4_scoreboard] Slave AXI4_READ received: ID=0xd ADDR=0x88a5c3a2 LEN=40
# UVM_INFO ../src/env/axi4_scoreboard.sv(154) @ 22945000: uvm_test_top.env.scb [axi4_scoreboard] [READ] MATCH #15: ID=0xd ADDR=0x88a5c3a2 LEN=40
# UVM_INFO ../src/seq/axi4_outstanding_seq.sv(106) @ 22945000: uvm_test_top.env.master_agent.sqr@@outstanding_seq [axi4_outstanding_seq] Outstanding Read [#6] complete: ID=0xd
# UVM_INFO ../src/seq/axi4_outstanding_seq.sv(100) @ 22945000: uvm_test_top.env.master_agent.sqr@@outstanding_seq [axi4_outstanding_seq] Outstanding Read [#7] started: ID=0x5 ADDR=0x9ddea660 LEN=137
# UVM_INFO ../src/mst/axi4_master_driver.sv(55) @ 22945000: uvm_test_top.env.master_agent.drv [axi4_master_driver] Driving AXI4_READ  ID=0x5  ADDR=0x9ddea660  LEN=137
# UVM_INFO ../src/slv/axi4_slave_driver.sv(302) @ 22975000: uvm_test_top.env.slave_agent.drv [axi4_slave_driver] AR received: ID=0x5 ADDR=0x9ddea660 LEN=137 LOCK=AXI4_LOCK_EXCLUSIVE
# UVM_INFO ../src/slv/axi4_slave_monitor.sv(224) @ 22975000: uvm_test_top.env.slave_agent.mon [axi4_slave_monitor] AR received: ID=0x5 ADDR=0x9ddea660 LEN=137
# UVM_INFO ../src/mst/axi4_master_monitor.sv(246) @ 22975000: uvm_test_top.env.master_agent.mon [axi4_master_monitor] AR observed: ID=0x5 ADDR=0x9ddea660 LEN=137
# UVM_INFO ../src/mst/axi4_master_driver.sv(254) @ 25735000: uvm_test_top.env.master_agent.drv [axi4_master_driver] Read complete: 138 beats received
# UVM_INFO ../src/slv/axi4_slave_driver.sv(356) @ 25735000: uvm_test_top.env.slave_agent.drv [axi4_slave_driver] Read complete: ID=0x5 ADDR=0x9ddea660 RESP=AXI4_RESP_EXOKAY  138 beats sent
# UVM_INFO ../src/slv/axi4_slave_monitor.sv(287) @ 25735000: uvm_test_top.env.slave_agent.mon [axi4_slave_monitor] Read data sent: ID=0x5 ADDR=0x9ddea660 138 beats
# UVM_INFO ../src/env/axi4_scoreboard.sv(103) @ 25735000: uvm_test_top.env.scb [axi4_scoreboard] Slave AXI4_READ received: ID=0x5 ADDR=0x9ddea660 LEN=137
# UVM_INFO ../src/mst/axi4_master_monitor.sv(314) @ 25735000: uvm_test_top.env.master_agent.mon [axi4_master_monitor] Read complete: ID=0x5 ADDR=0x9ddea660 138 beats
# UVM_INFO ../src/env/axi4_scoreboard.sv(82) @ 25735000: uvm_test_top.env.scb [axi4_scoreboard] Master AXI4_READ received: ID=0x5 ADDR=0x9ddea660 LEN=137
# UVM_INFO ../src/env/axi4_scoreboard.sv(154) @ 25735000: uvm_test_top.env.scb [axi4_scoreboard] [READ] MATCH #16: ID=0x5 ADDR=0x9ddea660 LEN=137
# UVM_INFO ../src/seq/axi4_outstanding_seq.sv(106) @ 25735000: uvm_test_top.env.master_agent.sqr@@outstanding_seq [axi4_outstanding_seq] Outstanding Read [#7] complete: ID=0x5
# UVM_INFO ../src/seq/axi4_outstanding_seq.sv(65) @ 25735000: uvm_test_top.env.master_agent.sqr@@outstanding_seq [axi4_outstanding_seq] Outstanding Write [#8] started: ID=0xe ADDR=0x17f75732 LEN=15
# UVM_INFO ../src/mst/axi4_master_driver.sv(55) @ 25735000: uvm_test_top.env.master_agent.drv [axi4_master_driver] Driving AXI4_WRITE  ID=0xe  ADDR=0x17f75732  LEN=15
# UVM_INFO ../src/mst/axi4_master_driver.sv(106) @ 25735000: uvm_test_top.env.master_agent.drv [axi4_master_driver] Write order: W -> AW (W first)
# UVM_INFO ../src/slv/axi4_slave_driver.sv(165) @ 25815000: uvm_test_top.env.slave_agent.drv [axi4_slave_driver] AW received: ID=0xe ADDR=0x17f75732 LEN=15 LOCK=AXI4_LOCK_NORMAL
# UVM_INFO ../src/slv/axi4_slave_monitor.sv(116) @ 25815000: uvm_test_top.env.slave_agent.mon [axi4_slave_monitor] AW received: ID=0xe ADDR=0x17f75732 LEN=15
# UVM_INFO ../src/mst/axi4_master_monitor.sv(124) @ 25815000: uvm_test_top.env.master_agent.mon [axi4_master_monitor] AW observed: ID=0xe ADDR=0x17f75732 LEN=15
# UVM_INFO ../src/slv/axi4_slave_monitor.sv(167) @ 26055000: uvm_test_top.env.slave_agent.mon [axi4_slave_monitor] W data assembled: ID=0xe ADDR=0x17f75732 16 beats
# UVM_INFO ../src/mst/axi4_master_monitor.sv(184) @ 26055000: uvm_test_top.env.master_agent.mon [axi4_master_monitor] W data assembled: ID=0xe ADDR=0x17f75732 16 beats
# UVM_INFO ../src/mst/axi4_master_driver.sv(197) @ 26085000: uvm_test_top.env.master_agent.drv [axi4_master_driver] Write response: AXI4_RESP_OKAY
# UVM_INFO ../src/slv/axi4_slave_driver.sv(263) @ 26085000: uvm_test_top.env.slave_agent.drv [axi4_slave_driver] Write complete: ID=0xe ADDR=0x17f75732 RESP=AXI4_RESP_OKAY  16 beats processed
# UVM_INFO ../src/mst/axi4_master_monitor.sv(210) @ 26085000: uvm_test_top.env.master_agent.mon [axi4_master_monitor] Write complete: ID=0xe ADDR=0x17f75732 RESP=AXI4_RESP_OKAY
# UVM_INFO ../src/env/axi4_scoreboard.sv(82) @ 26085000: uvm_test_top.env.scb [axi4_scoreboard] Master AXI4_WRITE received: ID=0xe ADDR=0x17f75732 LEN=15
# UVM_INFO ../src/slv/axi4_slave_monitor.sv(189) @ 26085000: uvm_test_top.env.slave_agent.mon [axi4_slave_monitor] Write response sent: ID=0xe ADDR=0x17f75732 RESP=AXI4_RESP_OKAY
# UVM_INFO ../src/env/axi4_scoreboard.sv(103) @ 26085000: uvm_test_top.env.scb [axi4_scoreboard] Slave AXI4_WRITE received: ID=0xe ADDR=0x17f75732 LEN=15
# UVM_INFO ../src/env/axi4_scoreboard.sv(154) @ 26085000: uvm_test_top.env.scb [axi4_scoreboard] [WRITE] MATCH #17: ID=0xe ADDR=0x17f75732 LEN=15
# UVM_INFO ../src/seq/axi4_outstanding_seq.sv(71) @ 26085000: uvm_test_top.env.master_agent.sqr@@outstanding_seq [axi4_outstanding_seq] Outstanding Write [#8] complete: ID=0xe
# UVM_INFO ../src/seq/axi4_outstanding_seq.sv(65) @ 26085000: uvm_test_top.env.master_agent.sqr@@outstanding_seq [axi4_outstanding_seq] Outstanding Write [#9] started: ID=0xc ADDR=0x6708da96 LEN=7
# UVM_INFO ../src/mst/axi4_master_driver.sv(55) @ 26085000: uvm_test_top.env.master_agent.drv [axi4_master_driver] Driving AXI4_WRITE  ID=0xc  ADDR=0x6708da96  LEN=7
# UVM_INFO ../src/mst/axi4_master_driver.sv(94) @ 26085000: uvm_test_top.env.master_agent.drv [axi4_master_driver] Write order: AW || W (parallel)
# UVM_INFO ../src/slv/axi4_slave_driver.sv(165) @ 26115000: uvm_test_top.env.slave_agent.drv [axi4_slave_driver] AW received: ID=0xc ADDR=0x6708da96 LEN=7 LOCK=AXI4_LOCK_NORMAL
# UVM_INFO ../src/slv/axi4_slave_monitor.sv(116) @ 26115000: uvm_test_top.env.slave_agent.mon [axi4_slave_monitor] AW received: ID=0xc ADDR=0x6708da96 LEN=7
# UVM_INFO ../src/mst/axi4_master_monitor.sv(124) @ 26115000: uvm_test_top.env.master_agent.mon [axi4_master_monitor] AW observed: ID=0xc ADDR=0x6708da96 LEN=7
# UVM_INFO ../src/mst/axi4_master_monitor.sv(184) @ 26245000: uvm_test_top.env.master_agent.mon [axi4_master_monitor] W data assembled: ID=0xc ADDR=0x6708da96 8 beats
# UVM_INFO ../src/slv/axi4_slave_monitor.sv(167) @ 26245000: uvm_test_top.env.slave_agent.mon [axi4_slave_monitor] W data assembled: ID=0xc ADDR=0x6708da96 8 beats
# UVM_INFO ../src/mst/axi4_master_driver.sv(197) @ 26275000: uvm_test_top.env.master_agent.drv [axi4_master_driver] Write response: AXI4_RESP_OKAY
# UVM_INFO ../src/slv/axi4_slave_driver.sv(263) @ 26275000: uvm_test_top.env.slave_agent.drv [axi4_slave_driver] Write complete: ID=0xc ADDR=0x6708da96 RESP=AXI4_RESP_OKAY  8 beats processed
# UVM_INFO ../src/slv/axi4_slave_monitor.sv(189) @ 26275000: uvm_test_top.env.slave_agent.mon [axi4_slave_monitor] Write response sent: ID=0xc ADDR=0x6708da96 RESP=AXI4_RESP_OKAY
# UVM_INFO ../src/env/axi4_scoreboard.sv(103) @ 26275000: uvm_test_top.env.scb [axi4_scoreboard] Slave AXI4_WRITE received: ID=0xc ADDR=0x6708da96 LEN=7
# UVM_INFO ../src/mst/axi4_master_monitor.sv(210) @ 26275000: uvm_test_top.env.master_agent.mon [axi4_master_monitor] Write complete: ID=0xc ADDR=0x6708da96 RESP=AXI4_RESP_OKAY
# UVM_INFO ../src/env/axi4_scoreboard.sv(82) @ 26275000: uvm_test_top.env.scb [axi4_scoreboard] Master AXI4_WRITE received: ID=0xc ADDR=0x6708da96 LEN=7
# UVM_INFO ../src/env/axi4_scoreboard.sv(154) @ 26275000: uvm_test_top.env.scb [axi4_scoreboard] [WRITE] MATCH #18: ID=0xc ADDR=0x6708da96 LEN=7
# UVM_INFO ../src/seq/axi4_outstanding_seq.sv(71) @ 26275000: uvm_test_top.env.master_agent.sqr@@outstanding_seq [axi4_outstanding_seq] Outstanding Write [#9] complete: ID=0xc
# UVM_INFO ../src/seq/axi4_outstanding_seq.sv(65) @ 26275000: uvm_test_top.env.master_agent.sqr@@outstanding_seq [axi4_outstanding_seq] Outstanding Write [#10] started: ID=0xa ADDR=0x4726a040 LEN=107
# UVM_INFO ../src/mst/axi4_master_driver.sv(55) @ 26275000: uvm_test_top.env.master_agent.drv [axi4_master_driver] Driving AXI4_WRITE  ID=0xa  ADDR=0x4726a040  LEN=107
# UVM_INFO ../src/mst/axi4_master_driver.sv(101) @ 26275000: uvm_test_top.env.master_agent.drv [axi4_master_driver] Write order: AW -> W (sequential)
# UVM_INFO ../src/slv/axi4_slave_driver.sv(165) @ 26305000: uvm_test_top.env.slave_agent.drv [axi4_slave_driver] AW received: ID=0xa ADDR=0x4726a040 LEN=107 LOCK=AXI4_LOCK_NORMAL
# UVM_INFO ../src/mst/axi4_master_monitor.sv(124) @ 26305000: uvm_test_top.env.master_agent.mon [axi4_master_monitor] AW observed: ID=0xa ADDR=0x4726a040 LEN=107
# UVM_INFO ../src/slv/axi4_slave_monitor.sv(116) @ 26305000: uvm_test_top.env.slave_agent.mon [axi4_slave_monitor] AW received: ID=0xa ADDR=0x4726a040 LEN=107
# UVM_INFO ../src/mst/axi4_master_monitor.sv(184) @ 28465000: uvm_test_top.env.master_agent.mon [axi4_master_monitor] W data assembled: ID=0xa ADDR=0x4726a040 108 beats
# UVM_INFO ../src/slv/axi4_slave_monitor.sv(167) @ 28465000: uvm_test_top.env.slave_agent.mon [axi4_slave_monitor] W data assembled: ID=0xa ADDR=0x4726a040 108 beats
# UVM_INFO ../src/mst/axi4_master_driver.sv(197) @ 28495000: uvm_test_top.env.master_agent.drv [axi4_master_driver] Write response: AXI4_RESP_OKAY
# UVM_INFO ../src/slv/axi4_slave_driver.sv(263) @ 28495000: uvm_test_top.env.slave_agent.drv [axi4_slave_driver] Write complete: ID=0xa ADDR=0x4726a040 RESP=AXI4_RESP_OKAY  108 beats processed
# UVM_INFO ../src/slv/axi4_slave_monitor.sv(189) @ 28495000: uvm_test_top.env.slave_agent.mon [axi4_slave_monitor] Write response sent: ID=0xa ADDR=0x4726a040 RESP=AXI4_RESP_OKAY
# UVM_INFO ../src/env/axi4_scoreboard.sv(103) @ 28495000: uvm_test_top.env.scb [axi4_scoreboard] Slave AXI4_WRITE received: ID=0xa ADDR=0x4726a040 LEN=107
# UVM_INFO ../src/mst/axi4_master_monitor.sv(210) @ 28495000: uvm_test_top.env.master_agent.mon [axi4_master_monitor] Write complete: ID=0xa ADDR=0x4726a040 RESP=AXI4_RESP_OKAY
# UVM_INFO ../src/env/axi4_scoreboard.sv(82) @ 28495000: uvm_test_top.env.scb [axi4_scoreboard] Master AXI4_WRITE received: ID=0xa ADDR=0x4726a040 LEN=107
# UVM_INFO ../src/env/axi4_scoreboard.sv(154) @ 28495000: uvm_test_top.env.scb [axi4_scoreboard] [WRITE] MATCH #19: ID=0xa ADDR=0x4726a040 LEN=107
# UVM_INFO ../src/seq/axi4_outstanding_seq.sv(71) @ 28495000: uvm_test_top.env.master_agent.sqr@@outstanding_seq [axi4_outstanding_seq] Outstanding Write [#10] complete: ID=0xa
# UVM_INFO ../src/seq/axi4_outstanding_seq.sv(65) @ 28495000: uvm_test_top.env.master_agent.sqr@@outstanding_seq [axi4_outstanding_seq] Outstanding Write [#11] started: ID=0xa ADDR=0x1083eaa8 LEN=171
# UVM_INFO ../src/mst/axi4_master_driver.sv(55) @ 28495000: uvm_test_top.env.master_agent.drv [axi4_master_driver] Driving AXI4_WRITE  ID=0xa  ADDR=0x1083eaa8  LEN=171
# UVM_INFO ../src/mst/axi4_master_driver.sv(94) @ 28495000: uvm_test_top.env.master_agent.drv [axi4_master_driver] Write order: AW || W (parallel)
# UVM_INFO ../src/slv/axi4_slave_driver.sv(165) @ 28525000: uvm_test_top.env.slave_agent.drv [axi4_slave_driver] AW received: ID=0xa ADDR=0x1083eaa8 LEN=171 LOCK=AXI4_LOCK_NORMAL
# UVM_INFO ../src/mst/axi4_master_monitor.sv(124) @ 28525000: uvm_test_top.env.master_agent.mon [axi4_master_monitor] AW observed: ID=0xa ADDR=0x1083eaa8 LEN=171
# UVM_INFO ../src/slv/axi4_slave_monitor.sv(116) @ 28525000: uvm_test_top.env.slave_agent.mon [axi4_slave_monitor] AW received: ID=0xa ADDR=0x1083eaa8 LEN=171
# UVM_INFO ../src/slv/axi4_slave_monitor.sv(167) @ 31935000: uvm_test_top.env.slave_agent.mon [axi4_slave_monitor] W data assembled: ID=0xa ADDR=0x1083eaa8 172 beats
# UVM_INFO ../src/mst/axi4_master_monitor.sv(184) @ 31935000: uvm_test_top.env.master_agent.mon [axi4_master_monitor] W data assembled: ID=0xa ADDR=0x1083eaa8 172 beats
# UVM_INFO ../src/mst/axi4_master_driver.sv(197) @ 31965000: uvm_test_top.env.master_agent.drv [axi4_master_driver] Write response: AXI4_RESP_OKAY
# UVM_INFO ../src/slv/axi4_slave_driver.sv(263) @ 31965000: uvm_test_top.env.slave_agent.drv [axi4_slave_driver] Write complete: ID=0xa ADDR=0x1083eaa8 RESP=AXI4_RESP_OKAY  172 beats processed
# UVM_INFO ../src/mst/axi4_master_monitor.sv(210) @ 31965000: uvm_test_top.env.master_agent.mon [axi4_master_monitor] Write complete: ID=0xa ADDR=0x1083eaa8 RESP=AXI4_RESP_OKAY
# UVM_INFO ../src/env/axi4_scoreboard.sv(82) @ 31965000: uvm_test_top.env.scb [axi4_scoreboard] Master AXI4_WRITE received: ID=0xa ADDR=0x1083eaa8 LEN=171
# UVM_INFO ../src/slv/axi4_slave_monitor.sv(189) @ 31965000: uvm_test_top.env.slave_agent.mon [axi4_slave_monitor] Write response sent: ID=0xa ADDR=0x1083eaa8 RESP=AXI4_RESP_OKAY
# UVM_INFO ../src/env/axi4_scoreboard.sv(103) @ 31965000: uvm_test_top.env.scb [axi4_scoreboard] Slave AXI4_WRITE received: ID=0xa ADDR=0x1083eaa8 LEN=171
# UVM_INFO ../src/env/axi4_scoreboard.sv(154) @ 31965000: uvm_test_top.env.scb [axi4_scoreboard] [WRITE] MATCH #20: ID=0xa ADDR=0x1083eaa8 LEN=171
# UVM_INFO ../src/seq/axi4_outstanding_seq.sv(71) @ 31965000: uvm_test_top.env.master_agent.sqr@@outstanding_seq [axi4_outstanding_seq] Outstanding Write [#11] complete: ID=0xa
# UVM_INFO ../src/seq/axi4_outstanding_seq.sv(100) @ 31965000: uvm_test_top.env.master_agent.sqr@@outstanding_seq [axi4_outstanding_seq] Outstanding Read [#8] started: ID=0x2 ADDR=0x1f40e264 LEN=222
# UVM_INFO ../src/mst/axi4_master_driver.sv(55) @ 31965000: uvm_test_top.env.master_agent.drv [axi4_master_driver] Driving AXI4_READ  ID=0x2  ADDR=0x1f40e264  LEN=222
# UVM_INFO ../src/slv/axi4_slave_driver.sv(302) @ 31995000: uvm_test_top.env.slave_agent.drv [axi4_slave_driver] AR received: ID=0x2 ADDR=0x1f40e264 LEN=222 LOCK=AXI4_LOCK_NORMAL
# UVM_INFO ../src/slv/axi4_slave_monitor.sv(224) @ 31995000: uvm_test_top.env.slave_agent.mon [axi4_slave_monitor] AR received: ID=0x2 ADDR=0x1f40e264 LEN=222
# UVM_INFO ../src/mst/axi4_master_monitor.sv(246) @ 31995000: uvm_test_top.env.master_agent.mon [axi4_master_monitor] AR observed: ID=0x2 ADDR=0x1f40e264 LEN=222
# UVM_INFO ../src/mst/axi4_master_driver.sv(254) @ 36455000: uvm_test_top.env.master_agent.drv [axi4_master_driver] Read complete: 223 beats received
# UVM_INFO ../src/slv/axi4_slave_driver.sv(356) @ 36455000: uvm_test_top.env.slave_agent.drv [axi4_slave_driver] Read complete: ID=0x2 ADDR=0x1f40e264 RESP=AXI4_RESP_OKAY  223 beats sent
# UVM_INFO ../src/slv/axi4_slave_monitor.sv(287) @ 36455000: uvm_test_top.env.slave_agent.mon [axi4_slave_monitor] Read data sent: ID=0x2 ADDR=0x1f40e264 223 beats
# UVM_INFO ../src/env/axi4_scoreboard.sv(103) @ 36455000: uvm_test_top.env.scb [axi4_scoreboard] Slave AXI4_READ received: ID=0x2 ADDR=0x1f40e264 LEN=222
# UVM_INFO ../src/mst/axi4_master_monitor.sv(314) @ 36455000: uvm_test_top.env.master_agent.mon [axi4_master_monitor] Read complete: ID=0x2 ADDR=0x1f40e264 223 beats
# UVM_INFO ../src/env/axi4_scoreboard.sv(82) @ 36455000: uvm_test_top.env.scb [axi4_scoreboard] Master AXI4_READ received: ID=0x2 ADDR=0x1f40e264 LEN=222
# UVM_INFO ../src/env/axi4_scoreboard.sv(154) @ 36455000: uvm_test_top.env.scb [axi4_scoreboard] [READ] MATCH #21: ID=0x2 ADDR=0x1f40e264 LEN=222
# UVM_INFO ../src/seq/axi4_outstanding_seq.sv(106) @ 36455000: uvm_test_top.env.master_agent.sqr@@outstanding_seq [axi4_outstanding_seq] Outstanding Read [#8] complete: ID=0x2
# UVM_INFO ../src/seq/axi4_outstanding_seq.sv(100) @ 36455000: uvm_test_top.env.master_agent.sqr@@outstanding_seq [axi4_outstanding_seq] Outstanding Read [#9] started: ID=0x7 ADDR=0x1877937e LEN=5
# UVM_INFO ../src/mst/axi4_master_driver.sv(55) @ 36455000: uvm_test_top.env.master_agent.drv [axi4_master_driver] Driving AXI4_READ  ID=0x7  ADDR=0x1877937e  LEN=5
# UVM_INFO ../src/slv/axi4_slave_driver.sv(302) @ 36485000: uvm_test_top.env.slave_agent.drv [axi4_slave_driver] AR received: ID=0x7 ADDR=0x1877937e LEN=5 LOCK=AXI4_LOCK_NORMAL
# UVM_INFO ../src/mst/axi4_master_monitor.sv(246) @ 36485000: uvm_test_top.env.master_agent.mon [axi4_master_monitor] AR observed: ID=0x7 ADDR=0x1877937e LEN=5
# UVM_INFO ../src/slv/axi4_slave_monitor.sv(224) @ 36485000: uvm_test_top.env.slave_agent.mon [axi4_slave_monitor] AR received: ID=0x7 ADDR=0x1877937e LEN=5
# UVM_INFO ../src/mst/axi4_master_driver.sv(254) @ 36605000: uvm_test_top.env.master_agent.drv [axi4_master_driver] Read complete: 6 beats received
# UVM_INFO ../src/slv/axi4_slave_driver.sv(356) @ 36605000: uvm_test_top.env.slave_agent.drv [axi4_slave_driver] Read complete: ID=0x7 ADDR=0x1877937e RESP=AXI4_RESP_OKAY  6 beats sent
# UVM_INFO ../src/mst/axi4_master_monitor.sv(314) @ 36605000: uvm_test_top.env.master_agent.mon [axi4_master_monitor] Read complete: ID=0x7 ADDR=0x1877937e 6 beats
# UVM_INFO ../src/env/axi4_scoreboard.sv(82) @ 36605000: uvm_test_top.env.scb [axi4_scoreboard] Master AXI4_READ received: ID=0x7 ADDR=0x1877937e LEN=5
# UVM_INFO ../src/slv/axi4_slave_monitor.sv(287) @ 36605000: uvm_test_top.env.slave_agent.mon [axi4_slave_monitor] Read data sent: ID=0x7 ADDR=0x1877937e 6 beats
# UVM_INFO ../src/env/axi4_scoreboard.sv(103) @ 36605000: uvm_test_top.env.scb [axi4_scoreboard] Slave AXI4_READ received: ID=0x7 ADDR=0x1877937e LEN=5
# UVM_INFO ../src/env/axi4_scoreboard.sv(154) @ 36605000: uvm_test_top.env.scb [axi4_scoreboard] [READ] MATCH #22: ID=0x7 ADDR=0x1877937e LEN=5
# UVM_INFO ../src/seq/axi4_outstanding_seq.sv(106) @ 36605000: uvm_test_top.env.master_agent.sqr@@outstanding_seq [axi4_outstanding_seq] Outstanding Read [#9] complete: ID=0x7
# UVM_INFO ../src/seq/axi4_outstanding_seq.sv(100) @ 36605000: uvm_test_top.env.master_agent.sqr@@outstanding_seq [axi4_outstanding_seq] Outstanding Read [#10] started: ID=0x7 ADDR=0x3c648675 LEN=54
# UVM_INFO ../src/mst/axi4_master_driver.sv(55) @ 36605000: uvm_test_top.env.master_agent.drv [axi4_master_driver] Driving AXI4_READ  ID=0x7  ADDR=0x3c648675  LEN=54
# UVM_INFO ../src/slv/axi4_slave_driver.sv(302) @ 36635000: uvm_test_top.env.slave_agent.drv [axi4_slave_driver] AR received: ID=0x7 ADDR=0x3c648675 LEN=54 LOCK=AXI4_LOCK_NORMAL
# UVM_INFO ../src/slv/axi4_slave_monitor.sv(224) @ 36635000: uvm_test_top.env.slave_agent.mon [axi4_slave_monitor] AR received: ID=0x7 ADDR=0x3c648675 LEN=54
# UVM_INFO ../src/mst/axi4_master_monitor.sv(246) @ 36635000: uvm_test_top.env.master_agent.mon [axi4_master_monitor] AR observed: ID=0x7 ADDR=0x3c648675 LEN=54
# UVM_INFO ../src/mst/axi4_master_driver.sv(254) @ 37735000: uvm_test_top.env.master_agent.drv [axi4_master_driver] Read complete: 55 beats received
# UVM_INFO ../src/slv/axi4_slave_driver.sv(356) @ 37735000: uvm_test_top.env.slave_agent.drv [axi4_slave_driver] Read complete: ID=0x7 ADDR=0x3c648675 RESP=AXI4_RESP_OKAY  55 beats sent
# UVM_INFO ../src/slv/axi4_slave_monitor.sv(287) @ 37735000: uvm_test_top.env.slave_agent.mon [axi4_slave_monitor] Read data sent: ID=0x7 ADDR=0x3c648675 55 beats
# UVM_INFO ../src/env/axi4_scoreboard.sv(103) @ 37735000: uvm_test_top.env.scb [axi4_scoreboard] Slave AXI4_READ received: ID=0x7 ADDR=0x3c648675 LEN=54
# UVM_INFO ../src/mst/axi4_master_monitor.sv(314) @ 37735000: uvm_test_top.env.master_agent.mon [axi4_master_monitor] Read complete: ID=0x7 ADDR=0x3c648675 55 beats
# UVM_INFO ../src/env/axi4_scoreboard.sv(82) @ 37735000: uvm_test_top.env.scb [axi4_scoreboard] Master AXI4_READ received: ID=0x7 ADDR=0x3c648675 LEN=54
# UVM_INFO ../src/env/axi4_scoreboard.sv(154) @ 37735000: uvm_test_top.env.scb [axi4_scoreboard] [READ] MATCH #23: ID=0x7 ADDR=0x3c648675 LEN=54
# UVM_INFO ../src/seq/axi4_outstanding_seq.sv(106) @ 37735000: uvm_test_top.env.master_agent.sqr@@outstanding_seq [axi4_outstanding_seq] Outstanding Read [#10] complete: ID=0x7
# UVM_INFO ../src/seq/axi4_outstanding_seq.sv(100) @ 37735000: uvm_test_top.env.master_agent.sqr@@outstanding_seq [axi4_outstanding_seq] Outstanding Read [#11] started: ID=0xf ADDR=0x338f9478 LEN=149
# UVM_INFO ../src/mst/axi4_master_driver.sv(55) @ 37735000: uvm_test_top.env.master_agent.drv [axi4_master_driver] Driving AXI4_READ  ID=0xf  ADDR=0x338f9478  LEN=149
# UVM_INFO ../src/slv/axi4_slave_driver.sv(302) @ 37765000: uvm_test_top.env.slave_agent.drv [axi4_slave_driver] AR received: ID=0xf ADDR=0x338f9478 LEN=149 LOCK=AXI4_LOCK_NORMAL
# UVM_INFO ../src/mst/axi4_master_monitor.sv(246) @ 37765000: uvm_test_top.env.master_agent.mon [axi4_master_monitor] AR observed: ID=0xf ADDR=0x338f9478 LEN=149
# UVM_INFO ../src/slv/axi4_slave_monitor.sv(224) @ 37765000: uvm_test_top.env.slave_agent.mon [axi4_slave_monitor] AR received: ID=0xf ADDR=0x338f9478 LEN=149
# UVM_INFO ../src/mst/axi4_master_driver.sv(254) @ 40765000: uvm_test_top.env.master_agent.drv [axi4_master_driver] Read complete: 150 beats received
# UVM_INFO ../src/slv/axi4_slave_driver.sv(356) @ 40765000: uvm_test_top.env.slave_agent.drv [axi4_slave_driver] Read complete: ID=0xf ADDR=0x338f9478 RESP=AXI4_RESP_OKAY  150 beats sent
# UVM_INFO ../src/mst/axi4_master_monitor.sv(314) @ 40765000: uvm_test_top.env.master_agent.mon [axi4_master_monitor] Read complete: ID=0xf ADDR=0x338f9478 150 beats
# UVM_INFO ../src/env/axi4_scoreboard.sv(82) @ 40765000: uvm_test_top.env.scb [axi4_scoreboard] Master AXI4_READ received: ID=0xf ADDR=0x338f9478 LEN=149
# UVM_INFO ../src/slv/axi4_slave_monitor.sv(287) @ 40765000: uvm_test_top.env.slave_agent.mon [axi4_slave_monitor] Read data sent: ID=0xf ADDR=0x338f9478 150 beats
# UVM_INFO ../src/env/axi4_scoreboard.sv(103) @ 40765000: uvm_test_top.env.scb [axi4_scoreboard] Slave AXI4_READ received: ID=0xf ADDR=0x338f9478 LEN=149
# UVM_INFO ../src/env/axi4_scoreboard.sv(154) @ 40765000: uvm_test_top.env.scb [axi4_scoreboard] [READ] MATCH #24: ID=0xf ADDR=0x338f9478 LEN=149
# UVM_INFO ../src/seq/axi4_outstanding_seq.sv(106) @ 40765000: uvm_test_top.env.master_agent.sqr@@outstanding_seq [axi4_outstanding_seq] Outstanding Read [#11] complete: ID=0xf
# UVM_INFO ../src/seq/axi4_outstanding_seq.sv(65) @ 40765000: uvm_test_top.env.master_agent.sqr@@outstanding_seq [axi4_outstanding_seq] Outstanding Write [#12] started: ID=0x7 ADDR=0x2961b5c8 LEN=140
# UVM_INFO ../src/mst/axi4_master_driver.sv(55) @ 40765000: uvm_test_top.env.master_agent.drv [axi4_master_driver] Driving AXI4_WRITE  ID=0x7  ADDR=0x2961b5c8  LEN=140
# UVM_INFO ../src/mst/axi4_master_driver.sv(94) @ 40765000: uvm_test_top.env.master_agent.drv [axi4_master_driver] Write order: AW || W (parallel)
# UVM_INFO ../src/slv/axi4_slave_driver.sv(165) @ 40795000: uvm_test_top.env.slave_agent.drv [axi4_slave_driver] AW received: ID=0x7 ADDR=0x2961b5c8 LEN=140 LOCK=AXI4_LOCK_EXCLUSIVE
# UVM_INFO ../src/slv/axi4_slave_monitor.sv(116) @ 40795000: uvm_test_top.env.slave_agent.mon [axi4_slave_monitor] AW received: ID=0x7 ADDR=0x2961b5c8 LEN=140
# UVM_INFO ../src/mst/axi4_master_monitor.sv(124) @ 40795000: uvm_test_top.env.master_agent.mon [axi4_master_monitor] AW observed: ID=0x7 ADDR=0x2961b5c8 LEN=140
# UVM_INFO ../src/mst/axi4_master_monitor.sv(184) @ 43585000: uvm_test_top.env.master_agent.mon [axi4_master_monitor] W data assembled: ID=0x7 ADDR=0x2961b5c8 141 beats
# UVM_INFO ../src/slv/axi4_slave_monitor.sv(167) @ 43585000: uvm_test_top.env.slave_agent.mon [axi4_slave_monitor] W data assembled: ID=0x7 ADDR=0x2961b5c8 141 beats
# UVM_INFO ../src/mst/axi4_master_driver.sv(197) @ 43615000: uvm_test_top.env.master_agent.drv [axi4_master_driver] Write response: AXI4_RESP_OKAY
# UVM_INFO ../src/slv/axi4_slave_driver.sv(263) @ 43615000: uvm_test_top.env.slave_agent.drv [axi4_slave_driver] Write complete: ID=0x7 ADDR=0x2961b5c8 RESP=AXI4_RESP_OKAY  141 beats processed
# UVM_INFO ../src/slv/axi4_slave_monitor.sv(189) @ 43615000: uvm_test_top.env.slave_agent.mon [axi4_slave_monitor] Write response sent: ID=0x7 ADDR=0x2961b5c8 RESP=AXI4_RESP_OKAY
# UVM_INFO ../src/env/axi4_scoreboard.sv(103) @ 43615000: uvm_test_top.env.scb [axi4_scoreboard] Slave AXI4_WRITE received: ID=0x7 ADDR=0x2961b5c8 LEN=140
# UVM_INFO ../src/mst/axi4_master_monitor.sv(210) @ 43615000: uvm_test_top.env.master_agent.mon [axi4_master_monitor] Write complete: ID=0x7 ADDR=0x2961b5c8 RESP=AXI4_RESP_OKAY
# UVM_INFO ../src/env/axi4_scoreboard.sv(82) @ 43615000: uvm_test_top.env.scb [axi4_scoreboard] Master AXI4_WRITE received: ID=0x7 ADDR=0x2961b5c8 LEN=140
# UVM_INFO ../src/env/axi4_scoreboard.sv(154) @ 43615000: uvm_test_top.env.scb [axi4_scoreboard] [WRITE] MATCH #25: ID=0x7 ADDR=0x2961b5c8 LEN=140
# UVM_INFO ../src/seq/axi4_outstanding_seq.sv(71) @ 43615000: uvm_test_top.env.master_agent.sqr@@outstanding_seq [axi4_outstanding_seq] Outstanding Write [#12] complete: ID=0x7
# UVM_INFO ../src/seq/axi4_outstanding_seq.sv(65) @ 43615000: uvm_test_top.env.master_agent.sqr@@outstanding_seq [axi4_outstanding_seq] Outstanding Write [#13] started: ID=0x0 ADDR=0x2d35d617 LEN=1
# UVM_INFO ../src/mst/axi4_master_driver.sv(55) @ 43615000: uvm_test_top.env.master_agent.drv [axi4_master_driver] Driving AXI4_WRITE  ID=0x0  ADDR=0x2d35d617  LEN=1
# UVM_INFO ../src/mst/axi4_master_driver.sv(106) @ 43615000: uvm_test_top.env.master_agent.drv [axi4_master_driver] Write order: W -> AW (W first)
# UVM_INFO ../src/slv/axi4_slave_driver.sv(165) @ 43675000: uvm_test_top.env.slave_agent.drv [axi4_slave_driver] AW received: ID=0x0 ADDR=0x2d35d617 LEN=1 LOCK=AXI4_LOCK_NORMAL
# UVM_INFO ../src/slv/axi4_slave_monitor.sv(116) @ 43675000: uvm_test_top.env.slave_agent.mon [axi4_slave_monitor] AW received: ID=0x0 ADDR=0x2d35d617 LEN=1
# UVM_INFO ../src/mst/axi4_master_monitor.sv(124) @ 43675000: uvm_test_top.env.master_agent.mon [axi4_master_monitor] AW observed: ID=0x0 ADDR=0x2d35d617 LEN=1
# UVM_INFO ../src/slv/axi4_slave_monitor.sv(167) @ 43675000: uvm_test_top.env.slave_agent.mon [axi4_slave_monitor] W data assembled: ID=0x0 ADDR=0x2d35d617 2 beats
# UVM_INFO ../src/mst/axi4_master_monitor.sv(184) @ 43675000: uvm_test_top.env.master_agent.mon [axi4_master_monitor] W data assembled: ID=0x0 ADDR=0x2d35d617 2 beats
# UVM_INFO ../src/mst/axi4_master_driver.sv(197) @ 43695000: uvm_test_top.env.master_agent.drv [axi4_master_driver] Write response: AXI4_RESP_OKAY
# UVM_INFO ../src/slv/axi4_slave_driver.sv(263) @ 43695000: uvm_test_top.env.slave_agent.drv [axi4_slave_driver] Write complete: ID=0x0 ADDR=0x2d35d617 RESP=AXI4_RESP_OKAY  2 beats processed
# UVM_INFO ../src/slv/axi4_slave_monitor.sv(189) @ 43695000: uvm_test_top.env.slave_agent.mon [axi4_slave_monitor] Write response sent: ID=0x0 ADDR=0x2d35d617 RESP=AXI4_RESP_OKAY
# UVM_INFO ../src/env/axi4_scoreboard.sv(103) @ 43695000: uvm_test_top.env.scb [axi4_scoreboard] Slave AXI4_WRITE received: ID=0x0 ADDR=0x2d35d617 LEN=1
# UVM_INFO ../src/mst/axi4_master_monitor.sv(210) @ 43695000: uvm_test_top.env.master_agent.mon [axi4_master_monitor] Write complete: ID=0x0 ADDR=0x2d35d617 RESP=AXI4_RESP_OKAY
# UVM_INFO ../src/env/axi4_scoreboard.sv(82) @ 43695000: uvm_test_top.env.scb [axi4_scoreboard] Master AXI4_WRITE received: ID=0x0 ADDR=0x2d35d617 LEN=1
# UVM_INFO ../src/env/axi4_scoreboard.sv(154) @ 43695000: uvm_test_top.env.scb [axi4_scoreboard] [WRITE] MATCH #26: ID=0x0 ADDR=0x2d35d617 LEN=1
# UVM_INFO ../src/seq/axi4_outstanding_seq.sv(71) @ 43695000: uvm_test_top.env.master_agent.sqr@@outstanding_seq [axi4_outstanding_seq] Outstanding Write [#13] complete: ID=0x0
# UVM_INFO ../src/seq/axi4_outstanding_seq.sv(65) @ 43695000: uvm_test_top.env.master_agent.sqr@@outstanding_seq [axi4_outstanding_seq] Outstanding Write [#14] started: ID=0xf ADDR=0x84a65721 LEN=164
# UVM_INFO ../src/mst/axi4_master_driver.sv(55) @ 43695000: uvm_test_top.env.master_agent.drv [axi4_master_driver] Driving AXI4_WRITE  ID=0xf  ADDR=0x84a65721  LEN=164
# UVM_INFO ../src/mst/axi4_master_driver.sv(101) @ 43695000: uvm_test_top.env.master_agent.drv [axi4_master_driver] Write order: AW -> W (sequential)
# UVM_INFO ../src/slv/axi4_slave_driver.sv(165) @ 43725000: uvm_test_top.env.slave_agent.drv [axi4_slave_driver] AW received: ID=0xf ADDR=0x84a65721 LEN=164 LOCK=AXI4_LOCK_EXCLUSIVE
# UVM_INFO ../src/mst/axi4_master_monitor.sv(124) @ 43725000: uvm_test_top.env.master_agent.mon [axi4_master_monitor] AW observed: ID=0xf ADDR=0x84a65721 LEN=164
# UVM_INFO ../src/slv/axi4_slave_monitor.sv(116) @ 43725000: uvm_test_top.env.slave_agent.mon [axi4_slave_monitor] AW received: ID=0xf ADDR=0x84a65721 LEN=164
# UVM_INFO ../src/mst/axi4_master_monitor.sv(184) @ 47025000: uvm_test_top.env.master_agent.mon [axi4_master_monitor] W data assembled: ID=0xf ADDR=0x84a65721 165 beats
# UVM_INFO ../src/slv/axi4_slave_monitor.sv(167) @ 47025000: uvm_test_top.env.slave_agent.mon [axi4_slave_monitor] W data assembled: ID=0xf ADDR=0x84a65721 165 beats
# UVM_INFO ../src/mst/axi4_master_driver.sv(197) @ 47055000: uvm_test_top.env.master_agent.drv [axi4_master_driver] Write response: AXI4_RESP_OKAY
# UVM_INFO ../src/slv/axi4_slave_driver.sv(263) @ 47055000: uvm_test_top.env.slave_agent.drv [axi4_slave_driver] Write complete: ID=0xf ADDR=0x84a65721 RESP=AXI4_RESP_OKAY  165 beats processed
# UVM_INFO ../src/slv/axi4_slave_monitor.sv(189) @ 47055000: uvm_test_top.env.slave_agent.mon [axi4_slave_monitor] Write response sent: ID=0xf ADDR=0x84a65721 RESP=AXI4_RESP_OKAY
# UVM_INFO ../src/env/axi4_scoreboard.sv(103) @ 47055000: uvm_test_top.env.scb [axi4_scoreboard] Slave AXI4_WRITE received: ID=0xf ADDR=0x84a65721 LEN=164
# UVM_INFO ../src/mst/axi4_master_monitor.sv(210) @ 47055000: uvm_test_top.env.master_agent.mon [axi4_master_monitor] Write complete: ID=0xf ADDR=0x84a65721 RESP=AXI4_RESP_OKAY
# UVM_INFO ../src/env/axi4_scoreboard.sv(82) @ 47055000: uvm_test_top.env.scb [axi4_scoreboard] Master AXI4_WRITE received: ID=0xf ADDR=0x84a65721 LEN=164
# UVM_INFO ../src/env/axi4_scoreboard.sv(154) @ 47055000: uvm_test_top.env.scb [axi4_scoreboard] [WRITE] MATCH #27: ID=0xf ADDR=0x84a65721 LEN=164
# UVM_INFO ../src/seq/axi4_outstanding_seq.sv(71) @ 47055000: uvm_test_top.env.master_agent.sqr@@outstanding_seq [axi4_outstanding_seq] Outstanding Write [#14] complete: ID=0xf
# UVM_INFO ../src/seq/axi4_outstanding_seq.sv(78) @ 47055000: uvm_test_top.env.master_agent.sqr@@outstanding_seq [axi4_outstanding_seq] All outstanding write transactions finished
# UVM_INFO ../src/seq/axi4_outstanding_seq.sv(100) @ 47055000: uvm_test_top.env.master_agent.sqr@@outstanding_seq [axi4_outstanding_seq] Outstanding Read [#12] started: ID=0x1 ADDR=0x79de4228 LEN=236
# UVM_INFO ../src/mst/axi4_master_driver.sv(55) @ 47055000: uvm_test_top.env.master_agent.drv [axi4_master_driver] Driving AXI4_READ  ID=0x1  ADDR=0x79de4228  LEN=236
# UVM_INFO ../src/slv/axi4_slave_driver.sv(302) @ 47085000: uvm_test_top.env.slave_agent.drv [axi4_slave_driver] AR received: ID=0x1 ADDR=0x79de4228 LEN=236 LOCK=AXI4_LOCK_NORMAL
# UVM_INFO ../src/mst/axi4_master_monitor.sv(246) @ 47085000: uvm_test_top.env.master_agent.mon [axi4_master_monitor] AR observed: ID=0x1 ADDR=0x79de4228 LEN=236
# UVM_INFO ../src/slv/axi4_slave_monitor.sv(224) @ 47085000: uvm_test_top.env.slave_agent.mon [axi4_slave_monitor] AR received: ID=0x1 ADDR=0x79de4228 LEN=236
# UVM_INFO ../src/mst/axi4_master_driver.sv(254) @ 51825000: uvm_test_top.env.master_agent.drv [axi4_master_driver] Read complete: 237 beats received
# UVM_INFO ../src/slv/axi4_slave_driver.sv(356) @ 51825000: uvm_test_top.env.slave_agent.drv [axi4_slave_driver] Read complete: ID=0x1 ADDR=0x79de4228 RESP=AXI4_RESP_OKAY  237 beats sent
# UVM_INFO ../src/mst/axi4_master_monitor.sv(314) @ 51825000: uvm_test_top.env.master_agent.mon [axi4_master_monitor] Read complete: ID=0x1 ADDR=0x79de4228 237 beats
# UVM_INFO ../src/env/axi4_scoreboard.sv(82) @ 51825000: uvm_test_top.env.scb [axi4_scoreboard] Master AXI4_READ received: ID=0x1 ADDR=0x79de4228 LEN=236
# UVM_INFO ../src/slv/axi4_slave_monitor.sv(287) @ 51825000: uvm_test_top.env.slave_agent.mon [axi4_slave_monitor] Read data sent: ID=0x1 ADDR=0x79de4228 237 beats
# UVM_INFO ../src/env/axi4_scoreboard.sv(103) @ 51825000: uvm_test_top.env.scb [axi4_scoreboard] Slave AXI4_READ received: ID=0x1 ADDR=0x79de4228 LEN=236
# UVM_INFO ../src/env/axi4_scoreboard.sv(154) @ 51825000: uvm_test_top.env.scb [axi4_scoreboard] [READ] MATCH #28: ID=0x1 ADDR=0x79de4228 LEN=236
# UVM_INFO ../src/seq/axi4_outstanding_seq.sv(106) @ 51825000: uvm_test_top.env.master_agent.sqr@@outstanding_seq [axi4_outstanding_seq] Outstanding Read [#12] complete: ID=0x1
# UVM_INFO ../src/seq/axi4_outstanding_seq.sv(100) @ 51825000: uvm_test_top.env.master_agent.sqr@@outstanding_seq [axi4_outstanding_seq] Outstanding Read [#13] started: ID=0xe ADDR=0xbc982517 LEN=153
# UVM_INFO ../src/mst/axi4_master_driver.sv(55) @ 51825000: uvm_test_top.env.master_agent.drv [axi4_master_driver] Driving AXI4_READ  ID=0xe  ADDR=0xbc982517  LEN=153
# UVM_INFO ../src/slv/axi4_slave_driver.sv(302) @ 51855000: uvm_test_top.env.slave_agent.drv [axi4_slave_driver] AR received: ID=0xe ADDR=0xbc982517 LEN=153 LOCK=AXI4_LOCK_NORMAL
# UVM_INFO ../src/slv/axi4_slave_monitor.sv(224) @ 51855000: uvm_test_top.env.slave_agent.mon [axi4_slave_monitor] AR received: ID=0xe ADDR=0xbc982517 LEN=153
# UVM_INFO ../src/mst/axi4_master_monitor.sv(246) @ 51855000: uvm_test_top.env.master_agent.mon [axi4_master_monitor] AR observed: ID=0xe ADDR=0xbc982517 LEN=153
# UVM_INFO ../src/mst/axi4_master_driver.sv(254) @ 54935000: uvm_test_top.env.master_agent.drv [axi4_master_driver] Read complete: 154 beats received
# UVM_INFO ../src/slv/axi4_slave_driver.sv(356) @ 54935000: uvm_test_top.env.slave_agent.drv [axi4_slave_driver] Read complete: ID=0xe ADDR=0xbc982517 RESP=AXI4_RESP_OKAY  154 beats sent
# UVM_INFO ../src/slv/axi4_slave_monitor.sv(287) @ 54935000: uvm_test_top.env.slave_agent.mon [axi4_slave_monitor] Read data sent: ID=0xe ADDR=0xbc982517 154 beats
# UVM_INFO ../src/env/axi4_scoreboard.sv(103) @ 54935000: uvm_test_top.env.scb [axi4_scoreboard] Slave AXI4_READ received: ID=0xe ADDR=0xbc982517 LEN=153
# UVM_INFO ../src/mst/axi4_master_monitor.sv(314) @ 54935000: uvm_test_top.env.master_agent.mon [axi4_master_monitor] Read complete: ID=0xe ADDR=0xbc982517 154 beats
# UVM_INFO ../src/env/axi4_scoreboard.sv(82) @ 54935000: uvm_test_top.env.scb [axi4_scoreboard] Master AXI4_READ received: ID=0xe ADDR=0xbc982517 LEN=153
# UVM_INFO ../src/env/axi4_scoreboard.sv(154) @ 54935000: uvm_test_top.env.scb [axi4_scoreboard] [READ] MATCH #29: ID=0xe ADDR=0xbc982517 LEN=153
# UVM_INFO ../src/seq/axi4_outstanding_seq.sv(106) @ 54935000: uvm_test_top.env.master_agent.sqr@@outstanding_seq [axi4_outstanding_seq] Outstanding Read [#13] complete: ID=0xe
# UVM_INFO ../src/seq/axi4_outstanding_seq.sv(100) @ 54935000: uvm_test_top.env.master_agent.sqr@@outstanding_seq [axi4_outstanding_seq] Outstanding Read [#14] started: ID=0xe ADDR=0x07d21a14 LEN=15
# UVM_INFO ../src/mst/axi4_master_driver.sv(55) @ 54935000: uvm_test_top.env.master_agent.drv [axi4_master_driver] Driving AXI4_READ  ID=0xe  ADDR=0x07d21a14  LEN=15
# UVM_INFO ../src/slv/axi4_slave_driver.sv(302) @ 54965000: uvm_test_top.env.slave_agent.drv [axi4_slave_driver] AR received: ID=0xe ADDR=0x07d21a14 LEN=15 LOCK=AXI4_LOCK_NORMAL
# UVM_INFO ../src/mst/axi4_master_monitor.sv(246) @ 54965000: uvm_test_top.env.master_agent.mon [axi4_master_monitor] AR observed: ID=0xe ADDR=0x07d21a14 LEN=15
# UVM_INFO ../src/slv/axi4_slave_monitor.sv(224) @ 54965000: uvm_test_top.env.slave_agent.mon [axi4_slave_monitor] AR received: ID=0xe ADDR=0x07d21a14 LEN=15
# UVM_INFO ../src/mst/axi4_master_driver.sv(254) @ 55285000: uvm_test_top.env.master_agent.drv [axi4_master_driver] Read complete: 16 beats received
# UVM_INFO ../src/slv/axi4_slave_driver.sv(356) @ 55285000: uvm_test_top.env.slave_agent.drv [axi4_slave_driver] Read complete: ID=0xe ADDR=0x07d21a14 RESP=AXI4_RESP_OKAY  16 beats sent
# UVM_INFO ../src/mst/axi4_master_monitor.sv(314) @ 55285000: uvm_test_top.env.master_agent.mon [axi4_master_monitor] Read complete: ID=0xe ADDR=0x07d21a14 16 beats
# UVM_INFO ../src/env/axi4_scoreboard.sv(82) @ 55285000: uvm_test_top.env.scb [axi4_scoreboard] Master AXI4_READ received: ID=0xe ADDR=0x07d21a14 LEN=15
# UVM_INFO ../src/slv/axi4_slave_monitor.sv(287) @ 55285000: uvm_test_top.env.slave_agent.mon [axi4_slave_monitor] Read data sent: ID=0xe ADDR=0x07d21a14 16 beats
# UVM_INFO ../src/env/axi4_scoreboard.sv(103) @ 55285000: uvm_test_top.env.scb [axi4_scoreboard] Slave AXI4_READ received: ID=0xe ADDR=0x07d21a14 LEN=15
# UVM_INFO ../src/env/axi4_scoreboard.sv(154) @ 55285000: uvm_test_top.env.scb [axi4_scoreboard] [READ] MATCH #30: ID=0xe ADDR=0x07d21a14 LEN=15
# UVM_INFO ../src/seq/axi4_outstanding_seq.sv(106) @ 55285000: uvm_test_top.env.master_agent.sqr@@outstanding_seq [axi4_outstanding_seq] Outstanding Read [#14] complete: ID=0xe
# UVM_INFO ../src/seq/axi4_outstanding_seq.sv(113) @ 55285000: uvm_test_top.env.master_agent.sqr@@outstanding_seq [axi4_outstanding_seq] All outstanding read transactions finished
# UVM_INFO ../src/seq/axi4_outstanding_seq.sv(117) @ 55285000: uvm_test_top.env.master_agent.sqr@@outstanding_seq [axi4_outstanding_seq] Outstanding sequence complete
# UVM_INFO ../src/test/axi4_outstanding_test.sv(59) @ 56285000: uvm_test_top [axi4_outstanding_test] Outstanding test completed successfully
# UVM_INFO verilog_src/uvm-1.1d/src/base/uvm_objection.svh(1268) @ 56285000: reporter [TEST_DONE] 'run' phase is ready to proceed to the 'extract' phase
# UVM_INFO ../src/env/axi4_scoreboard.sv(218) @ 56285000: uvm_test_top.env.scb [axi4_scoreboard] 
# ========================================
#          SCOREBOARD SUMMARY
# ========================================
#   Master transactions : 30
#   Slave transactions  : 30
#   Matches             : 30
#   Mismatches          : 0
#   Unmatched master WR : 0
#   Unmatched master RD : 0
#   Unmatched slave  WR : 0
#   Unmatched slave  RD : 0
# ========================================
#   RESULT : PASS
# ========================================
# UVM_INFO ../src/test/axi4_base_test.sv(91) @ 56285000: uvm_test_top [axi4_outstanding_test] 
# === TEST PASSED ===
# 
# 
# --- UVM Report Summary ---
# 
# ** Report counts by severity
# UVM_INFO :  463
# UVM_WARNING :    0
# UVM_ERROR :    0
# UVM_FATAL :    0
# ** Report counts by id
# [Questa UVM]     3
# [RNTST]     1
# [TB_TOP]     2
# [TEST_DONE]     1
# [TOP_TB]     1
# [UVMTOP]     1
# [axi4_master_agent]     1
# [axi4_master_driver]    76
# [axi4_master_monitor]    76
# [axi4_outstanding_seq]    64
# [axi4_outstanding_test]     3
# [axi4_scoreboard]    91
# [axi4_slave_agent]     1
# [axi4_slave_driver]    61
# [axi4_slave_monitor]    76
# [axi4_vip_env]     5
# ** Note: $finish    : /cadtools/mentor/Questa_10.6b/questasim/linux_x86_64/../verilog_src/uvm-1.1d/src/base/uvm_root.svh(430)
#    Time: 56285 ns  Iteration: 55  Instance: /tb_top
# Saving coverage database on exit...
# End time: 12:34:11 on Jun 05,2026, Elapsed time: 0:00:42
# Errors: 0, Warnings: 0
