# vsim -c -coverage -sv_seed 89752920 "+UVM_TESTNAME=axi4_wr_rd_test" "+UVM_VERBOSITY=UVM_HIGH" "+DUMP_VCD" -l ./report/logs/axi4_wr_rd_test_run_1_seed_89752920.log -do "coverage save -onexit ./report/coverage/axi4_wr_rd_test_run_1_seed_89752920.ucdb; run -all; quit -f" opt_tb_top 
# Start time: 20:08:59 on Jun 04,2026
# //  Questa Sim-64
# //  Version 10.6b linux_x86_64 May 25 2017
# //
# //  Copyright 1991-2017 Mentor Graphics Corporation
# //  All Rights Reserved.
# //
# //  QuestaSim and its associated documentation contain trade
# //  secrets and commercial or financial information that are the property of
# //  Mentor Graphics Corporation and are privileged, confidential,
# //  and exempt from disclosure under the Freedom of Information Act,
# //  5 U.S.C. Section 552. Furthermore, this information
# //  is prohibited from disclosure under the Trade Secrets Act,
# //  18 U.S.C. Section 1905.
# //
# Loading sv_std.std
# Loading work.axi4_if(fast)
# Loading mtiUvm.uvm_pkg
# Loading work.axi4_pkg(fast)
# Loading work.axi4_test_pkg(fast)
# Loading work.tb_top(fast)
# Loading work.axi4_if(fast)
# Loading work.axi4_sva(fast)
# Loading mtiUvm.questa_uvm_pkg(fast)
# Loading /cadtools/mentor/Questa_10.6b/questasim/uvm-1.1d/linux_x86_64/uvm_dpi.so
# coverage save -onexit ./report/coverage/axi4_wr_rd_test_run_1_seed_89752920.ucdb
#  run -all
# ----------------------------------------------------------------
# UVM-1.1d
# (C) 2007-2013 Mentor Graphics Corporation
# (C) 2007-2013 Cadence Design Systems, Inc.
# (C) 2006-2013 Synopsys, Inc.
# (C) 2011-2013 Cypress Semiconductor Corp.
# ----------------------------------------------------------------
# 
#   ***********       IMPORTANT RELEASE NOTES         ************
# 
#   You are using a version of the UVM library that has been compiled
#   with `UVM_NO_DEPRECATED undefined.
#   See http://www.eda.org/svdb/view.php?id=3313 for more details.
# 
#   You are using a version of the UVM library that has been compiled
#   with `UVM_OBJECT_MUST_HAVE_CONSTRUCTOR undefined.
#   See http://www.eda.org/svdb/view.php?id=3770 for more details.
# 
#       (Specify +UVM_NO_RELNOTES to turn off this notice)
# 
# UVM_INFO verilog_src/questa_uvm_pkg-1.2/src/questa_uvm_pkg.sv(215) @ 0: reporter [Questa UVM] QUESTA_UVM-1.2.3
# UVM_INFO verilog_src/questa_uvm_pkg-1.2/src/questa_uvm_pkg.sv(217) @ 0: reporter [Questa UVM]  questa_uvm::init(+struct)
# UVM_INFO ../src/tb_top.sv(128) @ 0: reporter [TB_TOP] Virtual interface set in config_db
# UVM_INFO @ 0: reporter [RNTST] Running test axi4_wr_rd_test...
# UVM_INFO ../src/tb_top.sv(142) @ 0: reporter [TB_TOP] Waveform VCD dumping enabled (axi4_vip.vcd)
# UVM_INFO ../src/env/axi4_vip_env.sv(83) @ 0: uvm_test_top.env [axi4_vip_env] slave_vif not set - reusing master_vif (passthrough mode)
# UVM_INFO ../src/env/axi4_vip_env.sv(93) @ 0: uvm_test_top.env [axi4_vip_env] Scoreboard created
# UVM_INFO ../src/env/axi4_vip_env.sv(100) @ 0: uvm_test_top.env [axi4_vip_env] Coverage collectors created
# UVM_INFO ../src/mst/axi4_master_agent.sv(69) @ 0: uvm_test_top.env.master_agent [axi4_master_agent] ACTIVE mode - driver + sequencer created
# UVM_INFO ../src/slv/axi4_slave_agent.sv(82) @ 0: uvm_test_top.env.slave_agent [axi4_slave_agent] ACTIVE mode — ready_delay=[0:0] resp_delay=[0:0]
# UVM_INFO ../src/env/axi4_vip_env.sv(116) @ 0: uvm_test_top.env [axi4_vip_env] Scoreboard connected: master_mon.ap -> scb, slave_mon.ap -> scb
# UVM_INFO ../src/env/axi4_vip_env.sv(124) @ 0: uvm_test_top.env [axi4_vip_env] Coverage connected: master_mon.ap -> master_cov, slave_mon.ap -> slave_cov
# UVM_INFO @ 0: reporter [UVMTOP] UVM testbench topology:
# ---------------------------------------------------------------
# Name                       Type                     Size  Value
# ---------------------------------------------------------------
# uvm_test_top               axi4_wr_rd_test          -     @473 
#   env                      axi4_vip_env             -     @488 
#     master_agent           axi4_master_agent        -     @503 
#       drv                  axi4_master_driver       -     @567 
#         rsp_port           uvm_analysis_port        -     @582 
#         seq_item_port      uvm_seq_item_pull_port   -     @574 
#       mon                  axi4_master_monitor      -     @559 
#         ap                 uvm_analysis_port        -     @700 
#       sqr                  axi4_master_sequencer    -     @590 
#         rsp_export         uvm_analysis_export      -     @597 
#         seq_item_export    uvm_seq_item_pull_imp    -     @691 
#         arbitration_queue  array                    0     -    
#         lock_queue         array                    0     -    
#         num_last_reqs      integral                 32    'd1  
#         num_last_rsps      integral                 32    'd1  
#     master_cov             axi4_coverage            -     @524 
#       analysis_imp         uvm_analysis_imp         -     @531 
#     scb                    axi4_scoreboard          -     @517 
#       master_export        uvm_analysis_imp_master  -     @714 
#       slave_export         uvm_analysis_imp_slave   -     @722 
#     slave_agent            axi4_slave_agent         -     @510 
#       drv                  axi4_slave_driver        -     @753 
#         rsp_port           uvm_analysis_port        -     @768 
#         seq_item_port      uvm_seq_item_pull_port   -     @760 
#       mon                  axi4_slave_monitor       -     @735 
#         ap                 uvm_analysis_port        -     @890 
#       sqr                  axi4_slave_sequencer     -     @776 
#         rsp_export         uvm_analysis_export      -     @783 
#         seq_item_export    uvm_seq_item_pull_imp    -     @877 
#         arbitration_queue  array                    0     -    
#         lock_queue         array                    0     -    
#         num_last_reqs      integral                 32    'd1  
#         num_last_rsps      integral                 32    'd1  
#     slave_cov              axi4_coverage            -     @539 
#       analysis_imp         uvm_analysis_imp         -     @546 
# ---------------------------------------------------------------
# 
# UVM_INFO verilog_src/questa_uvm_pkg-1.2/src/questa_uvm_pkg.sv(277) @ 0: reporter [Questa UVM] End Of Elaboration
# UVM_INFO ../src/test/axi4_wr_rd_test.sv(37) @ 0: uvm_test_top [axi4_wr_rd_test] Starting 10 write-read-back iterations
# UVM_INFO ../src/test/axi4_wr_rd_test.sv(52) @ 0: uvm_test_top [axi4_wr_rd_test] [1/10] ADDR=0x1a180675 LEN=13 BURST=AXI4_BURST_INCR
# UVM_INFO ../src/tb_top.sv(49) @ 95000: reporter [TOP_TB] Reset de-asserted
# UVM_INFO ../src/slv/axi4_slave_driver.sv(66) @ 95000: uvm_test_top.env.slave_agent.drv [axi4_slave_driver] Reset deasserted - slave driver active
# UVM_INFO ../src/mst/axi4_master_driver.sv(46) @ 95000: uvm_test_top.env.master_agent.drv [axi4_master_driver] Reset deasserted - master driver active
# UVM_INFO ../src/mst/axi4_master_monitor.sv(77) @ 95000: uvm_test_top.env.master_agent.mon [axi4_master_monitor] Reset deasserted — monitor active
# UVM_INFO ../src/slv/axi4_slave_monitor.sv(71) @ 95000: uvm_test_top.env.slave_agent.mon [axi4_slave_monitor] Reset deasserted — monitor active
# UVM_INFO ../src/mst/axi4_master_driver.sv(55) @ 95000: uvm_test_top.env.master_agent.drv [axi4_master_driver] Driving AXI4_WRITE  ID=0xf  ADDR=0x1a180675  LEN=13
# UVM_INFO ../src/mst/axi4_master_driver.sv(94) @ 95000: uvm_test_top.env.master_agent.drv [axi4_master_driver] Write order: AW || W (parallel)
# UVM_INFO ../src/slv/axi4_slave_driver.sv(159) @ 115000: uvm_test_top.env.slave_agent.drv [axi4_slave_driver] AW received: ID=0xf ADDR=0x1a180675 LEN=13
# UVM_INFO ../src/slv/axi4_slave_monitor.sv(116) @ 115000: uvm_test_top.env.slave_agent.mon [axi4_slave_monitor] AW received: ID=0xf ADDR=0x1a180675 LEN=13
# UVM_INFO ../src/mst/axi4_master_monitor.sv(124) @ 115000: uvm_test_top.env.master_agent.mon [axi4_master_monitor] AW observed: ID=0xf ADDR=0x1a180675 LEN=13
# UVM_INFO ../src/mst/axi4_master_monitor.sv(184) @ 365000: uvm_test_top.env.master_agent.mon [axi4_master_monitor] W data assembled: ID=0xf ADDR=0x1a180675 14 beats
# UVM_INFO ../src/slv/axi4_slave_monitor.sv(167) @ 365000: uvm_test_top.env.slave_agent.mon [axi4_slave_monitor] W data assembled: ID=0xf ADDR=0x1a180675 14 beats
# UVM_INFO ../src/mst/axi4_master_driver.sv(197) @ 395000: uvm_test_top.env.master_agent.drv [axi4_master_driver] Write response: AXI4_RESP_OKAY
# UVM_INFO ../src/slv/axi4_slave_driver.sv(223) @ 395000: uvm_test_top.env.slave_agent.drv [axi4_slave_driver] Write complete: ID=0xf  14 beats stored
# UVM_INFO ../src/slv/axi4_slave_monitor.sv(189) @ 395000: uvm_test_top.env.slave_agent.mon [axi4_slave_monitor] Write response sent: ID=0xf ADDR=0x1a180675 RESP=AXI4_RESP_OKAY
# UVM_INFO ../src/env/axi4_scoreboard.sv(103) @ 395000: uvm_test_top.env.scb [axi4_scoreboard] Slave AXI4_WRITE received: ID=0xf ADDR=0x1a180675 LEN=13
# UVM_INFO ../src/mst/axi4_master_monitor.sv(210) @ 395000: uvm_test_top.env.master_agent.mon [axi4_master_monitor] Write complete: ID=0xf ADDR=0x1a180675 RESP=AXI4_RESP_OKAY
# UVM_INFO ../src/env/axi4_scoreboard.sv(82) @ 395000: uvm_test_top.env.scb [axi4_scoreboard] Master AXI4_WRITE received: ID=0xf ADDR=0x1a180675 LEN=13
# UVM_INFO ../src/env/axi4_scoreboard.sv(154) @ 395000: uvm_test_top.env.scb [axi4_scoreboard] [WRITE] MATCH #1: ID=0xf ADDR=0x1a180675 LEN=13
# UVM_INFO ../src/seq/axi4_write_read_back_seq.sv(60) @ 395000: uvm_test_top.env.master_agent.sqr@@wr_rd_seq_0 [axi4_write_read_back_seq] Write phase: ADDR=0x1a180675 LEN=13 SIZE=AXI4_SIZE_4B BURST=AXI4_BURST_INCR
# UVM_INFO ../src/mst/axi4_master_driver.sv(55) @ 395000: uvm_test_top.env.master_agent.drv [axi4_master_driver] Driving AXI4_READ  ID=0x2  ADDR=0x1a180675  LEN=13
# UVM_INFO ../src/slv/axi4_slave_driver.sv(259) @ 425000: uvm_test_top.env.slave_agent.drv [axi4_slave_driver] AR received: ID=0x2 ADDR=0x1a180675 LEN=13
# UVM_INFO ../src/mst/axi4_master_monitor.sv(246) @ 425000: uvm_test_top.env.master_agent.mon [axi4_master_monitor] AR observed: ID=0x2 ADDR=0x1a180675 LEN=13
# UVM_INFO ../src/slv/axi4_slave_monitor.sv(224) @ 425000: uvm_test_top.env.slave_agent.mon [axi4_slave_monitor] AR received: ID=0x2 ADDR=0x1a180675 LEN=13
# UVM_INFO ../src/mst/axi4_master_driver.sv(254) @ 705000: uvm_test_top.env.master_agent.drv [axi4_master_driver] Read complete: 14 beats received
# UVM_INFO ../src/slv/axi4_slave_driver.sv(293) @ 705000: uvm_test_top.env.slave_agent.drv [axi4_slave_driver] Read complete: ID=0x2  14 beats sent
# UVM_INFO ../src/mst/axi4_master_monitor.sv(314) @ 705000: uvm_test_top.env.master_agent.mon [axi4_master_monitor] Read complete: ID=0x2 ADDR=0x1a180675 14 beats
# UVM_INFO ../src/env/axi4_scoreboard.sv(82) @ 705000: uvm_test_top.env.scb [axi4_scoreboard] Master AXI4_READ received: ID=0x2 ADDR=0x1a180675 LEN=13
# UVM_INFO ../src/slv/axi4_slave_monitor.sv(287) @ 705000: uvm_test_top.env.slave_agent.mon [axi4_slave_monitor] Read data sent: ID=0x2 ADDR=0x1a180675 14 beats
# UVM_INFO ../src/env/axi4_scoreboard.sv(103) @ 705000: uvm_test_top.env.scb [axi4_scoreboard] Slave AXI4_READ received: ID=0x2 ADDR=0x1a180675 LEN=13
# UVM_INFO ../src/env/axi4_scoreboard.sv(154) @ 705000: uvm_test_top.env.scb [axi4_scoreboard] [READ] MATCH #2: ID=0x2 ADDR=0x1a180675 LEN=13
# UVM_INFO ../src/seq/axi4_write_read_back_seq.sv(80) @ 705000: uvm_test_top.env.master_agent.sqr@@wr_rd_seq_0 [axi4_write_read_back_seq] Read-back phase: ADDR=0x1a180675 LEN=13 - data integrity check via scoreboard
# UVM_INFO ../src/test/axi4_wr_rd_test.sv(52) @ 705000: uvm_test_top [axi4_wr_rd_test] [2/10] ADDR=0x3bdd1fa6 LEN=8 BURST=AXI4_BURST_INCR
# UVM_INFO ../src/mst/axi4_master_driver.sv(55) @ 705000: uvm_test_top.env.master_agent.drv [axi4_master_driver] Driving AXI4_WRITE  ID=0x3  ADDR=0x3bdd1fa6  LEN=8
# UVM_INFO ../src/mst/axi4_master_driver.sv(101) @ 705000: uvm_test_top.env.master_agent.drv [axi4_master_driver] Write order: AW -> W (sequential)
# UVM_INFO ../src/slv/axi4_slave_driver.sv(159) @ 735000: uvm_test_top.env.slave_agent.drv [axi4_slave_driver] AW received: ID=0x3 ADDR=0x3bdd1fa6 LEN=8
# UVM_INFO ../src/slv/axi4_slave_monitor.sv(116) @ 735000: uvm_test_top.env.slave_agent.mon [axi4_slave_monitor] AW received: ID=0x3 ADDR=0x3bdd1fa6 LEN=8
# UVM_INFO ../src/mst/axi4_master_monitor.sv(124) @ 735000: uvm_test_top.env.master_agent.mon [axi4_master_monitor] AW observed: ID=0x3 ADDR=0x3bdd1fa6 LEN=8
# UVM_INFO ../src/slv/axi4_slave_monitor.sv(167) @ 915000: uvm_test_top.env.slave_agent.mon [axi4_slave_monitor] W data assembled: ID=0x3 ADDR=0x3bdd1fa6 9 beats
# UVM_INFO ../src/mst/axi4_master_monitor.sv(184) @ 915000: uvm_test_top.env.master_agent.mon [axi4_master_monitor] W data assembled: ID=0x3 ADDR=0x3bdd1fa6 9 beats
# UVM_INFO ../src/mst/axi4_master_driver.sv(197) @ 945000: uvm_test_top.env.master_agent.drv [axi4_master_driver] Write response: AXI4_RESP_OKAY
# UVM_INFO ../src/slv/axi4_slave_driver.sv(223) @ 945000: uvm_test_top.env.slave_agent.drv [axi4_slave_driver] Write complete: ID=0x3  9 beats stored
# UVM_INFO ../src/mst/axi4_master_monitor.sv(210) @ 945000: uvm_test_top.env.master_agent.mon [axi4_master_monitor] Write complete: ID=0x3 ADDR=0x3bdd1fa6 RESP=AXI4_RESP_OKAY
# UVM_INFO ../src/env/axi4_scoreboard.sv(82) @ 945000: uvm_test_top.env.scb [axi4_scoreboard] Master AXI4_WRITE received: ID=0x3 ADDR=0x3bdd1fa6 LEN=8
# UVM_INFO ../src/slv/axi4_slave_monitor.sv(189) @ 945000: uvm_test_top.env.slave_agent.mon [axi4_slave_monitor] Write response sent: ID=0x3 ADDR=0x3bdd1fa6 RESP=AXI4_RESP_OKAY
# UVM_INFO ../src/env/axi4_scoreboard.sv(103) @ 945000: uvm_test_top.env.scb [axi4_scoreboard] Slave AXI4_WRITE received: ID=0x3 ADDR=0x3bdd1fa6 LEN=8
# UVM_INFO ../src/env/axi4_scoreboard.sv(154) @ 945000: uvm_test_top.env.scb [axi4_scoreboard] [WRITE] MATCH #3: ID=0x3 ADDR=0x3bdd1fa6 LEN=8
# UVM_INFO ../src/seq/axi4_write_read_back_seq.sv(60) @ 945000: uvm_test_top.env.master_agent.sqr@@wr_rd_seq_1 [axi4_write_read_back_seq] Write phase: ADDR=0x3bdd1fa6 LEN=8 SIZE=AXI4_SIZE_4B BURST=AXI4_BURST_INCR
# UVM_INFO ../src/mst/axi4_master_driver.sv(55) @ 945000: uvm_test_top.env.master_agent.drv [axi4_master_driver] Driving AXI4_READ  ID=0x0  ADDR=0x3bdd1fa6  LEN=8
# UVM_INFO ../src/slv/axi4_slave_driver.sv(259) @ 975000: uvm_test_top.env.slave_agent.drv [axi4_slave_driver] AR received: ID=0x0 ADDR=0x3bdd1fa6 LEN=8
# UVM_INFO ../src/slv/axi4_slave_monitor.sv(224) @ 975000: uvm_test_top.env.slave_agent.mon [axi4_slave_monitor] AR received: ID=0x0 ADDR=0x3bdd1fa6 LEN=8
# UVM_INFO ../src/mst/axi4_master_monitor.sv(246) @ 975000: uvm_test_top.env.master_agent.mon [axi4_master_monitor] AR observed: ID=0x0 ADDR=0x3bdd1fa6 LEN=8
# UVM_INFO ../src/mst/axi4_master_driver.sv(254) @ 1155000: uvm_test_top.env.master_agent.drv [axi4_master_driver] Read complete: 9 beats received
# UVM_INFO ../src/slv/axi4_slave_driver.sv(293) @ 1155000: uvm_test_top.env.slave_agent.drv [axi4_slave_driver] Read complete: ID=0x0  9 beats sent
# UVM_INFO ../src/slv/axi4_slave_monitor.sv(287) @ 1155000: uvm_test_top.env.slave_agent.mon [axi4_slave_monitor] Read data sent: ID=0x0 ADDR=0x3bdd1fa6 9 beats
# UVM_INFO ../src/env/axi4_scoreboard.sv(103) @ 1155000: uvm_test_top.env.scb [axi4_scoreboard] Slave AXI4_READ received: ID=0x0 ADDR=0x3bdd1fa6 LEN=8
# UVM_INFO ../src/mst/axi4_master_monitor.sv(314) @ 1155000: uvm_test_top.env.master_agent.mon [axi4_master_monitor] Read complete: ID=0x0 ADDR=0x3bdd1fa6 9 beats
# UVM_INFO ../src/env/axi4_scoreboard.sv(82) @ 1155000: uvm_test_top.env.scb [axi4_scoreboard] Master AXI4_READ received: ID=0x0 ADDR=0x3bdd1fa6 LEN=8
# UVM_INFO ../src/env/axi4_scoreboard.sv(154) @ 1155000: uvm_test_top.env.scb [axi4_scoreboard] [READ] MATCH #4: ID=0x0 ADDR=0x3bdd1fa6 LEN=8
# UVM_INFO ../src/seq/axi4_write_read_back_seq.sv(80) @ 1155000: uvm_test_top.env.master_agent.sqr@@wr_rd_seq_1 [axi4_write_read_back_seq] Read-back phase: ADDR=0x3bdd1fa6 LEN=8 - data integrity check via scoreboard
# UVM_INFO ../src/test/axi4_wr_rd_test.sv(52) @ 1155000: uvm_test_top [axi4_wr_rd_test] [3/10] ADDR=0x68ea2b7f LEN=14 BURST=AXI4_BURST_INCR
# UVM_INFO ../src/mst/axi4_master_driver.sv(55) @ 1155000: uvm_test_top.env.master_agent.drv [axi4_master_driver] Driving AXI4_WRITE  ID=0x0  ADDR=0x68ea2b7f  LEN=14
# UVM_INFO ../src/mst/axi4_master_driver.sv(94) @ 1155000: uvm_test_top.env.master_agent.drv [axi4_master_driver] Write order: AW || W (parallel)
# UVM_INFO ../src/slv/axi4_slave_driver.sv(159) @ 1185000: uvm_test_top.env.slave_agent.drv [axi4_slave_driver] AW received: ID=0x0 ADDR=0x68ea2b7f LEN=14
# UVM_INFO ../src/mst/axi4_master_monitor.sv(124) @ 1185000: uvm_test_top.env.master_agent.mon [axi4_master_monitor] AW observed: ID=0x0 ADDR=0x68ea2b7f LEN=14
# UVM_INFO ../src/slv/axi4_slave_monitor.sv(116) @ 1185000: uvm_test_top.env.slave_agent.mon [axi4_slave_monitor] AW received: ID=0x0 ADDR=0x68ea2b7f LEN=14
# UVM_INFO ../src/slv/axi4_slave_monitor.sv(167) @ 1455000: uvm_test_top.env.slave_agent.mon [axi4_slave_monitor] W data assembled: ID=0x0 ADDR=0x68ea2b7f 15 beats
# UVM_INFO ../src/mst/axi4_master_monitor.sv(184) @ 1455000: uvm_test_top.env.master_agent.mon [axi4_master_monitor] W data assembled: ID=0x0 ADDR=0x68ea2b7f 15 beats
# UVM_INFO ../src/mst/axi4_master_driver.sv(197) @ 1485000: uvm_test_top.env.master_agent.drv [axi4_master_driver] Write response: AXI4_RESP_OKAY
# UVM_INFO ../src/slv/axi4_slave_driver.sv(223) @ 1485000: uvm_test_top.env.slave_agent.drv [axi4_slave_driver] Write complete: ID=0x0  15 beats stored
# UVM_INFO ../src/mst/axi4_master_monitor.sv(210) @ 1485000: uvm_test_top.env.master_agent.mon [axi4_master_monitor] Write complete: ID=0x0 ADDR=0x68ea2b7f RESP=AXI4_RESP_OKAY
# UVM_INFO ../src/env/axi4_scoreboard.sv(82) @ 1485000: uvm_test_top.env.scb [axi4_scoreboard] Master AXI4_WRITE received: ID=0x0 ADDR=0x68ea2b7f LEN=14
# UVM_INFO ../src/slv/axi4_slave_monitor.sv(189) @ 1485000: uvm_test_top.env.slave_agent.mon [axi4_slave_monitor] Write response sent: ID=0x0 ADDR=0x68ea2b7f RESP=AXI4_RESP_OKAY
# UVM_INFO ../src/env/axi4_scoreboard.sv(103) @ 1485000: uvm_test_top.env.scb [axi4_scoreboard] Slave AXI4_WRITE received: ID=0x0 ADDR=0x68ea2b7f LEN=14
# UVM_INFO ../src/env/axi4_scoreboard.sv(154) @ 1485000: uvm_test_top.env.scb [axi4_scoreboard] [WRITE] MATCH #5: ID=0x0 ADDR=0x68ea2b7f LEN=14
# UVM_INFO ../src/seq/axi4_write_read_back_seq.sv(60) @ 1485000: uvm_test_top.env.master_agent.sqr@@wr_rd_seq_2 [axi4_write_read_back_seq] Write phase: ADDR=0x68ea2b7f LEN=14 SIZE=AXI4_SIZE_4B BURST=AXI4_BURST_INCR
# UVM_INFO ../src/mst/axi4_master_driver.sv(55) @ 1485000: uvm_test_top.env.master_agent.drv [axi4_master_driver] Driving AXI4_READ  ID=0xe  ADDR=0x68ea2b7f  LEN=14
# UVM_INFO ../src/slv/axi4_slave_driver.sv(259) @ 1515000: uvm_test_top.env.slave_agent.drv [axi4_slave_driver] AR received: ID=0xe ADDR=0x68ea2b7f LEN=14
# UVM_INFO ../src/slv/axi4_slave_monitor.sv(224) @ 1515000: uvm_test_top.env.slave_agent.mon [axi4_slave_monitor] AR received: ID=0xe ADDR=0x68ea2b7f LEN=14
# UVM_INFO ../src/mst/axi4_master_monitor.sv(246) @ 1515000: uvm_test_top.env.master_agent.mon [axi4_master_monitor] AR observed: ID=0xe ADDR=0x68ea2b7f LEN=14
# UVM_INFO ../src/mst/axi4_master_driver.sv(254) @ 1815000: uvm_test_top.env.master_agent.drv [axi4_master_driver] Read complete: 15 beats received
# UVM_INFO ../src/slv/axi4_slave_driver.sv(293) @ 1815000: uvm_test_top.env.slave_agent.drv [axi4_slave_driver] Read complete: ID=0xe  15 beats sent
# UVM_INFO ../src/slv/axi4_slave_monitor.sv(287) @ 1815000: uvm_test_top.env.slave_agent.mon [axi4_slave_monitor] Read data sent: ID=0xe ADDR=0x68ea2b7f 15 beats
# UVM_INFO ../src/env/axi4_scoreboard.sv(103) @ 1815000: uvm_test_top.env.scb [axi4_scoreboard] Slave AXI4_READ received: ID=0xe ADDR=0x68ea2b7f LEN=14
# UVM_INFO ../src/mst/axi4_master_monitor.sv(314) @ 1815000: uvm_test_top.env.master_agent.mon [axi4_master_monitor] Read complete: ID=0xe ADDR=0x68ea2b7f 15 beats
# UVM_INFO ../src/env/axi4_scoreboard.sv(82) @ 1815000: uvm_test_top.env.scb [axi4_scoreboard] Master AXI4_READ received: ID=0xe ADDR=0x68ea2b7f LEN=14
# UVM_INFO ../src/env/axi4_scoreboard.sv(154) @ 1815000: uvm_test_top.env.scb [axi4_scoreboard] [READ] MATCH #6: ID=0xe ADDR=0x68ea2b7f LEN=14
# UVM_INFO ../src/seq/axi4_write_read_back_seq.sv(80) @ 1815000: uvm_test_top.env.master_agent.sqr@@wr_rd_seq_2 [axi4_write_read_back_seq] Read-back phase: ADDR=0x68ea2b7f LEN=14 - data integrity check via scoreboard
# UVM_INFO ../src/test/axi4_wr_rd_test.sv(52) @ 1815000: uvm_test_top [axi4_wr_rd_test] [4/10] ADDR=0x903f05b8 LEN=11 BURST=AXI4_BURST_INCR
# UVM_INFO ../src/mst/axi4_master_driver.sv(55) @ 1815000: uvm_test_top.env.master_agent.drv [axi4_master_driver] Driving AXI4_WRITE  ID=0xe  ADDR=0x903f05b8  LEN=11
# UVM_INFO ../src/mst/axi4_master_driver.sv(101) @ 1815000: uvm_test_top.env.master_agent.drv [axi4_master_driver] Write order: AW -> W (sequential)
# UVM_INFO ../src/slv/axi4_slave_driver.sv(159) @ 1845000: uvm_test_top.env.slave_agent.drv [axi4_slave_driver] AW received: ID=0xe ADDR=0x903f05b8 LEN=11
# UVM_INFO ../src/mst/axi4_master_monitor.sv(124) @ 1845000: uvm_test_top.env.master_agent.mon [axi4_master_monitor] AW observed: ID=0xe ADDR=0x903f05b8 LEN=11
# UVM_INFO ../src/slv/axi4_slave_monitor.sv(116) @ 1845000: uvm_test_top.env.slave_agent.mon [axi4_slave_monitor] AW received: ID=0xe ADDR=0x903f05b8 LEN=11
# UVM_INFO ../src/mst/axi4_master_monitor.sv(184) @ 2085000: uvm_test_top.env.master_agent.mon [axi4_master_monitor] W data assembled: ID=0xe ADDR=0x903f05b8 12 beats
# UVM_INFO ../src/slv/axi4_slave_monitor.sv(167) @ 2085000: uvm_test_top.env.slave_agent.mon [axi4_slave_monitor] W data assembled: ID=0xe ADDR=0x903f05b8 12 beats
# UVM_INFO ../src/mst/axi4_master_driver.sv(197) @ 2115000: uvm_test_top.env.master_agent.drv [axi4_master_driver] Write response: AXI4_RESP_OKAY
# UVM_INFO ../src/slv/axi4_slave_driver.sv(223) @ 2115000: uvm_test_top.env.slave_agent.drv [axi4_slave_driver] Write complete: ID=0xe  12 beats stored
# UVM_INFO ../src/slv/axi4_slave_monitor.sv(189) @ 2115000: uvm_test_top.env.slave_agent.mon [axi4_slave_monitor] Write response sent: ID=0xe ADDR=0x903f05b8 RESP=AXI4_RESP_OKAY
# UVM_INFO ../src/env/axi4_scoreboard.sv(103) @ 2115000: uvm_test_top.env.scb [axi4_scoreboard] Slave AXI4_WRITE received: ID=0xe ADDR=0x903f05b8 LEN=11
# UVM_INFO ../src/mst/axi4_master_monitor.sv(210) @ 2115000: uvm_test_top.env.master_agent.mon [axi4_master_monitor] Write complete: ID=0xe ADDR=0x903f05b8 RESP=AXI4_RESP_OKAY
# UVM_INFO ../src/env/axi4_scoreboard.sv(82) @ 2115000: uvm_test_top.env.scb [axi4_scoreboard] Master AXI4_WRITE received: ID=0xe ADDR=0x903f05b8 LEN=11
# UVM_INFO ../src/env/axi4_scoreboard.sv(154) @ 2115000: uvm_test_top.env.scb [axi4_scoreboard] [WRITE] MATCH #7: ID=0xe ADDR=0x903f05b8 LEN=11
# UVM_INFO ../src/seq/axi4_write_read_back_seq.sv(60) @ 2115000: uvm_test_top.env.master_agent.sqr@@wr_rd_seq_3 [axi4_write_read_back_seq] Write phase: ADDR=0x903f05b8 LEN=11 SIZE=AXI4_SIZE_4B BURST=AXI4_BURST_INCR
# UVM_INFO ../src/mst/axi4_master_driver.sv(55) @ 2115000: uvm_test_top.env.master_agent.drv [axi4_master_driver] Driving AXI4_READ  ID=0xf  ADDR=0x903f05b8  LEN=11
# UVM_INFO ../src/slv/axi4_slave_driver.sv(259) @ 2145000: uvm_test_top.env.slave_agent.drv [axi4_slave_driver] AR received: ID=0xf ADDR=0x903f05b8 LEN=11
# UVM_INFO ../src/mst/axi4_master_monitor.sv(246) @ 2145000: uvm_test_top.env.master_agent.mon [axi4_master_monitor] AR observed: ID=0xf ADDR=0x903f05b8 LEN=11
# UVM_INFO ../src/slv/axi4_slave_monitor.sv(224) @ 2145000: uvm_test_top.env.slave_agent.mon [axi4_slave_monitor] AR received: ID=0xf ADDR=0x903f05b8 LEN=11
# UVM_INFO ../src/mst/axi4_master_driver.sv(254) @ 2385000: uvm_test_top.env.master_agent.drv [axi4_master_driver] Read complete: 12 beats received
# UVM_INFO ../src/slv/axi4_slave_driver.sv(293) @ 2385000: uvm_test_top.env.slave_agent.drv [axi4_slave_driver] Read complete: ID=0xf  12 beats sent
# UVM_INFO ../src/mst/axi4_master_monitor.sv(314) @ 2385000: uvm_test_top.env.master_agent.mon [axi4_master_monitor] Read complete: ID=0xf ADDR=0x903f05b8 12 beats
# UVM_INFO ../src/env/axi4_scoreboard.sv(82) @ 2385000: uvm_test_top.env.scb [axi4_scoreboard] Master AXI4_READ received: ID=0xf ADDR=0x903f05b8 LEN=11
# UVM_INFO ../src/slv/axi4_slave_monitor.sv(287) @ 2385000: uvm_test_top.env.slave_agent.mon [axi4_slave_monitor] Read data sent: ID=0xf ADDR=0x903f05b8 12 beats
# UVM_INFO ../src/env/axi4_scoreboard.sv(103) @ 2385000: uvm_test_top.env.scb [axi4_scoreboard] Slave AXI4_READ received: ID=0xf ADDR=0x903f05b8 LEN=11
# UVM_INFO ../src/env/axi4_scoreboard.sv(154) @ 2385000: uvm_test_top.env.scb [axi4_scoreboard] [READ] MATCH #8: ID=0xf ADDR=0x903f05b8 LEN=11
# UVM_INFO ../src/seq/axi4_write_read_back_seq.sv(80) @ 2385000: uvm_test_top.env.master_agent.sqr@@wr_rd_seq_3 [axi4_write_read_back_seq] Read-back phase: ADDR=0x903f05b8 LEN=11 - data integrity check via scoreboard
# UVM_INFO ../src/test/axi4_wr_rd_test.sv(52) @ 2385000: uvm_test_top [axi4_wr_rd_test] [5/10] ADDR=0xc0ad875d LEN=5 BURST=AXI4_BURST_INCR
# UVM_INFO ../src/mst/axi4_master_driver.sv(55) @ 2385000: uvm_test_top.env.master_agent.drv [axi4_master_driver] Driving AXI4_WRITE  ID=0x6  ADDR=0xc0ad875d  LEN=5
# UVM_INFO ../src/mst/axi4_master_driver.sv(94) @ 2385000: uvm_test_top.env.master_agent.drv [axi4_master_driver] Write order: AW || W (parallel)
# UVM_INFO ../src/slv/axi4_slave_driver.sv(159) @ 2415000: uvm_test_top.env.slave_agent.drv [axi4_slave_driver] AW received: ID=0x6 ADDR=0xc0ad875d LEN=5
# UVM_INFO ../src/slv/axi4_slave_monitor.sv(116) @ 2415000: uvm_test_top.env.slave_agent.mon [axi4_slave_monitor] AW received: ID=0x6 ADDR=0xc0ad875d LEN=5
# UVM_INFO ../src/mst/axi4_master_monitor.sv(124) @ 2415000: uvm_test_top.env.master_agent.mon [axi4_master_monitor] AW observed: ID=0x6 ADDR=0xc0ad875d LEN=5
# UVM_INFO ../src/mst/axi4_master_monitor.sv(184) @ 2505000: uvm_test_top.env.master_agent.mon [axi4_master_monitor] W data assembled: ID=0x6 ADDR=0xc0ad875d 6 beats
# UVM_INFO ../src/slv/axi4_slave_monitor.sv(167) @ 2505000: uvm_test_top.env.slave_agent.mon [axi4_slave_monitor] W data assembled: ID=0x6 ADDR=0xc0ad875d 6 beats
# UVM_INFO ../src/mst/axi4_master_driver.sv(197) @ 2535000: uvm_test_top.env.master_agent.drv [axi4_master_driver] Write response: AXI4_RESP_OKAY
# UVM_INFO ../src/slv/axi4_slave_driver.sv(223) @ 2535000: uvm_test_top.env.slave_agent.drv [axi4_slave_driver] Write complete: ID=0x6  6 beats stored
# UVM_INFO ../src/slv/axi4_slave_monitor.sv(189) @ 2535000: uvm_test_top.env.slave_agent.mon [axi4_slave_monitor] Write response sent: ID=0x6 ADDR=0xc0ad875d RESP=AXI4_RESP_OKAY
# UVM_INFO ../src/env/axi4_scoreboard.sv(103) @ 2535000: uvm_test_top.env.scb [axi4_scoreboard] Slave AXI4_WRITE received: ID=0x6 ADDR=0xc0ad875d LEN=5
# UVM_INFO ../src/mst/axi4_master_monitor.sv(210) @ 2535000: uvm_test_top.env.master_agent.mon [axi4_master_monitor] Write complete: ID=0x6 ADDR=0xc0ad875d RESP=AXI4_RESP_OKAY
# UVM_INFO ../src/env/axi4_scoreboard.sv(82) @ 2535000: uvm_test_top.env.scb [axi4_scoreboard] Master AXI4_WRITE received: ID=0x6 ADDR=0xc0ad875d LEN=5
# UVM_INFO ../src/env/axi4_scoreboard.sv(154) @ 2535000: uvm_test_top.env.scb [axi4_scoreboard] [WRITE] MATCH #9: ID=0x6 ADDR=0xc0ad875d LEN=5
# UVM_INFO ../src/seq/axi4_write_read_back_seq.sv(60) @ 2535000: uvm_test_top.env.master_agent.sqr@@wr_rd_seq_4 [axi4_write_read_back_seq] Write phase: ADDR=0xc0ad875d LEN=5 SIZE=AXI4_SIZE_4B BURST=AXI4_BURST_INCR
# UVM_INFO ../src/mst/axi4_master_driver.sv(55) @ 2535000: uvm_test_top.env.master_agent.drv [axi4_master_driver] Driving AXI4_READ  ID=0xd  ADDR=0xc0ad875d  LEN=5
# UVM_INFO ../src/slv/axi4_slave_driver.sv(259) @ 2565000: uvm_test_top.env.slave_agent.drv [axi4_slave_driver] AR received: ID=0xd ADDR=0xc0ad875d LEN=5
# UVM_INFO ../src/mst/axi4_master_monitor.sv(246) @ 2565000: uvm_test_top.env.master_agent.mon [axi4_master_monitor] AR observed: ID=0xd ADDR=0xc0ad875d LEN=5
# UVM_INFO ../src/slv/axi4_slave_monitor.sv(224) @ 2565000: uvm_test_top.env.slave_agent.mon [axi4_slave_monitor] AR received: ID=0xd ADDR=0xc0ad875d LEN=5
# UVM_INFO ../src/mst/axi4_master_driver.sv(254) @ 2685000: uvm_test_top.env.master_agent.drv [axi4_master_driver] Read complete: 6 beats received
# UVM_INFO ../src/slv/axi4_slave_driver.sv(293) @ 2685000: uvm_test_top.env.slave_agent.drv [axi4_slave_driver] Read complete: ID=0xd  6 beats sent
# UVM_INFO ../src/mst/axi4_master_monitor.sv(314) @ 2685000: uvm_test_top.env.master_agent.mon [axi4_master_monitor] Read complete: ID=0xd ADDR=0xc0ad875d 6 beats
# UVM_INFO ../src/env/axi4_scoreboard.sv(82) @ 2685000: uvm_test_top.env.scb [axi4_scoreboard] Master AXI4_READ received: ID=0xd ADDR=0xc0ad875d LEN=5
# UVM_INFO ../src/slv/axi4_slave_monitor.sv(287) @ 2685000: uvm_test_top.env.slave_agent.mon [axi4_slave_monitor] Read data sent: ID=0xd ADDR=0xc0ad875d 6 beats
# UVM_INFO ../src/env/axi4_scoreboard.sv(103) @ 2685000: uvm_test_top.env.scb [axi4_scoreboard] Slave AXI4_READ received: ID=0xd ADDR=0xc0ad875d LEN=5
# UVM_INFO ../src/env/axi4_scoreboard.sv(154) @ 2685000: uvm_test_top.env.scb [axi4_scoreboard] [READ] MATCH #10: ID=0xd ADDR=0xc0ad875d LEN=5
# UVM_INFO ../src/seq/axi4_write_read_back_seq.sv(80) @ 2685000: uvm_test_top.env.master_agent.sqr@@wr_rd_seq_4 [axi4_write_read_back_seq] Read-back phase: ADDR=0xc0ad875d LEN=5 - data integrity check via scoreboard
# UVM_INFO ../src/test/axi4_wr_rd_test.sv(52) @ 2685000: uvm_test_top [axi4_wr_rd_test] [6/10] ADDR=0x76a2a377 LEN=8 BURST=AXI4_BURST_INCR
# UVM_INFO ../src/mst/axi4_master_driver.sv(55) @ 2685000: uvm_test_top.env.master_agent.drv [axi4_master_driver] Driving AXI4_WRITE  ID=0xe  ADDR=0x76a2a377  LEN=8
# UVM_INFO ../src/mst/axi4_master_driver.sv(101) @ 2685000: uvm_test_top.env.master_agent.drv [axi4_master_driver] Write order: AW -> W (sequential)
# UVM_INFO ../src/slv/axi4_slave_driver.sv(159) @ 2715000: uvm_test_top.env.slave_agent.drv [axi4_slave_driver] AW received: ID=0xe ADDR=0x76a2a377 LEN=8
# UVM_INFO ../src/slv/axi4_slave_monitor.sv(116) @ 2715000: uvm_test_top.env.slave_agent.mon [axi4_slave_monitor] AW received: ID=0xe ADDR=0x76a2a377 LEN=8
# UVM_INFO ../src/mst/axi4_master_monitor.sv(124) @ 2715000: uvm_test_top.env.master_agent.mon [axi4_master_monitor] AW observed: ID=0xe ADDR=0x76a2a377 LEN=8
# UVM_INFO ../src/slv/axi4_slave_monitor.sv(167) @ 2895000: uvm_test_top.env.slave_agent.mon [axi4_slave_monitor] W data assembled: ID=0xe ADDR=0x76a2a377 9 beats
# UVM_INFO ../src/mst/axi4_master_monitor.sv(184) @ 2895000: uvm_test_top.env.master_agent.mon [axi4_master_monitor] W data assembled: ID=0xe ADDR=0x76a2a377 9 beats
# UVM_INFO ../src/mst/axi4_master_driver.sv(197) @ 2925000: uvm_test_top.env.master_agent.drv [axi4_master_driver] Write response: AXI4_RESP_OKAY
# UVM_INFO ../src/slv/axi4_slave_driver.sv(223) @ 2925000: uvm_test_top.env.slave_agent.drv [axi4_slave_driver] Write complete: ID=0xe  9 beats stored
# UVM_INFO ../src/mst/axi4_master_monitor.sv(210) @ 2925000: uvm_test_top.env.master_agent.mon [axi4_master_monitor] Write complete: ID=0xe ADDR=0x76a2a377 RESP=AXI4_RESP_OKAY
# UVM_INFO ../src/env/axi4_scoreboard.sv(82) @ 2925000: uvm_test_top.env.scb [axi4_scoreboard] Master AXI4_WRITE received: ID=0xe ADDR=0x76a2a377 LEN=8
# UVM_INFO ../src/slv/axi4_slave_monitor.sv(189) @ 2925000: uvm_test_top.env.slave_agent.mon [axi4_slave_monitor] Write response sent: ID=0xe ADDR=0x76a2a377 RESP=AXI4_RESP_OKAY
# UVM_INFO ../src/env/axi4_scoreboard.sv(103) @ 2925000: uvm_test_top.env.scb [axi4_scoreboard] Slave AXI4_WRITE received: ID=0xe ADDR=0x76a2a377 LEN=8
# UVM_INFO ../src/env/axi4_scoreboard.sv(154) @ 2925000: uvm_test_top.env.scb [axi4_scoreboard] [WRITE] MATCH #11: ID=0xe ADDR=0x76a2a377 LEN=8
# UVM_INFO ../src/seq/axi4_write_read_back_seq.sv(60) @ 2925000: uvm_test_top.env.master_agent.sqr@@wr_rd_seq_5 [axi4_write_read_back_seq] Write phase: ADDR=0x76a2a377 LEN=8 SIZE=AXI4_SIZE_4B BURST=AXI4_BURST_INCR
# UVM_INFO ../src/mst/axi4_master_driver.sv(55) @ 2925000: uvm_test_top.env.master_agent.drv [axi4_master_driver] Driving AXI4_READ  ID=0xb  ADDR=0x76a2a377  LEN=8
# UVM_INFO ../src/slv/axi4_slave_driver.sv(259) @ 2955000: uvm_test_top.env.slave_agent.drv [axi4_slave_driver] AR received: ID=0xb ADDR=0x76a2a377 LEN=8
# UVM_INFO ../src/slv/axi4_slave_monitor.sv(224) @ 2955000: uvm_test_top.env.slave_agent.mon [axi4_slave_monitor] AR received: ID=0xb ADDR=0x76a2a377 LEN=8
# UVM_INFO ../src/mst/axi4_master_monitor.sv(246) @ 2955000: uvm_test_top.env.master_agent.mon [axi4_master_monitor] AR observed: ID=0xb ADDR=0x76a2a377 LEN=8
# UVM_INFO ../src/mst/axi4_master_driver.sv(254) @ 3135000: uvm_test_top.env.master_agent.drv [axi4_master_driver] Read complete: 9 beats received
# UVM_INFO ../src/slv/axi4_slave_driver.sv(293) @ 3135000: uvm_test_top.env.slave_agent.drv [axi4_slave_driver] Read complete: ID=0xb  9 beats sent
# UVM_INFO ../src/slv/axi4_slave_monitor.sv(287) @ 3135000: uvm_test_top.env.slave_agent.mon [axi4_slave_monitor] Read data sent: ID=0xb ADDR=0x76a2a377 9 beats
# UVM_INFO ../src/env/axi4_scoreboard.sv(103) @ 3135000: uvm_test_top.env.scb [axi4_scoreboard] Slave AXI4_READ received: ID=0xb ADDR=0x76a2a377 LEN=8
# UVM_INFO ../src/mst/axi4_master_monitor.sv(314) @ 3135000: uvm_test_top.env.master_agent.mon [axi4_master_monitor] Read complete: ID=0xb ADDR=0x76a2a377 9 beats
# UVM_INFO ../src/env/axi4_scoreboard.sv(82) @ 3135000: uvm_test_top.env.scb [axi4_scoreboard] Master AXI4_READ received: ID=0xb ADDR=0x76a2a377 LEN=8
# UVM_INFO ../src/env/axi4_scoreboard.sv(154) @ 3135000: uvm_test_top.env.scb [axi4_scoreboard] [READ] MATCH #12: ID=0xb ADDR=0x76a2a377 LEN=8
# UVM_INFO ../src/seq/axi4_write_read_back_seq.sv(80) @ 3135000: uvm_test_top.env.master_agent.sqr@@wr_rd_seq_5 [axi4_write_read_back_seq] Read-back phase: ADDR=0x76a2a377 LEN=8 - data integrity check via scoreboard
# UVM_INFO ../src/test/axi4_wr_rd_test.sv(52) @ 3135000: uvm_test_top [axi4_wr_rd_test] [7/10] ADDR=0x54d09e9a LEN=10 BURST=AXI4_BURST_INCR
# UVM_INFO ../src/mst/axi4_master_driver.sv(55) @ 3135000: uvm_test_top.env.master_agent.drv [axi4_master_driver] Driving AXI4_WRITE  ID=0x3  ADDR=0x54d09e9a  LEN=10
# UVM_INFO ../src/mst/axi4_master_driver.sv(94) @ 3135000: uvm_test_top.env.master_agent.drv [axi4_master_driver] Write order: AW || W (parallel)
# UVM_INFO ../src/slv/axi4_slave_driver.sv(159) @ 3165000: uvm_test_top.env.slave_agent.drv [axi4_slave_driver] AW received: ID=0x3 ADDR=0x54d09e9a LEN=10
# UVM_INFO ../src/mst/axi4_master_monitor.sv(124) @ 3165000: uvm_test_top.env.master_agent.mon [axi4_master_monitor] AW observed: ID=0x3 ADDR=0x54d09e9a LEN=10
# UVM_INFO ../src/slv/axi4_slave_monitor.sv(116) @ 3165000: uvm_test_top.env.slave_agent.mon [axi4_slave_monitor] AW received: ID=0x3 ADDR=0x54d09e9a LEN=10
# UVM_INFO ../src/slv/axi4_slave_monitor.sv(167) @ 3355000: uvm_test_top.env.slave_agent.mon [axi4_slave_monitor] W data assembled: ID=0x3 ADDR=0x54d09e9a 11 beats
# UVM_INFO ../src/mst/axi4_master_monitor.sv(184) @ 3355000: uvm_test_top.env.master_agent.mon [axi4_master_monitor] W data assembled: ID=0x3 ADDR=0x54d09e9a 11 beats
# UVM_INFO ../src/mst/axi4_master_driver.sv(197) @ 3385000: uvm_test_top.env.master_agent.drv [axi4_master_driver] Write response: AXI4_RESP_OKAY
# UVM_INFO ../src/slv/axi4_slave_driver.sv(223) @ 3385000: uvm_test_top.env.slave_agent.drv [axi4_slave_driver] Write complete: ID=0x3  11 beats stored
# UVM_INFO ../src/mst/axi4_master_monitor.sv(210) @ 3385000: uvm_test_top.env.master_agent.mon [axi4_master_monitor] Write complete: ID=0x3 ADDR=0x54d09e9a RESP=AXI4_RESP_OKAY
# UVM_INFO ../src/env/axi4_scoreboard.sv(82) @ 3385000: uvm_test_top.env.scb [axi4_scoreboard] Master AXI4_WRITE received: ID=0x3 ADDR=0x54d09e9a LEN=10
# UVM_INFO ../src/slv/axi4_slave_monitor.sv(189) @ 3385000: uvm_test_top.env.slave_agent.mon [axi4_slave_monitor] Write response sent: ID=0x3 ADDR=0x54d09e9a RESP=AXI4_RESP_OKAY
# UVM_INFO ../src/env/axi4_scoreboard.sv(103) @ 3385000: uvm_test_top.env.scb [axi4_scoreboard] Slave AXI4_WRITE received: ID=0x3 ADDR=0x54d09e9a LEN=10
# UVM_INFO ../src/env/axi4_scoreboard.sv(154) @ 3385000: uvm_test_top.env.scb [axi4_scoreboard] [WRITE] MATCH #13: ID=0x3 ADDR=0x54d09e9a LEN=10
# UVM_INFO ../src/seq/axi4_write_read_back_seq.sv(60) @ 3385000: uvm_test_top.env.master_agent.sqr@@wr_rd_seq_6 [axi4_write_read_back_seq] Write phase: ADDR=0x54d09e9a LEN=10 SIZE=AXI4_SIZE_4B BURST=AXI4_BURST_INCR
# UVM_INFO ../src/mst/axi4_master_driver.sv(55) @ 3385000: uvm_test_top.env.master_agent.drv [axi4_master_driver] Driving AXI4_READ  ID=0xf  ADDR=0x54d09e9a  LEN=10
# UVM_INFO ../src/slv/axi4_slave_driver.sv(259) @ 3415000: uvm_test_top.env.slave_agent.drv [axi4_slave_driver] AR received: ID=0xf ADDR=0x54d09e9a LEN=10
# UVM_INFO ../src/slv/axi4_slave_monitor.sv(224) @ 3415000: uvm_test_top.env.slave_agent.mon [axi4_slave_monitor] AR received: ID=0xf ADDR=0x54d09e9a LEN=10
# UVM_INFO ../src/mst/axi4_master_monitor.sv(246) @ 3415000: uvm_test_top.env.master_agent.mon [axi4_master_monitor] AR observed: ID=0xf ADDR=0x54d09e9a LEN=10
# UVM_INFO ../src/mst/axi4_master_driver.sv(254) @ 3635000: uvm_test_top.env.master_agent.drv [axi4_master_driver] Read complete: 11 beats received
# UVM_INFO ../src/slv/axi4_slave_driver.sv(293) @ 3635000: uvm_test_top.env.slave_agent.drv [axi4_slave_driver] Read complete: ID=0xf  11 beats sent
# UVM_INFO ../src/slv/axi4_slave_monitor.sv(287) @ 3635000: uvm_test_top.env.slave_agent.mon [axi4_slave_monitor] Read data sent: ID=0xf ADDR=0x54d09e9a 11 beats
# UVM_INFO ../src/env/axi4_scoreboard.sv(103) @ 3635000: uvm_test_top.env.scb [axi4_scoreboard] Slave AXI4_READ received: ID=0xf ADDR=0x54d09e9a LEN=10
# UVM_INFO ../src/mst/axi4_master_monitor.sv(314) @ 3635000: uvm_test_top.env.master_agent.mon [axi4_master_monitor] Read complete: ID=0xf ADDR=0x54d09e9a 11 beats
# UVM_INFO ../src/env/axi4_scoreboard.sv(82) @ 3635000: uvm_test_top.env.scb [axi4_scoreboard] Master AXI4_READ received: ID=0xf ADDR=0x54d09e9a LEN=10
# UVM_INFO ../src/env/axi4_scoreboard.sv(154) @ 3635000: uvm_test_top.env.scb [axi4_scoreboard] [READ] MATCH #14: ID=0xf ADDR=0x54d09e9a LEN=10
# UVM_INFO ../src/seq/axi4_write_read_back_seq.sv(80) @ 3635000: uvm_test_top.env.master_agent.sqr@@wr_rd_seq_6 [axi4_write_read_back_seq] Read-back phase: ADDR=0x54d09e9a LEN=10 - data integrity check via scoreboard
# UVM_INFO ../src/test/axi4_wr_rd_test.sv(52) @ 3635000: uvm_test_top [axi4_wr_rd_test] [8/10] ADDR=0x3521ec4f LEN=9 BURST=AXI4_BURST_INCR
# UVM_INFO ../src/mst/axi4_master_driver.sv(55) @ 3635000: uvm_test_top.env.master_agent.drv [axi4_master_driver] Driving AXI4_WRITE  ID=0x3  ADDR=0x3521ec4f  LEN=9
# UVM_INFO ../src/mst/axi4_master_driver.sv(101) @ 3635000: uvm_test_top.env.master_agent.drv [axi4_master_driver] Write order: AW -> W (sequential)
# UVM_INFO ../src/slv/axi4_slave_driver.sv(159) @ 3665000: uvm_test_top.env.slave_agent.drv [axi4_slave_driver] AW received: ID=0x3 ADDR=0x3521ec4f LEN=9
# UVM_INFO ../src/mst/axi4_master_monitor.sv(124) @ 3665000: uvm_test_top.env.master_agent.mon [axi4_master_monitor] AW observed: ID=0x3 ADDR=0x3521ec4f LEN=9
# UVM_INFO ../src/slv/axi4_slave_monitor.sv(116) @ 3665000: uvm_test_top.env.slave_agent.mon [axi4_slave_monitor] AW received: ID=0x3 ADDR=0x3521ec4f LEN=9
# UVM_INFO ../src/mst/axi4_master_monitor.sv(184) @ 3865000: uvm_test_top.env.master_agent.mon [axi4_master_monitor] W data assembled: ID=0x3 ADDR=0x3521ec4f 10 beats
# UVM_INFO ../src/slv/axi4_slave_monitor.sv(167) @ 3865000: uvm_test_top.env.slave_agent.mon [axi4_slave_monitor] W data assembled: ID=0x3 ADDR=0x3521ec4f 10 beats
# UVM_INFO ../src/mst/axi4_master_driver.sv(197) @ 3895000: uvm_test_top.env.master_agent.drv [axi4_master_driver] Write response: AXI4_RESP_OKAY
# UVM_INFO ../src/slv/axi4_slave_driver.sv(223) @ 3895000: uvm_test_top.env.slave_agent.drv [axi4_slave_driver] Write complete: ID=0x3  10 beats stored
# UVM_INFO ../src/slv/axi4_slave_monitor.sv(189) @ 3895000: uvm_test_top.env.slave_agent.mon [axi4_slave_monitor] Write response sent: ID=0x3 ADDR=0x3521ec4f RESP=AXI4_RESP_OKAY
# UVM_INFO ../src/env/axi4_scoreboard.sv(103) @ 3895000: uvm_test_top.env.scb [axi4_scoreboard] Slave AXI4_WRITE received: ID=0x3 ADDR=0x3521ec4f LEN=9
# UVM_INFO ../src/mst/axi4_master_monitor.sv(210) @ 3895000: uvm_test_top.env.master_agent.mon [axi4_master_monitor] Write complete: ID=0x3 ADDR=0x3521ec4f RESP=AXI4_RESP_OKAY
# UVM_INFO ../src/env/axi4_scoreboard.sv(82) @ 3895000: uvm_test_top.env.scb [axi4_scoreboard] Master AXI4_WRITE received: ID=0x3 ADDR=0x3521ec4f LEN=9
# UVM_INFO ../src/env/axi4_scoreboard.sv(154) @ 3895000: uvm_test_top.env.scb [axi4_scoreboard] [WRITE] MATCH #15: ID=0x3 ADDR=0x3521ec4f LEN=9
# UVM_INFO ../src/seq/axi4_write_read_back_seq.sv(60) @ 3895000: uvm_test_top.env.master_agent.sqr@@wr_rd_seq_7 [axi4_write_read_back_seq] Write phase: ADDR=0x3521ec4f LEN=9 SIZE=AXI4_SIZE_4B BURST=AXI4_BURST_INCR
# UVM_INFO ../src/mst/axi4_master_driver.sv(55) @ 3895000: uvm_test_top.env.master_agent.drv [axi4_master_driver] Driving AXI4_READ  ID=0x1  ADDR=0x3521ec4f  LEN=9
# UVM_INFO ../src/slv/axi4_slave_driver.sv(259) @ 3925000: uvm_test_top.env.slave_agent.drv [axi4_slave_driver] AR received: ID=0x1 ADDR=0x3521ec4f LEN=9
# UVM_INFO ../src/mst/axi4_master_monitor.sv(246) @ 3925000: uvm_test_top.env.master_agent.mon [axi4_master_monitor] AR observed: ID=0x1 ADDR=0x3521ec4f LEN=9
# UVM_INFO ../src/slv/axi4_slave_monitor.sv(224) @ 3925000: uvm_test_top.env.slave_agent.mon [axi4_slave_monitor] AR received: ID=0x1 ADDR=0x3521ec4f LEN=9
# UVM_INFO ../src/mst/axi4_master_driver.sv(254) @ 4125000: uvm_test_top.env.master_agent.drv [axi4_master_driver] Read complete: 10 beats received
# UVM_INFO ../src/slv/axi4_slave_driver.sv(293) @ 4125000: uvm_test_top.env.slave_agent.drv [axi4_slave_driver] Read complete: ID=0x1  10 beats sent
# UVM_INFO ../src/mst/axi4_master_monitor.sv(314) @ 4125000: uvm_test_top.env.master_agent.mon [axi4_master_monitor] Read complete: ID=0x1 ADDR=0x3521ec4f 10 beats
# UVM_INFO ../src/env/axi4_scoreboard.sv(82) @ 4125000: uvm_test_top.env.scb [axi4_scoreboard] Master AXI4_READ received: ID=0x1 ADDR=0x3521ec4f LEN=9
# UVM_INFO ../src/slv/axi4_slave_monitor.sv(287) @ 4125000: uvm_test_top.env.slave_agent.mon [axi4_slave_monitor] Read data sent: ID=0x1 ADDR=0x3521ec4f 10 beats
# UVM_INFO ../src/env/axi4_scoreboard.sv(103) @ 4125000: uvm_test_top.env.scb [axi4_scoreboard] Slave AXI4_READ received: ID=0x1 ADDR=0x3521ec4f LEN=9
# UVM_INFO ../src/env/axi4_scoreboard.sv(154) @ 4125000: uvm_test_top.env.scb [axi4_scoreboard] [READ] MATCH #16: ID=0x1 ADDR=0x3521ec4f LEN=9
# UVM_INFO ../src/seq/axi4_write_read_back_seq.sv(80) @ 4125000: uvm_test_top.env.master_agent.sqr@@wr_rd_seq_7 [axi4_write_read_back_seq] Read-back phase: ADDR=0x3521ec4f LEN=9 - data integrity check via scoreboard
# UVM_INFO ../src/test/axi4_wr_rd_test.sv(52) @ 4125000: uvm_test_top [axi4_wr_rd_test] [9/10] ADDR=0x5b315e14 LEN=10 BURST=AXI4_BURST_INCR
# UVM_INFO ../src/mst/axi4_master_driver.sv(55) @ 4125000: uvm_test_top.env.master_agent.drv [axi4_master_driver] Driving AXI4_WRITE  ID=0x7  ADDR=0x5b315e14  LEN=10
# UVM_INFO ../src/mst/axi4_master_driver.sv(106) @ 4125000: uvm_test_top.env.master_agent.drv [axi4_master_driver] Write order: W -> AW (W first)
# UVM_INFO ../src/slv/axi4_slave_driver.sv(159) @ 4205000: uvm_test_top.env.slave_agent.drv [axi4_slave_driver] AW received: ID=0x7 ADDR=0x5b315e14 LEN=10
# UVM_INFO ../src/mst/axi4_master_monitor.sv(124) @ 4205000: uvm_test_top.env.master_agent.mon [axi4_master_monitor] AW observed: ID=0x7 ADDR=0x5b315e14 LEN=10
# UVM_INFO ../src/slv/axi4_slave_monitor.sv(116) @ 4205000: uvm_test_top.env.slave_agent.mon [axi4_slave_monitor] AW received: ID=0x7 ADDR=0x5b315e14 LEN=10
# UVM_INFO ../src/mst/axi4_master_monitor.sv(184) @ 4345000: uvm_test_top.env.master_agent.mon [axi4_master_monitor] W data assembled: ID=0x7 ADDR=0x5b315e14 11 beats
# UVM_INFO ../src/slv/axi4_slave_monitor.sv(167) @ 4345000: uvm_test_top.env.slave_agent.mon [axi4_slave_monitor] W data assembled: ID=0x7 ADDR=0x5b315e14 11 beats
# UVM_INFO ../src/mst/axi4_master_driver.sv(197) @ 4375000: uvm_test_top.env.master_agent.drv [axi4_master_driver] Write response: AXI4_RESP_OKAY
# UVM_INFO ../src/slv/axi4_slave_driver.sv(223) @ 4375000: uvm_test_top.env.slave_agent.drv [axi4_slave_driver] Write complete: ID=0x7  11 beats stored
# UVM_INFO ../src/slv/axi4_slave_monitor.sv(189) @ 4375000: uvm_test_top.env.slave_agent.mon [axi4_slave_monitor] Write response sent: ID=0x7 ADDR=0x5b315e14 RESP=AXI4_RESP_OKAY
# UVM_INFO ../src/env/axi4_scoreboard.sv(103) @ 4375000: uvm_test_top.env.scb [axi4_scoreboard] Slave AXI4_WRITE received: ID=0x7 ADDR=0x5b315e14 LEN=10
# UVM_INFO ../src/mst/axi4_master_monitor.sv(210) @ 4375000: uvm_test_top.env.master_agent.mon [axi4_master_monitor] Write complete: ID=0x7 ADDR=0x5b315e14 RESP=AXI4_RESP_OKAY
# UVM_INFO ../src/env/axi4_scoreboard.sv(82) @ 4375000: uvm_test_top.env.scb [axi4_scoreboard] Master AXI4_WRITE received: ID=0x7 ADDR=0x5b315e14 LEN=10
# UVM_INFO ../src/env/axi4_scoreboard.sv(154) @ 4375000: uvm_test_top.env.scb [axi4_scoreboard] [WRITE] MATCH #17: ID=0x7 ADDR=0x5b315e14 LEN=10
# UVM_INFO ../src/seq/axi4_write_read_back_seq.sv(60) @ 4375000: uvm_test_top.env.master_agent.sqr@@wr_rd_seq_8 [axi4_write_read_back_seq] Write phase: ADDR=0x5b315e14 LEN=10 SIZE=AXI4_SIZE_4B BURST=AXI4_BURST_INCR
# UVM_INFO ../src/mst/axi4_master_driver.sv(55) @ 4375000: uvm_test_top.env.master_agent.drv [axi4_master_driver] Driving AXI4_READ  ID=0xb  ADDR=0x5b315e14  LEN=10
# UVM_INFO ../src/slv/axi4_slave_driver.sv(259) @ 4405000: uvm_test_top.env.slave_agent.drv [axi4_slave_driver] AR received: ID=0xb ADDR=0x5b315e14 LEN=10
# UVM_INFO ../src/mst/axi4_master_monitor.sv(246) @ 4405000: uvm_test_top.env.master_agent.mon [axi4_master_monitor] AR observed: ID=0xb ADDR=0x5b315e14 LEN=10
# UVM_INFO ../src/slv/axi4_slave_monitor.sv(224) @ 4405000: uvm_test_top.env.slave_agent.mon [axi4_slave_monitor] AR received: ID=0xb ADDR=0x5b315e14 LEN=10
# UVM_INFO ../src/mst/axi4_master_driver.sv(254) @ 4625000: uvm_test_top.env.master_agent.drv [axi4_master_driver] Read complete: 11 beats received
# UVM_INFO ../src/slv/axi4_slave_driver.sv(293) @ 4625000: uvm_test_top.env.slave_agent.drv [axi4_slave_driver] Read complete: ID=0xb  11 beats sent
# UVM_INFO ../src/mst/axi4_master_monitor.sv(314) @ 4625000: uvm_test_top.env.master_agent.mon [axi4_master_monitor] Read complete: ID=0xb ADDR=0x5b315e14 11 beats
# UVM_INFO ../src/env/axi4_scoreboard.sv(82) @ 4625000: uvm_test_top.env.scb [axi4_scoreboard] Master AXI4_READ received: ID=0xb ADDR=0x5b315e14 LEN=10
# UVM_INFO ../src/slv/axi4_slave_monitor.sv(287) @ 4625000: uvm_test_top.env.slave_agent.mon [axi4_slave_monitor] Read data sent: ID=0xb ADDR=0x5b315e14 11 beats
# UVM_INFO ../src/env/axi4_scoreboard.sv(103) @ 4625000: uvm_test_top.env.scb [axi4_scoreboard] Slave AXI4_READ received: ID=0xb ADDR=0x5b315e14 LEN=10
# UVM_INFO ../src/env/axi4_scoreboard.sv(154) @ 4625000: uvm_test_top.env.scb [axi4_scoreboard] [READ] MATCH #18: ID=0xb ADDR=0x5b315e14 LEN=10
# UVM_INFO ../src/seq/axi4_write_read_back_seq.sv(80) @ 4625000: uvm_test_top.env.master_agent.sqr@@wr_rd_seq_8 [axi4_write_read_back_seq] Read-back phase: ADDR=0x5b315e14 LEN=10 - data integrity check via scoreboard
# UVM_INFO ../src/test/axi4_wr_rd_test.sv(52) @ 4625000: uvm_test_top [axi4_wr_rd_test] [10/10] ADDR=0x1be67d12 LEN=11 BURST=AXI4_BURST_INCR
# UVM_INFO ../src/mst/axi4_master_driver.sv(55) @ 4625000: uvm_test_top.env.master_agent.drv [axi4_master_driver] Driving AXI4_WRITE  ID=0x7  ADDR=0x1be67d12  LEN=11
# UVM_INFO ../src/mst/axi4_master_driver.sv(94) @ 4625000: uvm_test_top.env.master_agent.drv [axi4_master_driver] Write order: AW || W (parallel)
# UVM_INFO ../src/slv/axi4_slave_driver.sv(159) @ 4655000: uvm_test_top.env.slave_agent.drv [axi4_slave_driver] AW received: ID=0x7 ADDR=0x1be67d12 LEN=11
# UVM_INFO ../src/slv/axi4_slave_monitor.sv(116) @ 4655000: uvm_test_top.env.slave_agent.mon [axi4_slave_monitor] AW received: ID=0x7 ADDR=0x1be67d12 LEN=11
# UVM_INFO ../src/mst/axi4_master_monitor.sv(124) @ 4655000: uvm_test_top.env.master_agent.mon [axi4_master_monitor] AW observed: ID=0x7 ADDR=0x1be67d12 LEN=11
# UVM_INFO ../src/mst/axi4_master_monitor.sv(184) @ 4865000: uvm_test_top.env.master_agent.mon [axi4_master_monitor] W data assembled: ID=0x7 ADDR=0x1be67d12 12 beats
# UVM_INFO ../src/slv/axi4_slave_monitor.sv(167) @ 4865000: uvm_test_top.env.slave_agent.mon [axi4_slave_monitor] W data assembled: ID=0x7 ADDR=0x1be67d12 12 beats
# UVM_INFO ../src/mst/axi4_master_driver.sv(197) @ 4895000: uvm_test_top.env.master_agent.drv [axi4_master_driver] Write response: AXI4_RESP_OKAY
# UVM_INFO ../src/slv/axi4_slave_driver.sv(223) @ 4895000: uvm_test_top.env.slave_agent.drv [axi4_slave_driver] Write complete: ID=0x7  12 beats stored
# UVM_INFO ../src/slv/axi4_slave_monitor.sv(189) @ 4895000: uvm_test_top.env.slave_agent.mon [axi4_slave_monitor] Write response sent: ID=0x7 ADDR=0x1be67d12 RESP=AXI4_RESP_OKAY
# UVM_INFO ../src/env/axi4_scoreboard.sv(103) @ 4895000: uvm_test_top.env.scb [axi4_scoreboard] Slave AXI4_WRITE received: ID=0x7 ADDR=0x1be67d12 LEN=11
# UVM_INFO ../src/mst/axi4_master_monitor.sv(210) @ 4895000: uvm_test_top.env.master_agent.mon [axi4_master_monitor] Write complete: ID=0x7 ADDR=0x1be67d12 RESP=AXI4_RESP_OKAY
# UVM_INFO ../src/env/axi4_scoreboard.sv(82) @ 4895000: uvm_test_top.env.scb [axi4_scoreboard] Master AXI4_WRITE received: ID=0x7 ADDR=0x1be67d12 LEN=11
# UVM_INFO ../src/env/axi4_scoreboard.sv(154) @ 4895000: uvm_test_top.env.scb [axi4_scoreboard] [WRITE] MATCH #19: ID=0x7 ADDR=0x1be67d12 LEN=11
# UVM_INFO ../src/seq/axi4_write_read_back_seq.sv(60) @ 4895000: uvm_test_top.env.master_agent.sqr@@wr_rd_seq_9 [axi4_write_read_back_seq] Write phase: ADDR=0x1be67d12 LEN=11 SIZE=AXI4_SIZE_4B BURST=AXI4_BURST_INCR
# UVM_INFO ../src/mst/axi4_master_driver.sv(55) @ 4895000: uvm_test_top.env.master_agent.drv [axi4_master_driver] Driving AXI4_READ  ID=0x3  ADDR=0x1be67d12  LEN=11
# UVM_INFO ../src/slv/axi4_slave_driver.sv(259) @ 4925000: uvm_test_top.env.slave_agent.drv [axi4_slave_driver] AR received: ID=0x3 ADDR=0x1be67d12 LEN=11
# UVM_INFO ../src/mst/axi4_master_monitor.sv(246) @ 4925000: uvm_test_top.env.master_agent.mon [axi4_master_monitor] AR observed: ID=0x3 ADDR=0x1be67d12 LEN=11
# UVM_INFO ../src/slv/axi4_slave_monitor.sv(224) @ 4925000: uvm_test_top.env.slave_agent.mon [axi4_slave_monitor] AR received: ID=0x3 ADDR=0x1be67d12 LEN=11
# UVM_INFO ../src/mst/axi4_master_driver.sv(254) @ 5165000: uvm_test_top.env.master_agent.drv [axi4_master_driver] Read complete: 12 beats received
# UVM_INFO ../src/slv/axi4_slave_driver.sv(293) @ 5165000: uvm_test_top.env.slave_agent.drv [axi4_slave_driver] Read complete: ID=0x3  12 beats sent
# UVM_INFO ../src/mst/axi4_master_monitor.sv(314) @ 5165000: uvm_test_top.env.master_agent.mon [axi4_master_monitor] Read complete: ID=0x3 ADDR=0x1be67d12 12 beats
# UVM_INFO ../src/env/axi4_scoreboard.sv(82) @ 5165000: uvm_test_top.env.scb [axi4_scoreboard] Master AXI4_READ received: ID=0x3 ADDR=0x1be67d12 LEN=11
# UVM_INFO ../src/slv/axi4_slave_monitor.sv(287) @ 5165000: uvm_test_top.env.slave_agent.mon [axi4_slave_monitor] Read data sent: ID=0x3 ADDR=0x1be67d12 12 beats
# UVM_INFO ../src/env/axi4_scoreboard.sv(103) @ 5165000: uvm_test_top.env.scb [axi4_scoreboard] Slave AXI4_READ received: ID=0x3 ADDR=0x1be67d12 LEN=11
# UVM_INFO ../src/env/axi4_scoreboard.sv(154) @ 5165000: uvm_test_top.env.scb [axi4_scoreboard] [READ] MATCH #20: ID=0x3 ADDR=0x1be67d12 LEN=11
# UVM_INFO ../src/seq/axi4_write_read_back_seq.sv(80) @ 5165000: uvm_test_top.env.master_agent.sqr@@wr_rd_seq_9 [axi4_write_read_back_seq] Read-back phase: ADDR=0x1be67d12 LEN=11 - data integrity check via scoreboard
# UVM_INFO ../src/test/axi4_wr_rd_test.sv(62) @ 5665000: uvm_test_top [axi4_wr_rd_test] 10 write-read-back iterations complete
# UVM_INFO verilog_src/uvm-1.1d/src/base/uvm_objection.svh(1268) @ 5665000: reporter [TEST_DONE] 'run' phase is ready to proceed to the 'extract' phase
# UVM_INFO ../src/env/axi4_scoreboard.sv(218) @ 5665000: uvm_test_top.env.scb [axi4_scoreboard] 
# ========================================
#          SCOREBOARD SUMMARY
# ========================================
#   Master transactions : 20
#   Slave transactions  : 20
#   Matches             : 20
#   Mismatches          : 0
#   Unmatched master WR : 0
#   Unmatched master RD : 0
#   Unmatched slave  WR : 0
#   Unmatched slave  RD : 0
# ========================================
#   RESULT : PASS
# ========================================
# UVM_INFO ../src/test/axi4_base_test.sv(91) @ 5665000: uvm_test_top [axi4_wr_rd_test] 
# === TEST PASSED ===
# 
# 
# --- UVM Report Summary ---
# 
# ** Report counts by severity
# UVM_INFO :  304
# UVM_WARNING :    0
# UVM_ERROR :    0
# UVM_FATAL :    0
# ** Report counts by id
# [Questa UVM]     3
# [RNTST]     1
# [TB_TOP]     2
# [TEST_DONE]     1
# [TOP_TB]     1
# [UVMTOP]     1
# [axi4_master_agent]     1
# [axi4_master_driver]    51
# [axi4_master_monitor]    51
# [axi4_scoreboard]    61
# [axi4_slave_agent]     1
# [axi4_slave_driver]    41
# [axi4_slave_monitor]    51
# [axi4_vip_env]     5
# [axi4_wr_rd_test]    13
# [axi4_write_read_back_seq]    20
# ** Note: $finish    : /cadtools/mentor/Questa_10.6b/questasim/linux_x86_64/../verilog_src/uvm-1.1d/src/base/uvm_root.svh(430)
#    Time: 5665 ns  Iteration: 55  Instance: /tb_top
# Saving coverage database on exit...
# End time: 20:09:42 on Jun 04,2026, Elapsed time: 0:00:43
# Errors: 0, Warnings: 0
