# vsim -c -coverage -sv_seed 77377283 "+UVM_TESTNAME=axi4_exclusive_test" "+UVM_VERBOSITY=UVM_HIGH" "+DUMP_VCD" -l ./report/logs/axi4_exclusive_test_run_6_seed_77377283.log -do "coverage save -onexit ./report/coverage/axi4_exclusive_test_run_6_seed_77377283.ucdb; run -all; quit -f" opt_tb_top 
# Start time: 12:35:13 on Jun 05,2026
# //  Questa Sim-64
# //  Version 10.6b linux_x86_64 May 25 2017
# //
# //  Copyright 1991-2017 Mentor Graphics Corporation
# //  All Rights Reserved.
# //
# //  QuestaSim and its associated documentation contain trade
# //  secrets and commercial or financial information that are the property of
# //  Mentor Graphics Corporation and are privileged, confidential,
# //  and exempt from disclosure under the Freedom of Information Act,
# //  5 U.S.C. Section 552. Furthermore, this information
# //  is prohibited from disclosure under the Trade Secrets Act,
# //  18 U.S.C. Section 1905.
# //
# Loading sv_std.std
# Loading work.axi4_if(fast)
# Loading mtiUvm.uvm_pkg
# Loading work.axi4_pkg(fast)
# Loading work.axi4_test_pkg(fast)
# Loading work.tb_top(fast)
# Loading work.axi4_if(fast)
# Loading work.axi4_sva(fast)
# Loading mtiUvm.questa_uvm_pkg(fast)
# Loading /cadtools/mentor/Questa_10.6b/questasim/uvm-1.1d/linux_x86_64/uvm_dpi.so
# coverage save -onexit ./report/coverage/axi4_exclusive_test_run_6_seed_77377283.ucdb
#  run -all
# ----------------------------------------------------------------
# UVM-1.1d
# (C) 2007-2013 Mentor Graphics Corporation
# (C) 2007-2013 Cadence Design Systems, Inc.
# (C) 2006-2013 Synopsys, Inc.
# (C) 2011-2013 Cypress Semiconductor Corp.
# ----------------------------------------------------------------
# 
#   ***********       IMPORTANT RELEASE NOTES         ************
# 
#   You are using a version of the UVM library that has been compiled
#   with `UVM_NO_DEPRECATED undefined.
#   See http://www.eda.org/svdb/view.php?id=3313 for more details.
# 
#   You are using a version of the UVM library that has been compiled
#   with `UVM_OBJECT_MUST_HAVE_CONSTRUCTOR undefined.
#   See http://www.eda.org/svdb/view.php?id=3770 for more details.
# 
#       (Specify +UVM_NO_RELNOTES to turn off this notice)
# 
# UVM_INFO verilog_src/questa_uvm_pkg-1.2/src/questa_uvm_pkg.sv(215) @ 0: reporter [Questa UVM] QUESTA_UVM-1.2.3
# UVM_INFO verilog_src/questa_uvm_pkg-1.2/src/questa_uvm_pkg.sv(217) @ 0: reporter [Questa UVM]  questa_uvm::init(+struct)
# UVM_INFO ../src/tb_top.sv(128) @ 0: reporter [TB_TOP] Virtual interface set in config_db
# UVM_INFO @ 0: reporter [RNTST] Running test axi4_exclusive_test...
# UVM_INFO ../src/tb_top.sv(142) @ 0: reporter [TB_TOP] Waveform VCD dumping enabled (axi4_vip.vcd)
# UVM_INFO ../src/env/axi4_vip_env.sv(83) @ 0: uvm_test_top.env [axi4_vip_env] slave_vif not set - reusing master_vif (passthrough mode)
# UVM_INFO ../src/env/axi4_vip_env.sv(93) @ 0: uvm_test_top.env [axi4_vip_env] Scoreboard created
# UVM_INFO ../src/env/axi4_vip_env.sv(100) @ 0: uvm_test_top.env [axi4_vip_env] Coverage collectors created
# UVM_INFO ../src/mst/axi4_master_agent.sv(69) @ 0: uvm_test_top.env.master_agent [axi4_master_agent] ACTIVE mode - driver + sequencer created
# UVM_INFO ../src/slv/axi4_slave_agent.sv(82) @ 0: uvm_test_top.env.slave_agent [axi4_slave_agent] ACTIVE mode — ready_delay=[0:0] resp_delay=[0:0]
# UVM_INFO ../src/env/axi4_vip_env.sv(116) @ 0: uvm_test_top.env [axi4_vip_env] Scoreboard connected: master_mon.ap -> scb, slave_mon.ap -> scb
# UVM_INFO ../src/env/axi4_vip_env.sv(124) @ 0: uvm_test_top.env [axi4_vip_env] Coverage connected: master_mon.ap -> master_cov, slave_mon.ap -> slave_cov
# UVM_INFO @ 0: reporter [UVMTOP] UVM testbench topology:
# ---------------------------------------------------------------
# Name                       Type                     Size  Value
# ---------------------------------------------------------------
# uvm_test_top               axi4_exclusive_test      -     @473 
#   env                      axi4_vip_env             -     @488 
#     master_agent           axi4_master_agent        -     @503 
#       drv                  axi4_master_driver       -     @567 
#         rsp_port           uvm_analysis_port        -     @582 
#         seq_item_port      uvm_seq_item_pull_port   -     @574 
#       mon                  axi4_master_monitor      -     @559 
#         ap                 uvm_analysis_port        -     @700 
#       sqr                  axi4_master_sequencer    -     @590 
#         rsp_export         uvm_analysis_export      -     @597 
#         seq_item_export    uvm_seq_item_pull_imp    -     @691 
#         arbitration_queue  array                    0     -    
#         lock_queue         array                    0     -    
#         num_last_reqs      integral                 32    'd1  
#         num_last_rsps      integral                 32    'd1  
#     master_cov             axi4_coverage            -     @524 
#       analysis_imp         uvm_analysis_imp         -     @531 
#     scb                    axi4_scoreboard          -     @517 
#       master_export        uvm_analysis_imp_master  -     @714 
#       slave_export         uvm_analysis_imp_slave   -     @722 
#     slave_agent            axi4_slave_agent         -     @510 
#       drv                  axi4_slave_driver        -     @753 
#         rsp_port           uvm_analysis_port        -     @768 
#         seq_item_port      uvm_seq_item_pull_port   -     @760 
#       mon                  axi4_slave_monitor       -     @735 
#         ap                 uvm_analysis_port        -     @890 
#       sqr                  axi4_slave_sequencer     -     @776 
#         rsp_export         uvm_analysis_export      -     @783 
#         seq_item_export    uvm_seq_item_pull_imp    -     @877 
#         arbitration_queue  array                    0     -    
#         lock_queue         array                    0     -    
#         num_last_reqs      integral                 32    'd1  
#         num_last_rsps      integral                 32    'd1  
#     slave_cov              axi4_coverage            -     @539 
#       analysis_imp         uvm_analysis_imp         -     @546 
# ---------------------------------------------------------------
# 
# UVM_INFO verilog_src/questa_uvm_pkg-1.2/src/questa_uvm_pkg.sv(277) @ 0: reporter [Questa UVM] End Of Elaboration
# UVM_INFO ../src/test/axi4_exclusive_test.sv(24) @ 0: uvm_test_top [axi4_exclusive_test] Starting exclusive access test
# UVM_INFO ../src/seq/axi4_exclusive_seq.sv(26) @ 0: uvm_test_top.env.master_agent.sqr@@excl_seq [axi4_exclusive_seq] Starting exclusive access sequence: 10 iterations
# UVM_INFO ../src/seq/axi4_exclusive_seq.sv(44) @ 0: uvm_test_top.env.master_agent.sqr@@excl_seq [axi4_exclusive_seq] [1/10] Running Exclusive Read-Write pair to ADDR=0x8f9ef278 ID=0x5
# UVM_INFO ../src/tb_top.sv(49) @ 95000: reporter [TOP_TB] Reset de-asserted
# UVM_INFO ../src/slv/axi4_slave_driver.sv(70) @ 95000: uvm_test_top.env.slave_agent.drv [axi4_slave_driver] Reset deasserted - slave driver active
# UVM_INFO ../src/mst/axi4_master_driver.sv(46) @ 95000: uvm_test_top.env.master_agent.drv [axi4_master_driver] Reset deasserted - master driver active
# UVM_INFO ../src/mst/axi4_master_monitor.sv(77) @ 95000: uvm_test_top.env.master_agent.mon [axi4_master_monitor] Reset deasserted — monitor active
# UVM_INFO ../src/slv/axi4_slave_monitor.sv(71) @ 95000: uvm_test_top.env.slave_agent.mon [axi4_slave_monitor] Reset deasserted — monitor active
# UVM_INFO ../src/mst/axi4_master_driver.sv(55) @ 95000: uvm_test_top.env.master_agent.drv [axi4_master_driver] Driving AXI4_READ  ID=0x5  ADDR=0x8f9ef278  LEN=0
# UVM_INFO ../src/slv/axi4_slave_driver.sv(302) @ 115000: uvm_test_top.env.slave_agent.drv [axi4_slave_driver] AR received: ID=0x5 ADDR=0x8f9ef278 LEN=0 LOCK=AXI4_LOCK_EXCLUSIVE
# UVM_INFO ../src/slv/axi4_slave_monitor.sv(224) @ 115000: uvm_test_top.env.slave_agent.mon [axi4_slave_monitor] AR received: ID=0x5 ADDR=0x8f9ef278 LEN=0
# UVM_INFO ../src/mst/axi4_master_monitor.sv(246) @ 115000: uvm_test_top.env.master_agent.mon [axi4_master_monitor] AR observed: ID=0x5 ADDR=0x8f9ef278 LEN=0
# UVM_INFO ../src/mst/axi4_master_driver.sv(254) @ 135000: uvm_test_top.env.master_agent.drv [axi4_master_driver] Read complete: 1 beats received
# UVM_INFO ../src/slv/axi4_slave_driver.sv(356) @ 135000: uvm_test_top.env.slave_agent.drv [axi4_slave_driver] Read complete: ID=0x5 ADDR=0x8f9ef278 RESP=AXI4_RESP_EXOKAY  1 beats sent
# UVM_INFO ../src/slv/axi4_slave_monitor.sv(287) @ 135000: uvm_test_top.env.slave_agent.mon [axi4_slave_monitor] Read data sent: ID=0x5 ADDR=0x8f9ef278 1 beats
# UVM_INFO ../src/env/axi4_scoreboard.sv(103) @ 135000: uvm_test_top.env.scb [axi4_scoreboard] Slave AXI4_READ received: ID=0x5 ADDR=0x8f9ef278 LEN=0
# UVM_INFO ../src/mst/axi4_master_monitor.sv(314) @ 135000: uvm_test_top.env.master_agent.mon [axi4_master_monitor] Read complete: ID=0x5 ADDR=0x8f9ef278 1 beats
# UVM_INFO ../src/env/axi4_scoreboard.sv(82) @ 135000: uvm_test_top.env.scb [axi4_scoreboard] Master AXI4_READ received: ID=0x5 ADDR=0x8f9ef278 LEN=0
# UVM_INFO ../src/env/axi4_scoreboard.sv(154) @ 135000: uvm_test_top.env.scb [axi4_scoreboard] [READ] MATCH #1: ID=0x5 ADDR=0x8f9ef278 LEN=0
# UVM_INFO ../src/seq/axi4_exclusive_seq.sv(60) @ 135000: uvm_test_top.env.master_agent.sqr@@excl_seq [axi4_exclusive_seq] Exclusive Read complete: RESP=AXI4_RESP_EXOKAY
# UVM_INFO ../src/mst/axi4_master_driver.sv(55) @ 135000: uvm_test_top.env.master_agent.drv [axi4_master_driver] Driving AXI4_WRITE  ID=0x5  ADDR=0x8f9ef278  LEN=0
# UVM_INFO ../src/mst/axi4_master_driver.sv(101) @ 135000: uvm_test_top.env.master_agent.drv [axi4_master_driver] Write order: AW -> W (sequential)
# UVM_INFO ../src/slv/axi4_slave_driver.sv(165) @ 165000: uvm_test_top.env.slave_agent.drv [axi4_slave_driver] AW received: ID=0x5 ADDR=0x8f9ef278 LEN=0 LOCK=AXI4_LOCK_EXCLUSIVE
# UVM_INFO ../src/mst/axi4_master_monitor.sv(124) @ 165000: uvm_test_top.env.master_agent.mon [axi4_master_monitor] AW observed: ID=0x5 ADDR=0x8f9ef278 LEN=0
# UVM_INFO ../src/slv/axi4_slave_monitor.sv(116) @ 165000: uvm_test_top.env.slave_agent.mon [axi4_slave_monitor] AW received: ID=0x5 ADDR=0x8f9ef278 LEN=0
# UVM_INFO ../src/mst/axi4_master_monitor.sv(184) @ 185000: uvm_test_top.env.master_agent.mon [axi4_master_monitor] W data assembled: ID=0x5 ADDR=0x8f9ef278 1 beats
# UVM_INFO ../src/slv/axi4_slave_monitor.sv(167) @ 185000: uvm_test_top.env.slave_agent.mon [axi4_slave_monitor] W data assembled: ID=0x5 ADDR=0x8f9ef278 1 beats
# UVM_INFO ../src/mst/axi4_master_driver.sv(197) @ 215000: uvm_test_top.env.master_agent.drv [axi4_master_driver] Write response: AXI4_RESP_EXOKAY
# UVM_INFO ../src/slv/axi4_slave_driver.sv(263) @ 215000: uvm_test_top.env.slave_agent.drv [axi4_slave_driver] Write complete: ID=0x5 ADDR=0x8f9ef278 RESP=AXI4_RESP_EXOKAY  1 beats processed
# UVM_INFO ../src/slv/axi4_slave_monitor.sv(189) @ 215000: uvm_test_top.env.slave_agent.mon [axi4_slave_monitor] Write response sent: ID=0x5 ADDR=0x8f9ef278 RESP=AXI4_RESP_EXOKAY
# UVM_INFO ../src/env/axi4_scoreboard.sv(103) @ 215000: uvm_test_top.env.scb [axi4_scoreboard] Slave AXI4_WRITE received: ID=0x5 ADDR=0x8f9ef278 LEN=0
# UVM_INFO ../src/mst/axi4_master_monitor.sv(210) @ 215000: uvm_test_top.env.master_agent.mon [axi4_master_monitor] Write complete: ID=0x5 ADDR=0x8f9ef278 RESP=AXI4_RESP_EXOKAY
# UVM_INFO ../src/env/axi4_scoreboard.sv(82) @ 215000: uvm_test_top.env.scb [axi4_scoreboard] Master AXI4_WRITE received: ID=0x5 ADDR=0x8f9ef278 LEN=0
# UVM_INFO ../src/env/axi4_scoreboard.sv(154) @ 215000: uvm_test_top.env.scb [axi4_scoreboard] [WRITE] MATCH #2: ID=0x5 ADDR=0x8f9ef278 LEN=0
# UVM_INFO ../src/seq/axi4_exclusive_seq.sv(76) @ 215000: uvm_test_top.env.master_agent.sqr@@excl_seq [axi4_exclusive_seq] Exclusive Write complete: RESP=AXI4_RESP_EXOKAY
# UVM_INFO ../src/mst/axi4_master_driver.sv(55) @ 215000: uvm_test_top.env.master_agent.drv [axi4_master_driver] Driving AXI4_WRITE  ID=0x5  ADDR=0x8f9ef278  LEN=0
# UVM_INFO ../src/mst/axi4_master_driver.sv(101) @ 215000: uvm_test_top.env.master_agent.drv [axi4_master_driver] Write order: AW -> W (sequential)
# UVM_INFO ../src/slv/axi4_slave_driver.sv(165) @ 245000: uvm_test_top.env.slave_agent.drv [axi4_slave_driver] AW received: ID=0x5 ADDR=0x8f9ef278 LEN=0 LOCK=AXI4_LOCK_EXCLUSIVE
# UVM_INFO ../src/mst/axi4_master_monitor.sv(124) @ 245000: uvm_test_top.env.master_agent.mon [axi4_master_monitor] AW observed: ID=0x5 ADDR=0x8f9ef278 LEN=0
# UVM_INFO ../src/slv/axi4_slave_monitor.sv(116) @ 245000: uvm_test_top.env.slave_agent.mon [axi4_slave_monitor] AW received: ID=0x5 ADDR=0x8f9ef278 LEN=0
# UVM_INFO ../src/mst/axi4_master_monitor.sv(184) @ 265000: uvm_test_top.env.master_agent.mon [axi4_master_monitor] W data assembled: ID=0x5 ADDR=0x8f9ef278 1 beats
# UVM_INFO ../src/slv/axi4_slave_monitor.sv(167) @ 265000: uvm_test_top.env.slave_agent.mon [axi4_slave_monitor] W data assembled: ID=0x5 ADDR=0x8f9ef278 1 beats
# UVM_INFO ../src/mst/axi4_master_driver.sv(197) @ 295000: uvm_test_top.env.master_agent.drv [axi4_master_driver] Write response: AXI4_RESP_OKAY
# UVM_INFO ../src/slv/axi4_slave_driver.sv(263) @ 295000: uvm_test_top.env.slave_agent.drv [axi4_slave_driver] Write complete: ID=0x5 ADDR=0x8f9ef278 RESP=AXI4_RESP_OKAY  1 beats processed
# UVM_INFO ../src/slv/axi4_slave_monitor.sv(189) @ 295000: uvm_test_top.env.slave_agent.mon [axi4_slave_monitor] Write response sent: ID=0x5 ADDR=0x8f9ef278 RESP=AXI4_RESP_OKAY
# UVM_INFO ../src/env/axi4_scoreboard.sv(103) @ 295000: uvm_test_top.env.scb [axi4_scoreboard] Slave AXI4_WRITE received: ID=0x5 ADDR=0x8f9ef278 LEN=0
# UVM_INFO ../src/mst/axi4_master_monitor.sv(210) @ 295000: uvm_test_top.env.master_agent.mon [axi4_master_monitor] Write complete: ID=0x5 ADDR=0x8f9ef278 RESP=AXI4_RESP_OKAY
# UVM_INFO ../src/env/axi4_scoreboard.sv(82) @ 295000: uvm_test_top.env.scb [axi4_scoreboard] Master AXI4_WRITE received: ID=0x5 ADDR=0x8f9ef278 LEN=0
# UVM_INFO ../src/env/axi4_scoreboard.sv(154) @ 295000: uvm_test_top.env.scb [axi4_scoreboard] [WRITE] MATCH #3: ID=0x5 ADDR=0x8f9ef278 LEN=0
# UVM_INFO ../src/seq/axi4_exclusive_seq.sv(93) @ 295000: uvm_test_top.env.master_agent.sqr@@excl_seq [axi4_exclusive_seq] Failing Exclusive Write complete: RESP=AXI4_RESP_OKAY (Expected OKAY, no EXOKAY)
# UVM_INFO ../src/seq/axi4_exclusive_seq.sv(44) @ 295000: uvm_test_top.env.master_agent.sqr@@excl_seq [axi4_exclusive_seq] [2/10] Running Exclusive Read-Write pair to ADDR=0x86c8a16c ID=0x0
# UVM_INFO ../src/mst/axi4_master_driver.sv(55) @ 295000: uvm_test_top.env.master_agent.drv [axi4_master_driver] Driving AXI4_READ  ID=0x0  ADDR=0x86c8a16c  LEN=0
# UVM_INFO ../src/slv/axi4_slave_driver.sv(302) @ 325000: uvm_test_top.env.slave_agent.drv [axi4_slave_driver] AR received: ID=0x0 ADDR=0x86c8a16c LEN=0 LOCK=AXI4_LOCK_EXCLUSIVE
# UVM_INFO ../src/mst/axi4_master_monitor.sv(246) @ 325000: uvm_test_top.env.master_agent.mon [axi4_master_monitor] AR observed: ID=0x0 ADDR=0x86c8a16c LEN=0
# UVM_INFO ../src/slv/axi4_slave_monitor.sv(224) @ 325000: uvm_test_top.env.slave_agent.mon [axi4_slave_monitor] AR received: ID=0x0 ADDR=0x86c8a16c LEN=0
# UVM_INFO ../src/mst/axi4_master_driver.sv(254) @ 345000: uvm_test_top.env.master_agent.drv [axi4_master_driver] Read complete: 1 beats received
# UVM_INFO ../src/slv/axi4_slave_driver.sv(356) @ 345000: uvm_test_top.env.slave_agent.drv [axi4_slave_driver] Read complete: ID=0x0 ADDR=0x86c8a16c RESP=AXI4_RESP_EXOKAY  1 beats sent
# UVM_INFO ../src/mst/axi4_master_monitor.sv(314) @ 345000: uvm_test_top.env.master_agent.mon [axi4_master_monitor] Read complete: ID=0x0 ADDR=0x86c8a16c 1 beats
# UVM_INFO ../src/env/axi4_scoreboard.sv(82) @ 345000: uvm_test_top.env.scb [axi4_scoreboard] Master AXI4_READ received: ID=0x0 ADDR=0x86c8a16c LEN=0
# UVM_INFO ../src/slv/axi4_slave_monitor.sv(287) @ 345000: uvm_test_top.env.slave_agent.mon [axi4_slave_monitor] Read data sent: ID=0x0 ADDR=0x86c8a16c 1 beats
# UVM_INFO ../src/env/axi4_scoreboard.sv(103) @ 345000: uvm_test_top.env.scb [axi4_scoreboard] Slave AXI4_READ received: ID=0x0 ADDR=0x86c8a16c LEN=0
# UVM_INFO ../src/env/axi4_scoreboard.sv(154) @ 345000: uvm_test_top.env.scb [axi4_scoreboard] [READ] MATCH #4: ID=0x0 ADDR=0x86c8a16c LEN=0
# UVM_INFO ../src/seq/axi4_exclusive_seq.sv(60) @ 345000: uvm_test_top.env.master_agent.sqr@@excl_seq [axi4_exclusive_seq] Exclusive Read complete: RESP=AXI4_RESP_EXOKAY
# UVM_INFO ../src/mst/axi4_master_driver.sv(55) @ 345000: uvm_test_top.env.master_agent.drv [axi4_master_driver] Driving AXI4_WRITE  ID=0x0  ADDR=0x86c8a16c  LEN=0
# UVM_INFO ../src/mst/axi4_master_driver.sv(94) @ 345000: uvm_test_top.env.master_agent.drv [axi4_master_driver] Write order: AW || W (parallel)
# UVM_INFO ../src/slv/axi4_slave_driver.sv(165) @ 375000: uvm_test_top.env.slave_agent.drv [axi4_slave_driver] AW received: ID=0x0 ADDR=0x86c8a16c LEN=0 LOCK=AXI4_LOCK_EXCLUSIVE
# UVM_INFO ../src/slv/axi4_slave_monitor.sv(116) @ 375000: uvm_test_top.env.slave_agent.mon [axi4_slave_monitor] AW received: ID=0x0 ADDR=0x86c8a16c LEN=0
# UVM_INFO ../src/mst/axi4_master_monitor.sv(124) @ 375000: uvm_test_top.env.master_agent.mon [axi4_master_monitor] AW observed: ID=0x0 ADDR=0x86c8a16c LEN=0
# UVM_INFO ../src/slv/axi4_slave_monitor.sv(167) @ 375000: uvm_test_top.env.slave_agent.mon [axi4_slave_monitor] W data assembled: ID=0x0 ADDR=0x86c8a16c 1 beats
# UVM_INFO ../src/mst/axi4_master_monitor.sv(184) @ 375000: uvm_test_top.env.master_agent.mon [axi4_master_monitor] W data assembled: ID=0x0 ADDR=0x86c8a16c 1 beats
# UVM_INFO ../src/mst/axi4_master_driver.sv(197) @ 395000: uvm_test_top.env.master_agent.drv [axi4_master_driver] Write response: AXI4_RESP_EXOKAY
# UVM_INFO ../src/slv/axi4_slave_driver.sv(263) @ 395000: uvm_test_top.env.slave_agent.drv [axi4_slave_driver] Write complete: ID=0x0 ADDR=0x86c8a16c RESP=AXI4_RESP_EXOKAY  1 beats processed
# UVM_INFO ../src/slv/axi4_slave_monitor.sv(189) @ 395000: uvm_test_top.env.slave_agent.mon [axi4_slave_monitor] Write response sent: ID=0x0 ADDR=0x86c8a16c RESP=AXI4_RESP_EXOKAY
# UVM_INFO ../src/env/axi4_scoreboard.sv(103) @ 395000: uvm_test_top.env.scb [axi4_scoreboard] Slave AXI4_WRITE received: ID=0x0 ADDR=0x86c8a16c LEN=0
# UVM_INFO ../src/mst/axi4_master_monitor.sv(210) @ 395000: uvm_test_top.env.master_agent.mon [axi4_master_monitor] Write complete: ID=0x0 ADDR=0x86c8a16c RESP=AXI4_RESP_EXOKAY
# UVM_INFO ../src/env/axi4_scoreboard.sv(82) @ 395000: uvm_test_top.env.scb [axi4_scoreboard] Master AXI4_WRITE received: ID=0x0 ADDR=0x86c8a16c LEN=0
# UVM_INFO ../src/env/axi4_scoreboard.sv(154) @ 395000: uvm_test_top.env.scb [axi4_scoreboard] [WRITE] MATCH #5: ID=0x0 ADDR=0x86c8a16c LEN=0
# UVM_INFO ../src/seq/axi4_exclusive_seq.sv(76) @ 395000: uvm_test_top.env.master_agent.sqr@@excl_seq [axi4_exclusive_seq] Exclusive Write complete: RESP=AXI4_RESP_EXOKAY
# UVM_INFO ../src/mst/axi4_master_driver.sv(55) @ 395000: uvm_test_top.env.master_agent.drv [axi4_master_driver] Driving AXI4_WRITE  ID=0x0  ADDR=0x86c8a16c  LEN=0
# UVM_INFO ../src/mst/axi4_master_driver.sv(94) @ 395000: uvm_test_top.env.master_agent.drv [axi4_master_driver] Write order: AW || W (parallel)
# UVM_INFO ../src/slv/axi4_slave_driver.sv(165) @ 425000: uvm_test_top.env.slave_agent.drv [axi4_slave_driver] AW received: ID=0x0 ADDR=0x86c8a16c LEN=0 LOCK=AXI4_LOCK_EXCLUSIVE
# UVM_INFO ../src/mst/axi4_master_monitor.sv(124) @ 425000: uvm_test_top.env.master_agent.mon [axi4_master_monitor] AW observed: ID=0x0 ADDR=0x86c8a16c LEN=0
# UVM_INFO ../src/slv/axi4_slave_monitor.sv(116) @ 425000: uvm_test_top.env.slave_agent.mon [axi4_slave_monitor] AW received: ID=0x0 ADDR=0x86c8a16c LEN=0
# UVM_INFO ../src/mst/axi4_master_monitor.sv(184) @ 425000: uvm_test_top.env.master_agent.mon [axi4_master_monitor] W data assembled: ID=0x0 ADDR=0x86c8a16c 1 beats
# UVM_INFO ../src/slv/axi4_slave_monitor.sv(167) @ 425000: uvm_test_top.env.slave_agent.mon [axi4_slave_monitor] W data assembled: ID=0x0 ADDR=0x86c8a16c 1 beats
# UVM_INFO ../src/mst/axi4_master_driver.sv(197) @ 445000: uvm_test_top.env.master_agent.drv [axi4_master_driver] Write response: AXI4_RESP_OKAY
# UVM_INFO ../src/slv/axi4_slave_driver.sv(263) @ 445000: uvm_test_top.env.slave_agent.drv [axi4_slave_driver] Write complete: ID=0x0 ADDR=0x86c8a16c RESP=AXI4_RESP_OKAY  1 beats processed
# UVM_INFO ../src/mst/axi4_master_monitor.sv(210) @ 445000: uvm_test_top.env.master_agent.mon [axi4_master_monitor] Write complete: ID=0x0 ADDR=0x86c8a16c RESP=AXI4_RESP_OKAY
# UVM_INFO ../src/env/axi4_scoreboard.sv(82) @ 445000: uvm_test_top.env.scb [axi4_scoreboard] Master AXI4_WRITE received: ID=0x0 ADDR=0x86c8a16c LEN=0
# UVM_INFO ../src/slv/axi4_slave_monitor.sv(189) @ 445000: uvm_test_top.env.slave_agent.mon [axi4_slave_monitor] Write response sent: ID=0x0 ADDR=0x86c8a16c RESP=AXI4_RESP_OKAY
# UVM_INFO ../src/env/axi4_scoreboard.sv(103) @ 445000: uvm_test_top.env.scb [axi4_scoreboard] Slave AXI4_WRITE received: ID=0x0 ADDR=0x86c8a16c LEN=0
# UVM_INFO ../src/env/axi4_scoreboard.sv(154) @ 445000: uvm_test_top.env.scb [axi4_scoreboard] [WRITE] MATCH #6: ID=0x0 ADDR=0x86c8a16c LEN=0
# UVM_INFO ../src/seq/axi4_exclusive_seq.sv(93) @ 445000: uvm_test_top.env.master_agent.sqr@@excl_seq [axi4_exclusive_seq] Failing Exclusive Write complete: RESP=AXI4_RESP_OKAY (Expected OKAY, no EXOKAY)
# UVM_INFO ../src/seq/axi4_exclusive_seq.sv(44) @ 445000: uvm_test_top.env.master_agent.sqr@@excl_seq [axi4_exclusive_seq] [3/10] Running Exclusive Read-Write pair to ADDR=0x24eb2990 ID=0xe
# UVM_INFO ../src/mst/axi4_master_driver.sv(55) @ 445000: uvm_test_top.env.master_agent.drv [axi4_master_driver] Driving AXI4_READ  ID=0xe  ADDR=0x24eb2990  LEN=0
# UVM_INFO ../src/slv/axi4_slave_driver.sv(302) @ 475000: uvm_test_top.env.slave_agent.drv [axi4_slave_driver] AR received: ID=0xe ADDR=0x24eb2990 LEN=0 LOCK=AXI4_LOCK_EXCLUSIVE
# UVM_INFO ../src/slv/axi4_slave_monitor.sv(224) @ 475000: uvm_test_top.env.slave_agent.mon [axi4_slave_monitor] AR received: ID=0xe ADDR=0x24eb2990 LEN=0
# UVM_INFO ../src/mst/axi4_master_monitor.sv(246) @ 475000: uvm_test_top.env.master_agent.mon [axi4_master_monitor] AR observed: ID=0xe ADDR=0x24eb2990 LEN=0
# UVM_INFO ../src/mst/axi4_master_driver.sv(254) @ 495000: uvm_test_top.env.master_agent.drv [axi4_master_driver] Read complete: 1 beats received
# UVM_INFO ../src/slv/axi4_slave_driver.sv(356) @ 495000: uvm_test_top.env.slave_agent.drv [axi4_slave_driver] Read complete: ID=0xe ADDR=0x24eb2990 RESP=AXI4_RESP_EXOKAY  1 beats sent
# UVM_INFO ../src/slv/axi4_slave_monitor.sv(287) @ 495000: uvm_test_top.env.slave_agent.mon [axi4_slave_monitor] Read data sent: ID=0xe ADDR=0x24eb2990 1 beats
# UVM_INFO ../src/env/axi4_scoreboard.sv(103) @ 495000: uvm_test_top.env.scb [axi4_scoreboard] Slave AXI4_READ received: ID=0xe ADDR=0x24eb2990 LEN=0
# UVM_INFO ../src/mst/axi4_master_monitor.sv(314) @ 495000: uvm_test_top.env.master_agent.mon [axi4_master_monitor] Read complete: ID=0xe ADDR=0x24eb2990 1 beats
# UVM_INFO ../src/env/axi4_scoreboard.sv(82) @ 495000: uvm_test_top.env.scb [axi4_scoreboard] Master AXI4_READ received: ID=0xe ADDR=0x24eb2990 LEN=0
# UVM_INFO ../src/env/axi4_scoreboard.sv(154) @ 495000: uvm_test_top.env.scb [axi4_scoreboard] [READ] MATCH #7: ID=0xe ADDR=0x24eb2990 LEN=0
# UVM_INFO ../src/seq/axi4_exclusive_seq.sv(60) @ 495000: uvm_test_top.env.master_agent.sqr@@excl_seq [axi4_exclusive_seq] Exclusive Read complete: RESP=AXI4_RESP_EXOKAY
# UVM_INFO ../src/mst/axi4_master_driver.sv(55) @ 495000: uvm_test_top.env.master_agent.drv [axi4_master_driver] Driving AXI4_WRITE  ID=0xe  ADDR=0x24eb2990  LEN=0
# UVM_INFO ../src/mst/axi4_master_driver.sv(106) @ 495000: uvm_test_top.env.master_agent.drv [axi4_master_driver] Write order: W -> AW (W first)
# UVM_INFO ../src/slv/axi4_slave_driver.sv(165) @ 565000: uvm_test_top.env.slave_agent.drv [axi4_slave_driver] AW received: ID=0xe ADDR=0x24eb2990 LEN=0 LOCK=AXI4_LOCK_EXCLUSIVE
# UVM_INFO ../src/mst/axi4_master_monitor.sv(124) @ 565000: uvm_test_top.env.master_agent.mon [axi4_master_monitor] AW observed: ID=0xe ADDR=0x24eb2990 LEN=0
# UVM_INFO ../src/slv/axi4_slave_monitor.sv(116) @ 565000: uvm_test_top.env.slave_agent.mon [axi4_slave_monitor] AW received: ID=0xe ADDR=0x24eb2990 LEN=0
# UVM_INFO ../src/mst/axi4_master_monitor.sv(184) @ 565000: uvm_test_top.env.master_agent.mon [axi4_master_monitor] W data assembled: ID=0xe ADDR=0x24eb2990 1 beats
# UVM_INFO ../src/slv/axi4_slave_monitor.sv(167) @ 565000: uvm_test_top.env.slave_agent.mon [axi4_slave_monitor] W data assembled: ID=0xe ADDR=0x24eb2990 1 beats
# UVM_INFO ../src/mst/axi4_master_driver.sv(197) @ 585000: uvm_test_top.env.master_agent.drv [axi4_master_driver] Write response: AXI4_RESP_EXOKAY
# UVM_INFO ../src/slv/axi4_slave_driver.sv(263) @ 585000: uvm_test_top.env.slave_agent.drv [axi4_slave_driver] Write complete: ID=0xe ADDR=0x24eb2990 RESP=AXI4_RESP_EXOKAY  1 beats processed
# UVM_INFO ../src/mst/axi4_master_monitor.sv(210) @ 585000: uvm_test_top.env.master_agent.mon [axi4_master_monitor] Write complete: ID=0xe ADDR=0x24eb2990 RESP=AXI4_RESP_EXOKAY
# UVM_INFO ../src/env/axi4_scoreboard.sv(82) @ 585000: uvm_test_top.env.scb [axi4_scoreboard] Master AXI4_WRITE received: ID=0xe ADDR=0x24eb2990 LEN=0
# UVM_INFO ../src/slv/axi4_slave_monitor.sv(189) @ 585000: uvm_test_top.env.slave_agent.mon [axi4_slave_monitor] Write response sent: ID=0xe ADDR=0x24eb2990 RESP=AXI4_RESP_EXOKAY
# UVM_INFO ../src/env/axi4_scoreboard.sv(103) @ 585000: uvm_test_top.env.scb [axi4_scoreboard] Slave AXI4_WRITE received: ID=0xe ADDR=0x24eb2990 LEN=0
# UVM_INFO ../src/env/axi4_scoreboard.sv(154) @ 585000: uvm_test_top.env.scb [axi4_scoreboard] [WRITE] MATCH #8: ID=0xe ADDR=0x24eb2990 LEN=0
# UVM_INFO ../src/seq/axi4_exclusive_seq.sv(76) @ 585000: uvm_test_top.env.master_agent.sqr@@excl_seq [axi4_exclusive_seq] Exclusive Write complete: RESP=AXI4_RESP_EXOKAY
# UVM_INFO ../src/mst/axi4_master_driver.sv(55) @ 585000: uvm_test_top.env.master_agent.drv [axi4_master_driver] Driving AXI4_WRITE  ID=0xe  ADDR=0x24eb2990  LEN=0
# UVM_INFO ../src/mst/axi4_master_driver.sv(94) @ 585000: uvm_test_top.env.master_agent.drv [axi4_master_driver] Write order: AW || W (parallel)
# UVM_INFO ../src/slv/axi4_slave_driver.sv(165) @ 615000: uvm_test_top.env.slave_agent.drv [axi4_slave_driver] AW received: ID=0xe ADDR=0x24eb2990 LEN=0 LOCK=AXI4_LOCK_EXCLUSIVE
# UVM_INFO ../src/slv/axi4_slave_monitor.sv(116) @ 615000: uvm_test_top.env.slave_agent.mon [axi4_slave_monitor] AW received: ID=0xe ADDR=0x24eb2990 LEN=0
# UVM_INFO ../src/mst/axi4_master_monitor.sv(124) @ 615000: uvm_test_top.env.master_agent.mon [axi4_master_monitor] AW observed: ID=0xe ADDR=0x24eb2990 LEN=0
# UVM_INFO ../src/slv/axi4_slave_monitor.sv(167) @ 615000: uvm_test_top.env.slave_agent.mon [axi4_slave_monitor] W data assembled: ID=0xe ADDR=0x24eb2990 1 beats
# UVM_INFO ../src/mst/axi4_master_monitor.sv(184) @ 615000: uvm_test_top.env.master_agent.mon [axi4_master_monitor] W data assembled: ID=0xe ADDR=0x24eb2990 1 beats
# UVM_INFO ../src/mst/axi4_master_driver.sv(197) @ 635000: uvm_test_top.env.master_agent.drv [axi4_master_driver] Write response: AXI4_RESP_OKAY
# UVM_INFO ../src/slv/axi4_slave_driver.sv(263) @ 635000: uvm_test_top.env.slave_agent.drv [axi4_slave_driver] Write complete: ID=0xe ADDR=0x24eb2990 RESP=AXI4_RESP_OKAY  1 beats processed
# UVM_INFO ../src/slv/axi4_slave_monitor.sv(189) @ 635000: uvm_test_top.env.slave_agent.mon [axi4_slave_monitor] Write response sent: ID=0xe ADDR=0x24eb2990 RESP=AXI4_RESP_OKAY
# UVM_INFO ../src/env/axi4_scoreboard.sv(103) @ 635000: uvm_test_top.env.scb [axi4_scoreboard] Slave AXI4_WRITE received: ID=0xe ADDR=0x24eb2990 LEN=0
# UVM_INFO ../src/mst/axi4_master_monitor.sv(210) @ 635000: uvm_test_top.env.master_agent.mon [axi4_master_monitor] Write complete: ID=0xe ADDR=0x24eb2990 RESP=AXI4_RESP_OKAY
# UVM_INFO ../src/env/axi4_scoreboard.sv(82) @ 635000: uvm_test_top.env.scb [axi4_scoreboard] Master AXI4_WRITE received: ID=0xe ADDR=0x24eb2990 LEN=0
# UVM_INFO ../src/env/axi4_scoreboard.sv(154) @ 635000: uvm_test_top.env.scb [axi4_scoreboard] [WRITE] MATCH #9: ID=0xe ADDR=0x24eb2990 LEN=0
# UVM_INFO ../src/seq/axi4_exclusive_seq.sv(93) @ 635000: uvm_test_top.env.master_agent.sqr@@excl_seq [axi4_exclusive_seq] Failing Exclusive Write complete: RESP=AXI4_RESP_OKAY (Expected OKAY, no EXOKAY)
# UVM_INFO ../src/seq/axi4_exclusive_seq.sv(44) @ 635000: uvm_test_top.env.master_agent.sqr@@excl_seq [axi4_exclusive_seq] [4/10] Running Exclusive Read-Write pair to ADDR=0x636893a4 ID=0xa
# UVM_INFO ../src/mst/axi4_master_driver.sv(55) @ 635000: uvm_test_top.env.master_agent.drv [axi4_master_driver] Driving AXI4_READ  ID=0xa  ADDR=0x636893a4  LEN=0
# UVM_INFO ../src/slv/axi4_slave_driver.sv(302) @ 665000: uvm_test_top.env.slave_agent.drv [axi4_slave_driver] AR received: ID=0xa ADDR=0x636893a4 LEN=0 LOCK=AXI4_LOCK_EXCLUSIVE
# UVM_INFO ../src/mst/axi4_master_monitor.sv(246) @ 665000: uvm_test_top.env.master_agent.mon [axi4_master_monitor] AR observed: ID=0xa ADDR=0x636893a4 LEN=0
# UVM_INFO ../src/slv/axi4_slave_monitor.sv(224) @ 665000: uvm_test_top.env.slave_agent.mon [axi4_slave_monitor] AR received: ID=0xa ADDR=0x636893a4 LEN=0
# UVM_INFO ../src/mst/axi4_master_driver.sv(254) @ 685000: uvm_test_top.env.master_agent.drv [axi4_master_driver] Read complete: 1 beats received
# UVM_INFO ../src/slv/axi4_slave_driver.sv(356) @ 685000: uvm_test_top.env.slave_agent.drv [axi4_slave_driver] Read complete: ID=0xa ADDR=0x636893a4 RESP=AXI4_RESP_EXOKAY  1 beats sent
# UVM_INFO ../src/mst/axi4_master_monitor.sv(314) @ 685000: uvm_test_top.env.master_agent.mon [axi4_master_monitor] Read complete: ID=0xa ADDR=0x636893a4 1 beats
# UVM_INFO ../src/env/axi4_scoreboard.sv(82) @ 685000: uvm_test_top.env.scb [axi4_scoreboard] Master AXI4_READ received: ID=0xa ADDR=0x636893a4 LEN=0
# UVM_INFO ../src/slv/axi4_slave_monitor.sv(287) @ 685000: uvm_test_top.env.slave_agent.mon [axi4_slave_monitor] Read data sent: ID=0xa ADDR=0x636893a4 1 beats
# UVM_INFO ../src/env/axi4_scoreboard.sv(103) @ 685000: uvm_test_top.env.scb [axi4_scoreboard] Slave AXI4_READ received: ID=0xa ADDR=0x636893a4 LEN=0
# UVM_INFO ../src/env/axi4_scoreboard.sv(154) @ 685000: uvm_test_top.env.scb [axi4_scoreboard] [READ] MATCH #10: ID=0xa ADDR=0x636893a4 LEN=0
# UVM_INFO ../src/seq/axi4_exclusive_seq.sv(60) @ 685000: uvm_test_top.env.master_agent.sqr@@excl_seq [axi4_exclusive_seq] Exclusive Read complete: RESP=AXI4_RESP_EXOKAY
# UVM_INFO ../src/mst/axi4_master_driver.sv(55) @ 685000: uvm_test_top.env.master_agent.drv [axi4_master_driver] Driving AXI4_WRITE  ID=0xa  ADDR=0x636893a4  LEN=0
# UVM_INFO ../src/mst/axi4_master_driver.sv(94) @ 685000: uvm_test_top.env.master_agent.drv [axi4_master_driver] Write order: AW || W (parallel)
# UVM_INFO ../src/slv/axi4_slave_driver.sv(165) @ 715000: uvm_test_top.env.slave_agent.drv [axi4_slave_driver] AW received: ID=0xa ADDR=0x636893a4 LEN=0 LOCK=AXI4_LOCK_EXCLUSIVE
# UVM_INFO ../src/slv/axi4_slave_monitor.sv(116) @ 715000: uvm_test_top.env.slave_agent.mon [axi4_slave_monitor] AW received: ID=0xa ADDR=0x636893a4 LEN=0
# UVM_INFO ../src/mst/axi4_master_monitor.sv(124) @ 715000: uvm_test_top.env.master_agent.mon [axi4_master_monitor] AW observed: ID=0xa ADDR=0x636893a4 LEN=0
# UVM_INFO ../src/slv/axi4_slave_monitor.sv(167) @ 715000: uvm_test_top.env.slave_agent.mon [axi4_slave_monitor] W data assembled: ID=0xa ADDR=0x636893a4 1 beats
# UVM_INFO ../src/mst/axi4_master_monitor.sv(184) @ 715000: uvm_test_top.env.master_agent.mon [axi4_master_monitor] W data assembled: ID=0xa ADDR=0x636893a4 1 beats
# UVM_INFO ../src/mst/axi4_master_driver.sv(197) @ 735000: uvm_test_top.env.master_agent.drv [axi4_master_driver] Write response: AXI4_RESP_EXOKAY
# UVM_INFO ../src/slv/axi4_slave_driver.sv(263) @ 735000: uvm_test_top.env.slave_agent.drv [axi4_slave_driver] Write complete: ID=0xa ADDR=0x636893a4 RESP=AXI4_RESP_EXOKAY  1 beats processed
# UVM_INFO ../src/slv/axi4_slave_monitor.sv(189) @ 735000: uvm_test_top.env.slave_agent.mon [axi4_slave_monitor] Write response sent: ID=0xa ADDR=0x636893a4 RESP=AXI4_RESP_EXOKAY
# UVM_INFO ../src/env/axi4_scoreboard.sv(103) @ 735000: uvm_test_top.env.scb [axi4_scoreboard] Slave AXI4_WRITE received: ID=0xa ADDR=0x636893a4 LEN=0
# UVM_INFO ../src/mst/axi4_master_monitor.sv(210) @ 735000: uvm_test_top.env.master_agent.mon [axi4_master_monitor] Write complete: ID=0xa ADDR=0x636893a4 RESP=AXI4_RESP_EXOKAY
# UVM_INFO ../src/env/axi4_scoreboard.sv(82) @ 735000: uvm_test_top.env.scb [axi4_scoreboard] Master AXI4_WRITE received: ID=0xa ADDR=0x636893a4 LEN=0
# UVM_INFO ../src/env/axi4_scoreboard.sv(154) @ 735000: uvm_test_top.env.scb [axi4_scoreboard] [WRITE] MATCH #11: ID=0xa ADDR=0x636893a4 LEN=0
# UVM_INFO ../src/seq/axi4_exclusive_seq.sv(76) @ 735000: uvm_test_top.env.master_agent.sqr@@excl_seq [axi4_exclusive_seq] Exclusive Write complete: RESP=AXI4_RESP_EXOKAY
# UVM_INFO ../src/mst/axi4_master_driver.sv(55) @ 735000: uvm_test_top.env.master_agent.drv [axi4_master_driver] Driving AXI4_WRITE  ID=0xa  ADDR=0x636893a4  LEN=0
# UVM_INFO ../src/mst/axi4_master_driver.sv(94) @ 735000: uvm_test_top.env.master_agent.drv [axi4_master_driver] Write order: AW || W (parallel)
# UVM_INFO ../src/slv/axi4_slave_driver.sv(165) @ 765000: uvm_test_top.env.slave_agent.drv [axi4_slave_driver] AW received: ID=0xa ADDR=0x636893a4 LEN=0 LOCK=AXI4_LOCK_EXCLUSIVE
# UVM_INFO ../src/mst/axi4_master_monitor.sv(124) @ 765000: uvm_test_top.env.master_agent.mon [axi4_master_monitor] AW observed: ID=0xa ADDR=0x636893a4 LEN=0
# UVM_INFO ../src/slv/axi4_slave_monitor.sv(116) @ 765000: uvm_test_top.env.slave_agent.mon [axi4_slave_monitor] AW received: ID=0xa ADDR=0x636893a4 LEN=0
# UVM_INFO ../src/mst/axi4_master_monitor.sv(184) @ 765000: uvm_test_top.env.master_agent.mon [axi4_master_monitor] W data assembled: ID=0xa ADDR=0x636893a4 1 beats
# UVM_INFO ../src/slv/axi4_slave_monitor.sv(167) @ 765000: uvm_test_top.env.slave_agent.mon [axi4_slave_monitor] W data assembled: ID=0xa ADDR=0x636893a4 1 beats
# UVM_INFO ../src/mst/axi4_master_driver.sv(197) @ 785000: uvm_test_top.env.master_agent.drv [axi4_master_driver] Write response: AXI4_RESP_OKAY
# UVM_INFO ../src/slv/axi4_slave_driver.sv(263) @ 785000: uvm_test_top.env.slave_agent.drv [axi4_slave_driver] Write complete: ID=0xa ADDR=0x636893a4 RESP=AXI4_RESP_OKAY  1 beats processed
# UVM_INFO ../src/mst/axi4_master_monitor.sv(210) @ 785000: uvm_test_top.env.master_agent.mon [axi4_master_monitor] Write complete: ID=0xa ADDR=0x636893a4 RESP=AXI4_RESP_OKAY
# UVM_INFO ../src/env/axi4_scoreboard.sv(82) @ 785000: uvm_test_top.env.scb [axi4_scoreboard] Master AXI4_WRITE received: ID=0xa ADDR=0x636893a4 LEN=0
# UVM_INFO ../src/slv/axi4_slave_monitor.sv(189) @ 785000: uvm_test_top.env.slave_agent.mon [axi4_slave_monitor] Write response sent: ID=0xa ADDR=0x636893a4 RESP=AXI4_RESP_OKAY
# UVM_INFO ../src/env/axi4_scoreboard.sv(103) @ 785000: uvm_test_top.env.scb [axi4_scoreboard] Slave AXI4_WRITE received: ID=0xa ADDR=0x636893a4 LEN=0
# UVM_INFO ../src/env/axi4_scoreboard.sv(154) @ 785000: uvm_test_top.env.scb [axi4_scoreboard] [WRITE] MATCH #12: ID=0xa ADDR=0x636893a4 LEN=0
# UVM_INFO ../src/seq/axi4_exclusive_seq.sv(93) @ 785000: uvm_test_top.env.master_agent.sqr@@excl_seq [axi4_exclusive_seq] Failing Exclusive Write complete: RESP=AXI4_RESP_OKAY (Expected OKAY, no EXOKAY)
# UVM_INFO ../src/seq/axi4_exclusive_seq.sv(44) @ 785000: uvm_test_top.env.master_agent.sqr@@excl_seq [axi4_exclusive_seq] [5/10] Running Exclusive Read-Write pair to ADDR=0x74126a28 ID=0x4
# UVM_INFO ../src/mst/axi4_master_driver.sv(55) @ 785000: uvm_test_top.env.master_agent.drv [axi4_master_driver] Driving AXI4_READ  ID=0x4  ADDR=0x74126a28  LEN=0
# UVM_INFO ../src/slv/axi4_slave_driver.sv(302) @ 815000: uvm_test_top.env.slave_agent.drv [axi4_slave_driver] AR received: ID=0x4 ADDR=0x74126a28 LEN=0 LOCK=AXI4_LOCK_EXCLUSIVE
# UVM_INFO ../src/slv/axi4_slave_monitor.sv(224) @ 815000: uvm_test_top.env.slave_agent.mon [axi4_slave_monitor] AR received: ID=0x4 ADDR=0x74126a28 LEN=0
# UVM_INFO ../src/mst/axi4_master_monitor.sv(246) @ 815000: uvm_test_top.env.master_agent.mon [axi4_master_monitor] AR observed: ID=0x4 ADDR=0x74126a28 LEN=0
# UVM_INFO ../src/mst/axi4_master_driver.sv(254) @ 835000: uvm_test_top.env.master_agent.drv [axi4_master_driver] Read complete: 1 beats received
# UVM_INFO ../src/slv/axi4_slave_driver.sv(356) @ 835000: uvm_test_top.env.slave_agent.drv [axi4_slave_driver] Read complete: ID=0x4 ADDR=0x74126a28 RESP=AXI4_RESP_EXOKAY  1 beats sent
# UVM_INFO ../src/slv/axi4_slave_monitor.sv(287) @ 835000: uvm_test_top.env.slave_agent.mon [axi4_slave_monitor] Read data sent: ID=0x4 ADDR=0x74126a28 1 beats
# UVM_INFO ../src/env/axi4_scoreboard.sv(103) @ 835000: uvm_test_top.env.scb [axi4_scoreboard] Slave AXI4_READ received: ID=0x4 ADDR=0x74126a28 LEN=0
# UVM_INFO ../src/mst/axi4_master_monitor.sv(314) @ 835000: uvm_test_top.env.master_agent.mon [axi4_master_monitor] Read complete: ID=0x4 ADDR=0x74126a28 1 beats
# UVM_INFO ../src/env/axi4_scoreboard.sv(82) @ 835000: uvm_test_top.env.scb [axi4_scoreboard] Master AXI4_READ received: ID=0x4 ADDR=0x74126a28 LEN=0
# UVM_INFO ../src/env/axi4_scoreboard.sv(154) @ 835000: uvm_test_top.env.scb [axi4_scoreboard] [READ] MATCH #13: ID=0x4 ADDR=0x74126a28 LEN=0
# UVM_INFO ../src/seq/axi4_exclusive_seq.sv(60) @ 835000: uvm_test_top.env.master_agent.sqr@@excl_seq [axi4_exclusive_seq] Exclusive Read complete: RESP=AXI4_RESP_EXOKAY
# UVM_INFO ../src/mst/axi4_master_driver.sv(55) @ 835000: uvm_test_top.env.master_agent.drv [axi4_master_driver] Driving AXI4_WRITE  ID=0x4  ADDR=0x74126a28  LEN=0
# UVM_INFO ../src/mst/axi4_master_driver.sv(94) @ 835000: uvm_test_top.env.master_agent.drv [axi4_master_driver] Write order: AW || W (parallel)
# UVM_INFO ../src/slv/axi4_slave_driver.sv(165) @ 865000: uvm_test_top.env.slave_agent.drv [axi4_slave_driver] AW received: ID=0x4 ADDR=0x74126a28 LEN=0 LOCK=AXI4_LOCK_EXCLUSIVE
# UVM_INFO ../src/mst/axi4_master_monitor.sv(124) @ 865000: uvm_test_top.env.master_agent.mon [axi4_master_monitor] AW observed: ID=0x4 ADDR=0x74126a28 LEN=0
# UVM_INFO ../src/slv/axi4_slave_monitor.sv(116) @ 865000: uvm_test_top.env.slave_agent.mon [axi4_slave_monitor] AW received: ID=0x4 ADDR=0x74126a28 LEN=0
# UVM_INFO ../src/mst/axi4_master_monitor.sv(184) @ 865000: uvm_test_top.env.master_agent.mon [axi4_master_monitor] W data assembled: ID=0x4 ADDR=0x74126a28 1 beats
# UVM_INFO ../src/slv/axi4_slave_monitor.sv(167) @ 865000: uvm_test_top.env.slave_agent.mon [axi4_slave_monitor] W data assembled: ID=0x4 ADDR=0x74126a28 1 beats
# UVM_INFO ../src/mst/axi4_master_driver.sv(197) @ 885000: uvm_test_top.env.master_agent.drv [axi4_master_driver] Write response: AXI4_RESP_EXOKAY
# UVM_INFO ../src/slv/axi4_slave_driver.sv(263) @ 885000: uvm_test_top.env.slave_agent.drv [axi4_slave_driver] Write complete: ID=0x4 ADDR=0x74126a28 RESP=AXI4_RESP_EXOKAY  1 beats processed
# UVM_INFO ../src/mst/axi4_master_monitor.sv(210) @ 885000: uvm_test_top.env.master_agent.mon [axi4_master_monitor] Write complete: ID=0x4 ADDR=0x74126a28 RESP=AXI4_RESP_EXOKAY
# UVM_INFO ../src/env/axi4_scoreboard.sv(82) @ 885000: uvm_test_top.env.scb [axi4_scoreboard] Master AXI4_WRITE received: ID=0x4 ADDR=0x74126a28 LEN=0
# UVM_INFO ../src/slv/axi4_slave_monitor.sv(189) @ 885000: uvm_test_top.env.slave_agent.mon [axi4_slave_monitor] Write response sent: ID=0x4 ADDR=0x74126a28 RESP=AXI4_RESP_EXOKAY
# UVM_INFO ../src/env/axi4_scoreboard.sv(103) @ 885000: uvm_test_top.env.scb [axi4_scoreboard] Slave AXI4_WRITE received: ID=0x4 ADDR=0x74126a28 LEN=0
# UVM_INFO ../src/env/axi4_scoreboard.sv(154) @ 885000: uvm_test_top.env.scb [axi4_scoreboard] [WRITE] MATCH #14: ID=0x4 ADDR=0x74126a28 LEN=0
# UVM_INFO ../src/seq/axi4_exclusive_seq.sv(76) @ 885000: uvm_test_top.env.master_agent.sqr@@excl_seq [axi4_exclusive_seq] Exclusive Write complete: RESP=AXI4_RESP_EXOKAY
# UVM_INFO ../src/mst/axi4_master_driver.sv(55) @ 885000: uvm_test_top.env.master_agent.drv [axi4_master_driver] Driving AXI4_WRITE  ID=0x4  ADDR=0x74126a28  LEN=0
# UVM_INFO ../src/mst/axi4_master_driver.sv(101) @ 885000: uvm_test_top.env.master_agent.drv [axi4_master_driver] Write order: AW -> W (sequential)
# UVM_INFO ../src/slv/axi4_slave_driver.sv(165) @ 915000: uvm_test_top.env.slave_agent.drv [axi4_slave_driver] AW received: ID=0x4 ADDR=0x74126a28 LEN=0 LOCK=AXI4_LOCK_EXCLUSIVE
# UVM_INFO ../src/slv/axi4_slave_monitor.sv(116) @ 915000: uvm_test_top.env.slave_agent.mon [axi4_slave_monitor] AW received: ID=0x4 ADDR=0x74126a28 LEN=0
# UVM_INFO ../src/mst/axi4_master_monitor.sv(124) @ 915000: uvm_test_top.env.master_agent.mon [axi4_master_monitor] AW observed: ID=0x4 ADDR=0x74126a28 LEN=0
# UVM_INFO ../src/slv/axi4_slave_monitor.sv(167) @ 935000: uvm_test_top.env.slave_agent.mon [axi4_slave_monitor] W data assembled: ID=0x4 ADDR=0x74126a28 1 beats
# UVM_INFO ../src/mst/axi4_master_monitor.sv(184) @ 935000: uvm_test_top.env.master_agent.mon [axi4_master_monitor] W data assembled: ID=0x4 ADDR=0x74126a28 1 beats
# UVM_INFO ../src/mst/axi4_master_driver.sv(197) @ 965000: uvm_test_top.env.master_agent.drv [axi4_master_driver] Write response: AXI4_RESP_OKAY
# UVM_INFO ../src/slv/axi4_slave_driver.sv(263) @ 965000: uvm_test_top.env.slave_agent.drv [axi4_slave_driver] Write complete: ID=0x4 ADDR=0x74126a28 RESP=AXI4_RESP_OKAY  1 beats processed
# UVM_INFO ../src/mst/axi4_master_monitor.sv(210) @ 965000: uvm_test_top.env.master_agent.mon [axi4_master_monitor] Write complete: ID=0x4 ADDR=0x74126a28 RESP=AXI4_RESP_OKAY
# UVM_INFO ../src/env/axi4_scoreboard.sv(82) @ 965000: uvm_test_top.env.scb [axi4_scoreboard] Master AXI4_WRITE received: ID=0x4 ADDR=0x74126a28 LEN=0
# UVM_INFO ../src/slv/axi4_slave_monitor.sv(189) @ 965000: uvm_test_top.env.slave_agent.mon [axi4_slave_monitor] Write response sent: ID=0x4 ADDR=0x74126a28 RESP=AXI4_RESP_OKAY
# UVM_INFO ../src/env/axi4_scoreboard.sv(103) @ 965000: uvm_test_top.env.scb [axi4_scoreboard] Slave AXI4_WRITE received: ID=0x4 ADDR=0x74126a28 LEN=0
# UVM_INFO ../src/env/axi4_scoreboard.sv(154) @ 965000: uvm_test_top.env.scb [axi4_scoreboard] [WRITE] MATCH #15: ID=0x4 ADDR=0x74126a28 LEN=0
# UVM_INFO ../src/seq/axi4_exclusive_seq.sv(93) @ 965000: uvm_test_top.env.master_agent.sqr@@excl_seq [axi4_exclusive_seq] Failing Exclusive Write complete: RESP=AXI4_RESP_OKAY (Expected OKAY, no EXOKAY)
# UVM_INFO ../src/seq/axi4_exclusive_seq.sv(44) @ 965000: uvm_test_top.env.master_agent.sqr@@excl_seq [axi4_exclusive_seq] [6/10] Running Exclusive Read-Write pair to ADDR=0x9ab147b8 ID=0x1
# UVM_INFO ../src/mst/axi4_master_driver.sv(55) @ 965000: uvm_test_top.env.master_agent.drv [axi4_master_driver] Driving AXI4_READ  ID=0x1  ADDR=0x9ab147b8  LEN=0
# UVM_INFO ../src/slv/axi4_slave_driver.sv(302) @ 995000: uvm_test_top.env.slave_agent.drv [axi4_slave_driver] AR received: ID=0x1 ADDR=0x9ab147b8 LEN=0 LOCK=AXI4_LOCK_EXCLUSIVE
# UVM_INFO ../src/slv/axi4_slave_monitor.sv(224) @ 995000: uvm_test_top.env.slave_agent.mon [axi4_slave_monitor] AR received: ID=0x1 ADDR=0x9ab147b8 LEN=0
# UVM_INFO ../src/mst/axi4_master_monitor.sv(246) @ 995000: uvm_test_top.env.master_agent.mon [axi4_master_monitor] AR observed: ID=0x1 ADDR=0x9ab147b8 LEN=0
# UVM_INFO ../src/mst/axi4_master_driver.sv(254) @ 1015000: uvm_test_top.env.master_agent.drv [axi4_master_driver] Read complete: 1 beats received
# UVM_INFO ../src/slv/axi4_slave_driver.sv(356) @ 1015000: uvm_test_top.env.slave_agent.drv [axi4_slave_driver] Read complete: ID=0x1 ADDR=0x9ab147b8 RESP=AXI4_RESP_EXOKAY  1 beats sent
# UVM_INFO ../src/slv/axi4_slave_monitor.sv(287) @ 1015000: uvm_test_top.env.slave_agent.mon [axi4_slave_monitor] Read data sent: ID=0x1 ADDR=0x9ab147b8 1 beats
# UVM_INFO ../src/env/axi4_scoreboard.sv(103) @ 1015000: uvm_test_top.env.scb [axi4_scoreboard] Slave AXI4_READ received: ID=0x1 ADDR=0x9ab147b8 LEN=0
# UVM_INFO ../src/mst/axi4_master_monitor.sv(314) @ 1015000: uvm_test_top.env.master_agent.mon [axi4_master_monitor] Read complete: ID=0x1 ADDR=0x9ab147b8 1 beats
# UVM_INFO ../src/env/axi4_scoreboard.sv(82) @ 1015000: uvm_test_top.env.scb [axi4_scoreboard] Master AXI4_READ received: ID=0x1 ADDR=0x9ab147b8 LEN=0
# UVM_INFO ../src/env/axi4_scoreboard.sv(154) @ 1015000: uvm_test_top.env.scb [axi4_scoreboard] [READ] MATCH #16: ID=0x1 ADDR=0x9ab147b8 LEN=0
# UVM_INFO ../src/seq/axi4_exclusive_seq.sv(60) @ 1015000: uvm_test_top.env.master_agent.sqr@@excl_seq [axi4_exclusive_seq] Exclusive Read complete: RESP=AXI4_RESP_EXOKAY
# UVM_INFO ../src/mst/axi4_master_driver.sv(55) @ 1015000: uvm_test_top.env.master_agent.drv [axi4_master_driver] Driving AXI4_WRITE  ID=0x1  ADDR=0x9ab147b8  LEN=0
# UVM_INFO ../src/mst/axi4_master_driver.sv(106) @ 1015000: uvm_test_top.env.master_agent.drv [axi4_master_driver] Write order: W -> AW (W first)
# UVM_INFO ../src/slv/axi4_slave_driver.sv(165) @ 1075000: uvm_test_top.env.slave_agent.drv [axi4_slave_driver] AW received: ID=0x1 ADDR=0x9ab147b8 LEN=0 LOCK=AXI4_LOCK_EXCLUSIVE
# UVM_INFO ../src/slv/axi4_slave_monitor.sv(116) @ 1075000: uvm_test_top.env.slave_agent.mon [axi4_slave_monitor] AW received: ID=0x1 ADDR=0x9ab147b8 LEN=0
# UVM_INFO ../src/mst/axi4_master_monitor.sv(124) @ 1075000: uvm_test_top.env.master_agent.mon [axi4_master_monitor] AW observed: ID=0x1 ADDR=0x9ab147b8 LEN=0
# UVM_INFO ../src/slv/axi4_slave_monitor.sv(167) @ 1075000: uvm_test_top.env.slave_agent.mon [axi4_slave_monitor] W data assembled: ID=0x1 ADDR=0x9ab147b8 1 beats
# UVM_INFO ../src/mst/axi4_master_monitor.sv(184) @ 1075000: uvm_test_top.env.master_agent.mon [axi4_master_monitor] W data assembled: ID=0x1 ADDR=0x9ab147b8 1 beats
# UVM_INFO ../src/mst/axi4_master_driver.sv(197) @ 1095000: uvm_test_top.env.master_agent.drv [axi4_master_driver] Write response: AXI4_RESP_EXOKAY
# UVM_INFO ../src/slv/axi4_slave_driver.sv(263) @ 1095000: uvm_test_top.env.slave_agent.drv [axi4_slave_driver] Write complete: ID=0x1 ADDR=0x9ab147b8 RESP=AXI4_RESP_EXOKAY  1 beats processed
# UVM_INFO ../src/slv/axi4_slave_monitor.sv(189) @ 1095000: uvm_test_top.env.slave_agent.mon [axi4_slave_monitor] Write response sent: ID=0x1 ADDR=0x9ab147b8 RESP=AXI4_RESP_EXOKAY
# UVM_INFO ../src/env/axi4_scoreboard.sv(103) @ 1095000: uvm_test_top.env.scb [axi4_scoreboard] Slave AXI4_WRITE received: ID=0x1 ADDR=0x9ab147b8 LEN=0
# UVM_INFO ../src/mst/axi4_master_monitor.sv(210) @ 1095000: uvm_test_top.env.master_agent.mon [axi4_master_monitor] Write complete: ID=0x1 ADDR=0x9ab147b8 RESP=AXI4_RESP_EXOKAY
# UVM_INFO ../src/env/axi4_scoreboard.sv(82) @ 1095000: uvm_test_top.env.scb [axi4_scoreboard] Master AXI4_WRITE received: ID=0x1 ADDR=0x9ab147b8 LEN=0
# UVM_INFO ../src/env/axi4_scoreboard.sv(154) @ 1095000: uvm_test_top.env.scb [axi4_scoreboard] [WRITE] MATCH #17: ID=0x1 ADDR=0x9ab147b8 LEN=0
# UVM_INFO ../src/seq/axi4_exclusive_seq.sv(76) @ 1095000: uvm_test_top.env.master_agent.sqr@@excl_seq [axi4_exclusive_seq] Exclusive Write complete: RESP=AXI4_RESP_EXOKAY
# UVM_INFO ../src/mst/axi4_master_driver.sv(55) @ 1095000: uvm_test_top.env.master_agent.drv [axi4_master_driver] Driving AXI4_WRITE  ID=0x1  ADDR=0x9ab147b8  LEN=0
# UVM_INFO ../src/mst/axi4_master_driver.sv(94) @ 1095000: uvm_test_top.env.master_agent.drv [axi4_master_driver] Write order: AW || W (parallel)
# UVM_INFO ../src/slv/axi4_slave_driver.sv(165) @ 1125000: uvm_test_top.env.slave_agent.drv [axi4_slave_driver] AW received: ID=0x1 ADDR=0x9ab147b8 LEN=0 LOCK=AXI4_LOCK_EXCLUSIVE
# UVM_INFO ../src/mst/axi4_master_monitor.sv(124) @ 1125000: uvm_test_top.env.master_agent.mon [axi4_master_monitor] AW observed: ID=0x1 ADDR=0x9ab147b8 LEN=0
# UVM_INFO ../src/slv/axi4_slave_monitor.sv(116) @ 1125000: uvm_test_top.env.slave_agent.mon [axi4_slave_monitor] AW received: ID=0x1 ADDR=0x9ab147b8 LEN=0
# UVM_INFO ../src/mst/axi4_master_monitor.sv(184) @ 1125000: uvm_test_top.env.master_agent.mon [axi4_master_monitor] W data assembled: ID=0x1 ADDR=0x9ab147b8 1 beats
# UVM_INFO ../src/slv/axi4_slave_monitor.sv(167) @ 1125000: uvm_test_top.env.slave_agent.mon [axi4_slave_monitor] W data assembled: ID=0x1 ADDR=0x9ab147b8 1 beats
# UVM_INFO ../src/mst/axi4_master_driver.sv(197) @ 1145000: uvm_test_top.env.master_agent.drv [axi4_master_driver] Write response: AXI4_RESP_OKAY
# UVM_INFO ../src/slv/axi4_slave_driver.sv(263) @ 1145000: uvm_test_top.env.slave_agent.drv [axi4_slave_driver] Write complete: ID=0x1 ADDR=0x9ab147b8 RESP=AXI4_RESP_OKAY  1 beats processed
# UVM_INFO ../src/mst/axi4_master_monitor.sv(210) @ 1145000: uvm_test_top.env.master_agent.mon [axi4_master_monitor] Write complete: ID=0x1 ADDR=0x9ab147b8 RESP=AXI4_RESP_OKAY
# UVM_INFO ../src/env/axi4_scoreboard.sv(82) @ 1145000: uvm_test_top.env.scb [axi4_scoreboard] Master AXI4_WRITE received: ID=0x1 ADDR=0x9ab147b8 LEN=0
# UVM_INFO ../src/slv/axi4_slave_monitor.sv(189) @ 1145000: uvm_test_top.env.slave_agent.mon [axi4_slave_monitor] Write response sent: ID=0x1 ADDR=0x9ab147b8 RESP=AXI4_RESP_OKAY
# UVM_INFO ../src/env/axi4_scoreboard.sv(103) @ 1145000: uvm_test_top.env.scb [axi4_scoreboard] Slave AXI4_WRITE received: ID=0x1 ADDR=0x9ab147b8 LEN=0
# UVM_INFO ../src/env/axi4_scoreboard.sv(154) @ 1145000: uvm_test_top.env.scb [axi4_scoreboard] [WRITE] MATCH #18: ID=0x1 ADDR=0x9ab147b8 LEN=0
# UVM_INFO ../src/seq/axi4_exclusive_seq.sv(93) @ 1145000: uvm_test_top.env.master_agent.sqr@@excl_seq [axi4_exclusive_seq] Failing Exclusive Write complete: RESP=AXI4_RESP_OKAY (Expected OKAY, no EXOKAY)
# UVM_INFO ../src/seq/axi4_exclusive_seq.sv(44) @ 1145000: uvm_test_top.env.master_agent.sqr@@excl_seq [axi4_exclusive_seq] [7/10] Running Exclusive Read-Write pair to ADDR=0x05a5e994 ID=0xa
# UVM_INFO ../src/mst/axi4_master_driver.sv(55) @ 1145000: uvm_test_top.env.master_agent.drv [axi4_master_driver] Driving AXI4_READ  ID=0xa  ADDR=0x05a5e994  LEN=0
# UVM_INFO ../src/slv/axi4_slave_driver.sv(302) @ 1175000: uvm_test_top.env.slave_agent.drv [axi4_slave_driver] AR received: ID=0xa ADDR=0x05a5e994 LEN=0 LOCK=AXI4_LOCK_EXCLUSIVE
# UVM_INFO ../src/slv/axi4_slave_monitor.sv(224) @ 1175000: uvm_test_top.env.slave_agent.mon [axi4_slave_monitor] AR received: ID=0xa ADDR=0x05a5e994 LEN=0
# UVM_INFO ../src/mst/axi4_master_monitor.sv(246) @ 1175000: uvm_test_top.env.master_agent.mon [axi4_master_monitor] AR observed: ID=0xa ADDR=0x05a5e994 LEN=0
# UVM_INFO ../src/mst/axi4_master_driver.sv(254) @ 1195000: uvm_test_top.env.master_agent.drv [axi4_master_driver] Read complete: 1 beats received
# UVM_INFO ../src/slv/axi4_slave_driver.sv(356) @ 1195000: uvm_test_top.env.slave_agent.drv [axi4_slave_driver] Read complete: ID=0xa ADDR=0x05a5e994 RESP=AXI4_RESP_EXOKAY  1 beats sent
# UVM_INFO ../src/slv/axi4_slave_monitor.sv(287) @ 1195000: uvm_test_top.env.slave_agent.mon [axi4_slave_monitor] Read data sent: ID=0xa ADDR=0x05a5e994 1 beats
# UVM_INFO ../src/env/axi4_scoreboard.sv(103) @ 1195000: uvm_test_top.env.scb [axi4_scoreboard] Slave AXI4_READ received: ID=0xa ADDR=0x05a5e994 LEN=0
# UVM_INFO ../src/mst/axi4_master_monitor.sv(314) @ 1195000: uvm_test_top.env.master_agent.mon [axi4_master_monitor] Read complete: ID=0xa ADDR=0x05a5e994 1 beats
# UVM_INFO ../src/env/axi4_scoreboard.sv(82) @ 1195000: uvm_test_top.env.scb [axi4_scoreboard] Master AXI4_READ received: ID=0xa ADDR=0x05a5e994 LEN=0
# UVM_INFO ../src/env/axi4_scoreboard.sv(154) @ 1195000: uvm_test_top.env.scb [axi4_scoreboard] [READ] MATCH #19: ID=0xa ADDR=0x05a5e994 LEN=0
# UVM_INFO ../src/seq/axi4_exclusive_seq.sv(60) @ 1195000: uvm_test_top.env.master_agent.sqr@@excl_seq [axi4_exclusive_seq] Exclusive Read complete: RESP=AXI4_RESP_EXOKAY
# UVM_INFO ../src/mst/axi4_master_driver.sv(55) @ 1195000: uvm_test_top.env.master_agent.drv [axi4_master_driver] Driving AXI4_WRITE  ID=0xa  ADDR=0x05a5e994  LEN=0
# UVM_INFO ../src/mst/axi4_master_driver.sv(94) @ 1195000: uvm_test_top.env.master_agent.drv [axi4_master_driver] Write order: AW || W (parallel)
# UVM_INFO ../src/slv/axi4_slave_driver.sv(165) @ 1225000: uvm_test_top.env.slave_agent.drv [axi4_slave_driver] AW received: ID=0xa ADDR=0x05a5e994 LEN=0 LOCK=AXI4_LOCK_EXCLUSIVE
# UVM_INFO ../src/mst/axi4_master_monitor.sv(124) @ 1225000: uvm_test_top.env.master_agent.mon [axi4_master_monitor] AW observed: ID=0xa ADDR=0x05a5e994 LEN=0
# UVM_INFO ../src/slv/axi4_slave_monitor.sv(116) @ 1225000: uvm_test_top.env.slave_agent.mon [axi4_slave_monitor] AW received: ID=0xa ADDR=0x05a5e994 LEN=0
# UVM_INFO ../src/mst/axi4_master_monitor.sv(184) @ 1225000: uvm_test_top.env.master_agent.mon [axi4_master_monitor] W data assembled: ID=0xa ADDR=0x05a5e994 1 beats
# UVM_INFO ../src/slv/axi4_slave_monitor.sv(167) @ 1225000: uvm_test_top.env.slave_agent.mon [axi4_slave_monitor] W data assembled: ID=0xa ADDR=0x05a5e994 1 beats
# UVM_INFO ../src/mst/axi4_master_driver.sv(197) @ 1245000: uvm_test_top.env.master_agent.drv [axi4_master_driver] Write response: AXI4_RESP_EXOKAY
# UVM_INFO ../src/slv/axi4_slave_driver.sv(263) @ 1245000: uvm_test_top.env.slave_agent.drv [axi4_slave_driver] Write complete: ID=0xa ADDR=0x05a5e994 RESP=AXI4_RESP_EXOKAY  1 beats processed
# UVM_INFO ../src/mst/axi4_master_monitor.sv(210) @ 1245000: uvm_test_top.env.master_agent.mon [axi4_master_monitor] Write complete: ID=0xa ADDR=0x05a5e994 RESP=AXI4_RESP_EXOKAY
# UVM_INFO ../src/env/axi4_scoreboard.sv(82) @ 1245000: uvm_test_top.env.scb [axi4_scoreboard] Master AXI4_WRITE received: ID=0xa ADDR=0x05a5e994 LEN=0
# UVM_INFO ../src/slv/axi4_slave_monitor.sv(189) @ 1245000: uvm_test_top.env.slave_agent.mon [axi4_slave_monitor] Write response sent: ID=0xa ADDR=0x05a5e994 RESP=AXI4_RESP_EXOKAY
# UVM_INFO ../src/env/axi4_scoreboard.sv(103) @ 1245000: uvm_test_top.env.scb [axi4_scoreboard] Slave AXI4_WRITE received: ID=0xa ADDR=0x05a5e994 LEN=0
# UVM_INFO ../src/env/axi4_scoreboard.sv(154) @ 1245000: uvm_test_top.env.scb [axi4_scoreboard] [WRITE] MATCH #20: ID=0xa ADDR=0x05a5e994 LEN=0
# UVM_INFO ../src/seq/axi4_exclusive_seq.sv(76) @ 1245000: uvm_test_top.env.master_agent.sqr@@excl_seq [axi4_exclusive_seq] Exclusive Write complete: RESP=AXI4_RESP_EXOKAY
# UVM_INFO ../src/mst/axi4_master_driver.sv(55) @ 1245000: uvm_test_top.env.master_agent.drv [axi4_master_driver] Driving AXI4_WRITE  ID=0xa  ADDR=0x05a5e994  LEN=0
# UVM_INFO ../src/mst/axi4_master_driver.sv(106) @ 1245000: uvm_test_top.env.master_agent.drv [axi4_master_driver] Write order: W -> AW (W first)
# UVM_INFO ../src/slv/axi4_slave_driver.sv(165) @ 1315000: uvm_test_top.env.slave_agent.drv [axi4_slave_driver] AW received: ID=0xa ADDR=0x05a5e994 LEN=0 LOCK=AXI4_LOCK_EXCLUSIVE
# UVM_INFO ../src/slv/axi4_slave_monitor.sv(116) @ 1315000: uvm_test_top.env.slave_agent.mon [axi4_slave_monitor] AW received: ID=0xa ADDR=0x05a5e994 LEN=0
# UVM_INFO ../src/mst/axi4_master_monitor.sv(124) @ 1315000: uvm_test_top.env.master_agent.mon [axi4_master_monitor] AW observed: ID=0xa ADDR=0x05a5e994 LEN=0
# UVM_INFO ../src/slv/axi4_slave_monitor.sv(167) @ 1315000: uvm_test_top.env.slave_agent.mon [axi4_slave_monitor] W data assembled: ID=0xa ADDR=0x05a5e994 1 beats
# UVM_INFO ../src/mst/axi4_master_monitor.sv(184) @ 1315000: uvm_test_top.env.master_agent.mon [axi4_master_monitor] W data assembled: ID=0xa ADDR=0x05a5e994 1 beats
# UVM_INFO ../src/mst/axi4_master_driver.sv(197) @ 1335000: uvm_test_top.env.master_agent.drv [axi4_master_driver] Write response: AXI4_RESP_OKAY
# UVM_INFO ../src/slv/axi4_slave_driver.sv(263) @ 1335000: uvm_test_top.env.slave_agent.drv [axi4_slave_driver] Write complete: ID=0xa ADDR=0x05a5e994 RESP=AXI4_RESP_OKAY  1 beats processed
# UVM_INFO ../src/slv/axi4_slave_monitor.sv(189) @ 1335000: uvm_test_top.env.slave_agent.mon [axi4_slave_monitor] Write response sent: ID=0xa ADDR=0x05a5e994 RESP=AXI4_RESP_OKAY
# UVM_INFO ../src/env/axi4_scoreboard.sv(103) @ 1335000: uvm_test_top.env.scb [axi4_scoreboard] Slave AXI4_WRITE received: ID=0xa ADDR=0x05a5e994 LEN=0
# UVM_INFO ../src/mst/axi4_master_monitor.sv(210) @ 1335000: uvm_test_top.env.master_agent.mon [axi4_master_monitor] Write complete: ID=0xa ADDR=0x05a5e994 RESP=AXI4_RESP_OKAY
# UVM_INFO ../src/env/axi4_scoreboard.sv(82) @ 1335000: uvm_test_top.env.scb [axi4_scoreboard] Master AXI4_WRITE received: ID=0xa ADDR=0x05a5e994 LEN=0
# UVM_INFO ../src/env/axi4_scoreboard.sv(154) @ 1335000: uvm_test_top.env.scb [axi4_scoreboard] [WRITE] MATCH #21: ID=0xa ADDR=0x05a5e994 LEN=0
# UVM_INFO ../src/seq/axi4_exclusive_seq.sv(93) @ 1335000: uvm_test_top.env.master_agent.sqr@@excl_seq [axi4_exclusive_seq] Failing Exclusive Write complete: RESP=AXI4_RESP_OKAY (Expected OKAY, no EXOKAY)
# UVM_INFO ../src/seq/axi4_exclusive_seq.sv(44) @ 1335000: uvm_test_top.env.master_agent.sqr@@excl_seq [axi4_exclusive_seq] [8/10] Running Exclusive Read-Write pair to ADDR=0x54277bd0 ID=0x4
# UVM_INFO ../src/mst/axi4_master_driver.sv(55) @ 1335000: uvm_test_top.env.master_agent.drv [axi4_master_driver] Driving AXI4_READ  ID=0x4  ADDR=0x54277bd0  LEN=0
# UVM_INFO ../src/slv/axi4_slave_driver.sv(302) @ 1365000: uvm_test_top.env.slave_agent.drv [axi4_slave_driver] AR received: ID=0x4 ADDR=0x54277bd0 LEN=0 LOCK=AXI4_LOCK_EXCLUSIVE
# UVM_INFO ../src/mst/axi4_master_monitor.sv(246) @ 1365000: uvm_test_top.env.master_agent.mon [axi4_master_monitor] AR observed: ID=0x4 ADDR=0x54277bd0 LEN=0
# UVM_INFO ../src/slv/axi4_slave_monitor.sv(224) @ 1365000: uvm_test_top.env.slave_agent.mon [axi4_slave_monitor] AR received: ID=0x4 ADDR=0x54277bd0 LEN=0
# UVM_INFO ../src/mst/axi4_master_driver.sv(254) @ 1385000: uvm_test_top.env.master_agent.drv [axi4_master_driver] Read complete: 1 beats received
# UVM_INFO ../src/slv/axi4_slave_driver.sv(356) @ 1385000: uvm_test_top.env.slave_agent.drv [axi4_slave_driver] Read complete: ID=0x4 ADDR=0x54277bd0 RESP=AXI4_RESP_EXOKAY  1 beats sent
# UVM_INFO ../src/mst/axi4_master_monitor.sv(314) @ 1385000: uvm_test_top.env.master_agent.mon [axi4_master_monitor] Read complete: ID=0x4 ADDR=0x54277bd0 1 beats
# UVM_INFO ../src/env/axi4_scoreboard.sv(82) @ 1385000: uvm_test_top.env.scb [axi4_scoreboard] Master AXI4_READ received: ID=0x4 ADDR=0x54277bd0 LEN=0
# UVM_INFO ../src/slv/axi4_slave_monitor.sv(287) @ 1385000: uvm_test_top.env.slave_agent.mon [axi4_slave_monitor] Read data sent: ID=0x4 ADDR=0x54277bd0 1 beats
# UVM_INFO ../src/env/axi4_scoreboard.sv(103) @ 1385000: uvm_test_top.env.scb [axi4_scoreboard] Slave AXI4_READ received: ID=0x4 ADDR=0x54277bd0 LEN=0
# UVM_INFO ../src/env/axi4_scoreboard.sv(154) @ 1385000: uvm_test_top.env.scb [axi4_scoreboard] [READ] MATCH #22: ID=0x4 ADDR=0x54277bd0 LEN=0
# UVM_INFO ../src/seq/axi4_exclusive_seq.sv(60) @ 1385000: uvm_test_top.env.master_agent.sqr@@excl_seq [axi4_exclusive_seq] Exclusive Read complete: RESP=AXI4_RESP_EXOKAY
# UVM_INFO ../src/mst/axi4_master_driver.sv(55) @ 1385000: uvm_test_top.env.master_agent.drv [axi4_master_driver] Driving AXI4_WRITE  ID=0x4  ADDR=0x54277bd0  LEN=0
# UVM_INFO ../src/mst/axi4_master_driver.sv(94) @ 1385000: uvm_test_top.env.master_agent.drv [axi4_master_driver] Write order: AW || W (parallel)
# UVM_INFO ../src/slv/axi4_slave_driver.sv(165) @ 1415000: uvm_test_top.env.slave_agent.drv [axi4_slave_driver] AW received: ID=0x4 ADDR=0x54277bd0 LEN=0 LOCK=AXI4_LOCK_EXCLUSIVE
# UVM_INFO ../src/slv/axi4_slave_monitor.sv(116) @ 1415000: uvm_test_top.env.slave_agent.mon [axi4_slave_monitor] AW received: ID=0x4 ADDR=0x54277bd0 LEN=0
# UVM_INFO ../src/mst/axi4_master_monitor.sv(124) @ 1415000: uvm_test_top.env.master_agent.mon [axi4_master_monitor] AW observed: ID=0x4 ADDR=0x54277bd0 LEN=0
# UVM_INFO ../src/slv/axi4_slave_monitor.sv(167) @ 1415000: uvm_test_top.env.slave_agent.mon [axi4_slave_monitor] W data assembled: ID=0x4 ADDR=0x54277bd0 1 beats
# UVM_INFO ../src/mst/axi4_master_monitor.sv(184) @ 1415000: uvm_test_top.env.master_agent.mon [axi4_master_monitor] W data assembled: ID=0x4 ADDR=0x54277bd0 1 beats
# UVM_INFO ../src/mst/axi4_master_driver.sv(197) @ 1435000: uvm_test_top.env.master_agent.drv [axi4_master_driver] Write response: AXI4_RESP_EXOKAY
# UVM_INFO ../src/slv/axi4_slave_driver.sv(263) @ 1435000: uvm_test_top.env.slave_agent.drv [axi4_slave_driver] Write complete: ID=0x4 ADDR=0x54277bd0 RESP=AXI4_RESP_EXOKAY  1 beats processed
# UVM_INFO ../src/slv/axi4_slave_monitor.sv(189) @ 1435000: uvm_test_top.env.slave_agent.mon [axi4_slave_monitor] Write response sent: ID=0x4 ADDR=0x54277bd0 RESP=AXI4_RESP_EXOKAY
# UVM_INFO ../src/env/axi4_scoreboard.sv(103) @ 1435000: uvm_test_top.env.scb [axi4_scoreboard] Slave AXI4_WRITE received: ID=0x4 ADDR=0x54277bd0 LEN=0
# UVM_INFO ../src/mst/axi4_master_monitor.sv(210) @ 1435000: uvm_test_top.env.master_agent.mon [axi4_master_monitor] Write complete: ID=0x4 ADDR=0x54277bd0 RESP=AXI4_RESP_EXOKAY
# UVM_INFO ../src/env/axi4_scoreboard.sv(82) @ 1435000: uvm_test_top.env.scb [axi4_scoreboard] Master AXI4_WRITE received: ID=0x4 ADDR=0x54277bd0 LEN=0
# UVM_INFO ../src/env/axi4_scoreboard.sv(154) @ 1435000: uvm_test_top.env.scb [axi4_scoreboard] [WRITE] MATCH #23: ID=0x4 ADDR=0x54277bd0 LEN=0
# UVM_INFO ../src/seq/axi4_exclusive_seq.sv(76) @ 1435000: uvm_test_top.env.master_agent.sqr@@excl_seq [axi4_exclusive_seq] Exclusive Write complete: RESP=AXI4_RESP_EXOKAY
# UVM_INFO ../src/mst/axi4_master_driver.sv(55) @ 1435000: uvm_test_top.env.master_agent.drv [axi4_master_driver] Driving AXI4_WRITE  ID=0x4  ADDR=0x54277bd0  LEN=0
# UVM_INFO ../src/mst/axi4_master_driver.sv(106) @ 1435000: uvm_test_top.env.master_agent.drv [axi4_master_driver] Write order: W -> AW (W first)
# UVM_INFO ../src/slv/axi4_slave_driver.sv(165) @ 1495000: uvm_test_top.env.slave_agent.drv [axi4_slave_driver] AW received: ID=0x4 ADDR=0x54277bd0 LEN=0 LOCK=AXI4_LOCK_EXCLUSIVE
# UVM_INFO ../src/slv/axi4_slave_monitor.sv(116) @ 1495000: uvm_test_top.env.slave_agent.mon [axi4_slave_monitor] AW received: ID=0x4 ADDR=0x54277bd0 LEN=0
# UVM_INFO ../src/mst/axi4_master_monitor.sv(124) @ 1495000: uvm_test_top.env.master_agent.mon [axi4_master_monitor] AW observed: ID=0x4 ADDR=0x54277bd0 LEN=0
# UVM_INFO ../src/slv/axi4_slave_monitor.sv(167) @ 1495000: uvm_test_top.env.slave_agent.mon [axi4_slave_monitor] W data assembled: ID=0x4 ADDR=0x54277bd0 1 beats
# UVM_INFO ../src/mst/axi4_master_monitor.sv(184) @ 1495000: uvm_test_top.env.master_agent.mon [axi4_master_monitor] W data assembled: ID=0x4 ADDR=0x54277bd0 1 beats
# UVM_INFO ../src/mst/axi4_master_driver.sv(197) @ 1515000: uvm_test_top.env.master_agent.drv [axi4_master_driver] Write response: AXI4_RESP_OKAY
# UVM_INFO ../src/slv/axi4_slave_driver.sv(263) @ 1515000: uvm_test_top.env.slave_agent.drv [axi4_slave_driver] Write complete: ID=0x4 ADDR=0x54277bd0 RESP=AXI4_RESP_OKAY  1 beats processed
# UVM_INFO ../src/slv/axi4_slave_monitor.sv(189) @ 1515000: uvm_test_top.env.slave_agent.mon [axi4_slave_monitor] Write response sent: ID=0x4 ADDR=0x54277bd0 RESP=AXI4_RESP_OKAY
# UVM_INFO ../src/env/axi4_scoreboard.sv(103) @ 1515000: uvm_test_top.env.scb [axi4_scoreboard] Slave AXI4_WRITE received: ID=0x4 ADDR=0x54277bd0 LEN=0
# UVM_INFO ../src/mst/axi4_master_monitor.sv(210) @ 1515000: uvm_test_top.env.master_agent.mon [axi4_master_monitor] Write complete: ID=0x4 ADDR=0x54277bd0 RESP=AXI4_RESP_OKAY
# UVM_INFO ../src/env/axi4_scoreboard.sv(82) @ 1515000: uvm_test_top.env.scb [axi4_scoreboard] Master AXI4_WRITE received: ID=0x4 ADDR=0x54277bd0 LEN=0
# UVM_INFO ../src/env/axi4_scoreboard.sv(154) @ 1515000: uvm_test_top.env.scb [axi4_scoreboard] [WRITE] MATCH #24: ID=0x4 ADDR=0x54277bd0 LEN=0
# UVM_INFO ../src/seq/axi4_exclusive_seq.sv(93) @ 1515000: uvm_test_top.env.master_agent.sqr@@excl_seq [axi4_exclusive_seq] Failing Exclusive Write complete: RESP=AXI4_RESP_OKAY (Expected OKAY, no EXOKAY)
# UVM_INFO ../src/seq/axi4_exclusive_seq.sv(44) @ 1515000: uvm_test_top.env.master_agent.sqr@@excl_seq [axi4_exclusive_seq] [9/10] Running Exclusive Read-Write pair to ADDR=0x68c92f30 ID=0xa
# UVM_INFO ../src/mst/axi4_master_driver.sv(55) @ 1515000: uvm_test_top.env.master_agent.drv [axi4_master_driver] Driving AXI4_READ  ID=0xa  ADDR=0x68c92f30  LEN=0
# UVM_INFO ../src/slv/axi4_slave_driver.sv(302) @ 1545000: uvm_test_top.env.slave_agent.drv [axi4_slave_driver] AR received: ID=0xa ADDR=0x68c92f30 LEN=0 LOCK=AXI4_LOCK_EXCLUSIVE
# UVM_INFO ../src/mst/axi4_master_monitor.sv(246) @ 1545000: uvm_test_top.env.master_agent.mon [axi4_master_monitor] AR observed: ID=0xa ADDR=0x68c92f30 LEN=0
# UVM_INFO ../src/slv/axi4_slave_monitor.sv(224) @ 1545000: uvm_test_top.env.slave_agent.mon [axi4_slave_monitor] AR received: ID=0xa ADDR=0x68c92f30 LEN=0
# UVM_INFO ../src/mst/axi4_master_driver.sv(254) @ 1565000: uvm_test_top.env.master_agent.drv [axi4_master_driver] Read complete: 1 beats received
# UVM_INFO ../src/slv/axi4_slave_driver.sv(356) @ 1565000: uvm_test_top.env.slave_agent.drv [axi4_slave_driver] Read complete: ID=0xa ADDR=0x68c92f30 RESP=AXI4_RESP_EXOKAY  1 beats sent
# UVM_INFO ../src/mst/axi4_master_monitor.sv(314) @ 1565000: uvm_test_top.env.master_agent.mon [axi4_master_monitor] Read complete: ID=0xa ADDR=0x68c92f30 1 beats
# UVM_INFO ../src/env/axi4_scoreboard.sv(82) @ 1565000: uvm_test_top.env.scb [axi4_scoreboard] Master AXI4_READ received: ID=0xa ADDR=0x68c92f30 LEN=0
# UVM_INFO ../src/slv/axi4_slave_monitor.sv(287) @ 1565000: uvm_test_top.env.slave_agent.mon [axi4_slave_monitor] Read data sent: ID=0xa ADDR=0x68c92f30 1 beats
# UVM_INFO ../src/env/axi4_scoreboard.sv(103) @ 1565000: uvm_test_top.env.scb [axi4_scoreboard] Slave AXI4_READ received: ID=0xa ADDR=0x68c92f30 LEN=0
# UVM_INFO ../src/env/axi4_scoreboard.sv(154) @ 1565000: uvm_test_top.env.scb [axi4_scoreboard] [READ] MATCH #25: ID=0xa ADDR=0x68c92f30 LEN=0
# UVM_INFO ../src/seq/axi4_exclusive_seq.sv(60) @ 1565000: uvm_test_top.env.master_agent.sqr@@excl_seq [axi4_exclusive_seq] Exclusive Read complete: RESP=AXI4_RESP_EXOKAY
# UVM_INFO ../src/mst/axi4_master_driver.sv(55) @ 1565000: uvm_test_top.env.master_agent.drv [axi4_master_driver] Driving AXI4_WRITE  ID=0xa  ADDR=0x68c92f30  LEN=0
# UVM_INFO ../src/mst/axi4_master_driver.sv(94) @ 1565000: uvm_test_top.env.master_agent.drv [axi4_master_driver] Write order: AW || W (parallel)
# UVM_INFO ../src/slv/axi4_slave_driver.sv(165) @ 1595000: uvm_test_top.env.slave_agent.drv [axi4_slave_driver] AW received: ID=0xa ADDR=0x68c92f30 LEN=0 LOCK=AXI4_LOCK_EXCLUSIVE
# UVM_INFO ../src/slv/axi4_slave_monitor.sv(116) @ 1595000: uvm_test_top.env.slave_agent.mon [axi4_slave_monitor] AW received: ID=0xa ADDR=0x68c92f30 LEN=0
# UVM_INFO ../src/mst/axi4_master_monitor.sv(124) @ 1595000: uvm_test_top.env.master_agent.mon [axi4_master_monitor] AW observed: ID=0xa ADDR=0x68c92f30 LEN=0
# UVM_INFO ../src/slv/axi4_slave_monitor.sv(167) @ 1595000: uvm_test_top.env.slave_agent.mon [axi4_slave_monitor] W data assembled: ID=0xa ADDR=0x68c92f30 1 beats
# UVM_INFO ../src/mst/axi4_master_monitor.sv(184) @ 1595000: uvm_test_top.env.master_agent.mon [axi4_master_monitor] W data assembled: ID=0xa ADDR=0x68c92f30 1 beats
# UVM_INFO ../src/mst/axi4_master_driver.sv(197) @ 1615000: uvm_test_top.env.master_agent.drv [axi4_master_driver] Write response: AXI4_RESP_EXOKAY
# UVM_INFO ../src/slv/axi4_slave_driver.sv(263) @ 1615000: uvm_test_top.env.slave_agent.drv [axi4_slave_driver] Write complete: ID=0xa ADDR=0x68c92f30 RESP=AXI4_RESP_EXOKAY  1 beats processed
# UVM_INFO ../src/slv/axi4_slave_monitor.sv(189) @ 1615000: uvm_test_top.env.slave_agent.mon [axi4_slave_monitor] Write response sent: ID=0xa ADDR=0x68c92f30 RESP=AXI4_RESP_EXOKAY
# UVM_INFO ../src/env/axi4_scoreboard.sv(103) @ 1615000: uvm_test_top.env.scb [axi4_scoreboard] Slave AXI4_WRITE received: ID=0xa ADDR=0x68c92f30 LEN=0
# UVM_INFO ../src/mst/axi4_master_monitor.sv(210) @ 1615000: uvm_test_top.env.master_agent.mon [axi4_master_monitor] Write complete: ID=0xa ADDR=0x68c92f30 RESP=AXI4_RESP_EXOKAY
# UVM_INFO ../src/env/axi4_scoreboard.sv(82) @ 1615000: uvm_test_top.env.scb [axi4_scoreboard] Master AXI4_WRITE received: ID=0xa ADDR=0x68c92f30 LEN=0
# UVM_INFO ../src/env/axi4_scoreboard.sv(154) @ 1615000: uvm_test_top.env.scb [axi4_scoreboard] [WRITE] MATCH #26: ID=0xa ADDR=0x68c92f30 LEN=0
# UVM_INFO ../src/seq/axi4_exclusive_seq.sv(76) @ 1615000: uvm_test_top.env.master_agent.sqr@@excl_seq [axi4_exclusive_seq] Exclusive Write complete: RESP=AXI4_RESP_EXOKAY
# UVM_INFO ../src/mst/axi4_master_driver.sv(55) @ 1615000: uvm_test_top.env.master_agent.drv [axi4_master_driver] Driving AXI4_WRITE  ID=0xa  ADDR=0x68c92f30  LEN=0
# UVM_INFO ../src/mst/axi4_master_driver.sv(94) @ 1615000: uvm_test_top.env.master_agent.drv [axi4_master_driver] Write order: AW || W (parallel)
# UVM_INFO ../src/slv/axi4_slave_driver.sv(165) @ 1645000: uvm_test_top.env.slave_agent.drv [axi4_slave_driver] AW received: ID=0xa ADDR=0x68c92f30 LEN=0 LOCK=AXI4_LOCK_EXCLUSIVE
# UVM_INFO ../src/mst/axi4_master_monitor.sv(124) @ 1645000: uvm_test_top.env.master_agent.mon [axi4_master_monitor] AW observed: ID=0xa ADDR=0x68c92f30 LEN=0
# UVM_INFO ../src/slv/axi4_slave_monitor.sv(116) @ 1645000: uvm_test_top.env.slave_agent.mon [axi4_slave_monitor] AW received: ID=0xa ADDR=0x68c92f30 LEN=0
# UVM_INFO ../src/mst/axi4_master_monitor.sv(184) @ 1645000: uvm_test_top.env.master_agent.mon [axi4_master_monitor] W data assembled: ID=0xa ADDR=0x68c92f30 1 beats
# UVM_INFO ../src/slv/axi4_slave_monitor.sv(167) @ 1645000: uvm_test_top.env.slave_agent.mon [axi4_slave_monitor] W data assembled: ID=0xa ADDR=0x68c92f30 1 beats
# UVM_INFO ../src/mst/axi4_master_driver.sv(197) @ 1665000: uvm_test_top.env.master_agent.drv [axi4_master_driver] Write response: AXI4_RESP_OKAY
# UVM_INFO ../src/slv/axi4_slave_driver.sv(263) @ 1665000: uvm_test_top.env.slave_agent.drv [axi4_slave_driver] Write complete: ID=0xa ADDR=0x68c92f30 RESP=AXI4_RESP_OKAY  1 beats processed
# UVM_INFO ../src/mst/axi4_master_monitor.sv(210) @ 1665000: uvm_test_top.env.master_agent.mon [axi4_master_monitor] Write complete: ID=0xa ADDR=0x68c92f30 RESP=AXI4_RESP_OKAY
# UVM_INFO ../src/env/axi4_scoreboard.sv(82) @ 1665000: uvm_test_top.env.scb [axi4_scoreboard] Master AXI4_WRITE received: ID=0xa ADDR=0x68c92f30 LEN=0
# UVM_INFO ../src/slv/axi4_slave_monitor.sv(189) @ 1665000: uvm_test_top.env.slave_agent.mon [axi4_slave_monitor] Write response sent: ID=0xa ADDR=0x68c92f30 RESP=AXI4_RESP_OKAY
# UVM_INFO ../src/env/axi4_scoreboard.sv(103) @ 1665000: uvm_test_top.env.scb [axi4_scoreboard] Slave AXI4_WRITE received: ID=0xa ADDR=0x68c92f30 LEN=0
# UVM_INFO ../src/env/axi4_scoreboard.sv(154) @ 1665000: uvm_test_top.env.scb [axi4_scoreboard] [WRITE] MATCH #27: ID=0xa ADDR=0x68c92f30 LEN=0
# UVM_INFO ../src/seq/axi4_exclusive_seq.sv(93) @ 1665000: uvm_test_top.env.master_agent.sqr@@excl_seq [axi4_exclusive_seq] Failing Exclusive Write complete: RESP=AXI4_RESP_OKAY (Expected OKAY, no EXOKAY)
# UVM_INFO ../src/seq/axi4_exclusive_seq.sv(44) @ 1665000: uvm_test_top.env.master_agent.sqr@@excl_seq [axi4_exclusive_seq] [10/10] Running Exclusive Read-Write pair to ADDR=0xbdc0c1b0 ID=0x0
# UVM_INFO ../src/mst/axi4_master_driver.sv(55) @ 1665000: uvm_test_top.env.master_agent.drv [axi4_master_driver] Driving AXI4_READ  ID=0x0  ADDR=0xbdc0c1b0  LEN=0
# UVM_INFO ../src/slv/axi4_slave_driver.sv(302) @ 1695000: uvm_test_top.env.slave_agent.drv [axi4_slave_driver] AR received: ID=0x0 ADDR=0xbdc0c1b0 LEN=0 LOCK=AXI4_LOCK_EXCLUSIVE
# UVM_INFO ../src/slv/axi4_slave_monitor.sv(224) @ 1695000: uvm_test_top.env.slave_agent.mon [axi4_slave_monitor] AR received: ID=0x0 ADDR=0xbdc0c1b0 LEN=0
# UVM_INFO ../src/mst/axi4_master_monitor.sv(246) @ 1695000: uvm_test_top.env.master_agent.mon [axi4_master_monitor] AR observed: ID=0x0 ADDR=0xbdc0c1b0 LEN=0
# UVM_INFO ../src/mst/axi4_master_driver.sv(254) @ 1715000: uvm_test_top.env.master_agent.drv [axi4_master_driver] Read complete: 1 beats received
# UVM_INFO ../src/slv/axi4_slave_driver.sv(356) @ 1715000: uvm_test_top.env.slave_agent.drv [axi4_slave_driver] Read complete: ID=0x0 ADDR=0xbdc0c1b0 RESP=AXI4_RESP_EXOKAY  1 beats sent
# UVM_INFO ../src/slv/axi4_slave_monitor.sv(287) @ 1715000: uvm_test_top.env.slave_agent.mon [axi4_slave_monitor] Read data sent: ID=0x0 ADDR=0xbdc0c1b0 1 beats
# UVM_INFO ../src/env/axi4_scoreboard.sv(103) @ 1715000: uvm_test_top.env.scb [axi4_scoreboard] Slave AXI4_READ received: ID=0x0 ADDR=0xbdc0c1b0 LEN=0
# UVM_INFO ../src/mst/axi4_master_monitor.sv(314) @ 1715000: uvm_test_top.env.master_agent.mon [axi4_master_monitor] Read complete: ID=0x0 ADDR=0xbdc0c1b0 1 beats
# UVM_INFO ../src/env/axi4_scoreboard.sv(82) @ 1715000: uvm_test_top.env.scb [axi4_scoreboard] Master AXI4_READ received: ID=0x0 ADDR=0xbdc0c1b0 LEN=0
# UVM_INFO ../src/env/axi4_scoreboard.sv(154) @ 1715000: uvm_test_top.env.scb [axi4_scoreboard] [READ] MATCH #28: ID=0x0 ADDR=0xbdc0c1b0 LEN=0
# UVM_INFO ../src/seq/axi4_exclusive_seq.sv(60) @ 1715000: uvm_test_top.env.master_agent.sqr@@excl_seq [axi4_exclusive_seq] Exclusive Read complete: RESP=AXI4_RESP_EXOKAY
# UVM_INFO ../src/mst/axi4_master_driver.sv(55) @ 1715000: uvm_test_top.env.master_agent.drv [axi4_master_driver] Driving AXI4_WRITE  ID=0x0  ADDR=0xbdc0c1b0  LEN=0
# UVM_INFO ../src/mst/axi4_master_driver.sv(94) @ 1715000: uvm_test_top.env.master_agent.drv [axi4_master_driver] Write order: AW || W (parallel)
# UVM_INFO ../src/slv/axi4_slave_driver.sv(165) @ 1745000: uvm_test_top.env.slave_agent.drv [axi4_slave_driver] AW received: ID=0x0 ADDR=0xbdc0c1b0 LEN=0 LOCK=AXI4_LOCK_EXCLUSIVE
# UVM_INFO ../src/mst/axi4_master_monitor.sv(124) @ 1745000: uvm_test_top.env.master_agent.mon [axi4_master_monitor] AW observed: ID=0x0 ADDR=0xbdc0c1b0 LEN=0
# UVM_INFO ../src/slv/axi4_slave_monitor.sv(116) @ 1745000: uvm_test_top.env.slave_agent.mon [axi4_slave_monitor] AW received: ID=0x0 ADDR=0xbdc0c1b0 LEN=0
# UVM_INFO ../src/mst/axi4_master_monitor.sv(184) @ 1745000: uvm_test_top.env.master_agent.mon [axi4_master_monitor] W data assembled: ID=0x0 ADDR=0xbdc0c1b0 1 beats
# UVM_INFO ../src/slv/axi4_slave_monitor.sv(167) @ 1745000: uvm_test_top.env.slave_agent.mon [axi4_slave_monitor] W data assembled: ID=0x0 ADDR=0xbdc0c1b0 1 beats
# UVM_INFO ../src/mst/axi4_master_driver.sv(197) @ 1765000: uvm_test_top.env.master_agent.drv [axi4_master_driver] Write response: AXI4_RESP_EXOKAY
# UVM_INFO ../src/slv/axi4_slave_driver.sv(263) @ 1765000: uvm_test_top.env.slave_agent.drv [axi4_slave_driver] Write complete: ID=0x0 ADDR=0xbdc0c1b0 RESP=AXI4_RESP_EXOKAY  1 beats processed
# UVM_INFO ../src/mst/axi4_master_monitor.sv(210) @ 1765000: uvm_test_top.env.master_agent.mon [axi4_master_monitor] Write complete: ID=0x0 ADDR=0xbdc0c1b0 RESP=AXI4_RESP_EXOKAY
# UVM_INFO ../src/env/axi4_scoreboard.sv(82) @ 1765000: uvm_test_top.env.scb [axi4_scoreboard] Master AXI4_WRITE received: ID=0x0 ADDR=0xbdc0c1b0 LEN=0
# UVM_INFO ../src/slv/axi4_slave_monitor.sv(189) @ 1765000: uvm_test_top.env.slave_agent.mon [axi4_slave_monitor] Write response sent: ID=0x0 ADDR=0xbdc0c1b0 RESP=AXI4_RESP_EXOKAY
# UVM_INFO ../src/env/axi4_scoreboard.sv(103) @ 1765000: uvm_test_top.env.scb [axi4_scoreboard] Slave AXI4_WRITE received: ID=0x0 ADDR=0xbdc0c1b0 LEN=0
# UVM_INFO ../src/env/axi4_scoreboard.sv(154) @ 1765000: uvm_test_top.env.scb [axi4_scoreboard] [WRITE] MATCH #29: ID=0x0 ADDR=0xbdc0c1b0 LEN=0
# UVM_INFO ../src/seq/axi4_exclusive_seq.sv(76) @ 1765000: uvm_test_top.env.master_agent.sqr@@excl_seq [axi4_exclusive_seq] Exclusive Write complete: RESP=AXI4_RESP_EXOKAY
# UVM_INFO ../src/mst/axi4_master_driver.sv(55) @ 1765000: uvm_test_top.env.master_agent.drv [axi4_master_driver] Driving AXI4_WRITE  ID=0x0  ADDR=0xbdc0c1b0  LEN=0
# UVM_INFO ../src/mst/axi4_master_driver.sv(101) @ 1765000: uvm_test_top.env.master_agent.drv [axi4_master_driver] Write order: AW -> W (sequential)
# UVM_INFO ../src/slv/axi4_slave_driver.sv(165) @ 1795000: uvm_test_top.env.slave_agent.drv [axi4_slave_driver] AW received: ID=0x0 ADDR=0xbdc0c1b0 LEN=0 LOCK=AXI4_LOCK_EXCLUSIVE
# UVM_INFO ../src/slv/axi4_slave_monitor.sv(116) @ 1795000: uvm_test_top.env.slave_agent.mon [axi4_slave_monitor] AW received: ID=0x0 ADDR=0xbdc0c1b0 LEN=0
# UVM_INFO ../src/mst/axi4_master_monitor.sv(124) @ 1795000: uvm_test_top.env.master_agent.mon [axi4_master_monitor] AW observed: ID=0x0 ADDR=0xbdc0c1b0 LEN=0
# UVM_INFO ../src/slv/axi4_slave_monitor.sv(167) @ 1815000: uvm_test_top.env.slave_agent.mon [axi4_slave_monitor] W data assembled: ID=0x0 ADDR=0xbdc0c1b0 1 beats
# UVM_INFO ../src/mst/axi4_master_monitor.sv(184) @ 1815000: uvm_test_top.env.master_agent.mon [axi4_master_monitor] W data assembled: ID=0x0 ADDR=0xbdc0c1b0 1 beats
# UVM_INFO ../src/mst/axi4_master_driver.sv(197) @ 1845000: uvm_test_top.env.master_agent.drv [axi4_master_driver] Write response: AXI4_RESP_OKAY
# UVM_INFO ../src/slv/axi4_slave_driver.sv(263) @ 1845000: uvm_test_top.env.slave_agent.drv [axi4_slave_driver] Write complete: ID=0x0 ADDR=0xbdc0c1b0 RESP=AXI4_RESP_OKAY  1 beats processed
# UVM_INFO ../src/mst/axi4_master_monitor.sv(210) @ 1845000: uvm_test_top.env.master_agent.mon [axi4_master_monitor] Write complete: ID=0x0 ADDR=0xbdc0c1b0 RESP=AXI4_RESP_OKAY
# UVM_INFO ../src/env/axi4_scoreboard.sv(82) @ 1845000: uvm_test_top.env.scb [axi4_scoreboard] Master AXI4_WRITE received: ID=0x0 ADDR=0xbdc0c1b0 LEN=0
# UVM_INFO ../src/slv/axi4_slave_monitor.sv(189) @ 1845000: uvm_test_top.env.slave_agent.mon [axi4_slave_monitor] Write response sent: ID=0x0 ADDR=0xbdc0c1b0 RESP=AXI4_RESP_OKAY
# UVM_INFO ../src/env/axi4_scoreboard.sv(103) @ 1845000: uvm_test_top.env.scb [axi4_scoreboard] Slave AXI4_WRITE received: ID=0x0 ADDR=0xbdc0c1b0 LEN=0
# UVM_INFO ../src/env/axi4_scoreboard.sv(154) @ 1845000: uvm_test_top.env.scb [axi4_scoreboard] [WRITE] MATCH #30: ID=0x0 ADDR=0xbdc0c1b0 LEN=0
# UVM_INFO ../src/seq/axi4_exclusive_seq.sv(93) @ 1845000: uvm_test_top.env.master_agent.sqr@@excl_seq [axi4_exclusive_seq] Failing Exclusive Write complete: RESP=AXI4_RESP_OKAY (Expected OKAY, no EXOKAY)
# UVM_INFO ../src/seq/axi4_exclusive_seq.sv(96) @ 1845000: uvm_test_top.env.master_agent.sqr@@excl_seq [axi4_exclusive_seq] Exclusive access sequence complete
# UVM_INFO ../src/test/axi4_exclusive_test.sv(33) @ 2845000: uvm_test_top [axi4_exclusive_test] Exclusive access test complete
# UVM_INFO verilog_src/uvm-1.1d/src/base/uvm_objection.svh(1268) @ 2845000: reporter [TEST_DONE] 'run' phase is ready to proceed to the 'extract' phase
# UVM_INFO ../src/env/axi4_scoreboard.sv(218) @ 2845000: uvm_test_top.env.scb [axi4_scoreboard] 
# ========================================
#          SCOREBOARD SUMMARY
# ========================================
#   Master transactions : 30
#   Slave transactions  : 30
#   Matches             : 30
#   Mismatches          : 0
#   Unmatched master WR : 0
#   Unmatched master RD : 0
#   Unmatched slave  WR : 0
#   Unmatched slave  RD : 0
# ========================================
#   RESULT : PASS
# ========================================
# UVM_INFO ../src/test/axi4_base_test.sv(91) @ 2845000: uvm_test_top [axi4_exclusive_test] 
# === TEST PASSED ===
# 
# 
# --- UVM Report Summary ---
# 
# ** Report counts by severity
# UVM_INFO :  456
# UVM_WARNING :    0
# UVM_ERROR :    0
# UVM_FATAL :    0
# ** Report counts by id
# [Questa UVM]     3
# [RNTST]     1
# [TB_TOP]     2
# [TEST_DONE]     1
# [TOP_TB]     1
# [UVMTOP]     1
# [axi4_exclusive_seq]    42
# [axi4_exclusive_test]     3
# [axi4_master_agent]     1
# [axi4_master_driver]    81
# [axi4_master_monitor]    81
# [axi4_scoreboard]    91
# [axi4_slave_agent]     1
# [axi4_slave_driver]    61
# [axi4_slave_monitor]    81
# [axi4_vip_env]     5
# ** Note: $finish    : /cadtools/mentor/Questa_10.6b/questasim/linux_x86_64/../verilog_src/uvm-1.1d/src/base/uvm_root.svh(430)
#    Time: 2845 ns  Iteration: 55  Instance: /tb_top
# Saving coverage database on exit...
# End time: 12:35:55 on Jun 05,2026, Elapsed time: 0:00:42
# Errors: 0, Warnings: 0
