# vsim -c -coverage -sv_seed 1181599 "+UVM_TESTNAME=axi4_random_test" "+UVM_VERBOSITY=UVM_HIGH" "+DUMP_VCD" -l ./report/logs/axi4_random_test_run_5_seed_1181599.log -do "coverage save -onexit ./report/coverage/axi4_random_test_run_5_seed_1181599.ucdb; run -all; quit -f" opt_tb_top 
# Start time: 14:26:07 on Jul 06,2026
# //  Questa Sim-64
# //  Version 10.6b linux_x86_64 May 25 2017
# //
# //  Copyright 1991-2017 Mentor Graphics Corporation
# //  All Rights Reserved.
# //
# //  QuestaSim and its associated documentation contain trade
# //  secrets and commercial or financial information that are the property of
# //  Mentor Graphics Corporation and are privileged, confidential,
# //  and exempt from disclosure under the Freedom of Information Act,
# //  5 U.S.C. Section 552. Furthermore, this information
# //  is prohibited from disclosure under the Trade Secrets Act,
# //  18 U.S.C. Section 1905.
# //
# Loading sv_std.std
# Loading work.axi4_if(fast)
# Loading mtiUvm.uvm_pkg
# Loading work.axi4_pkg(fast)
# Loading work.axi4_test_pkg(fast)
# Loading work.tb_top(fast)
# Loading work.axi4_if(fast)
# Loading work.axi4_sva(fast)
# Loading mtiUvm.questa_uvm_pkg(fast)
# Loading /cadtools/mentor/Questa_10.6b/questasim/uvm-1.1d/linux_x86_64/uvm_dpi.so
# coverage save -onexit ./report/coverage/axi4_random_test_run_5_seed_1181599.ucdb
#  run -all
# ----------------------------------------------------------------
# UVM-1.1d
# (C) 2007-2013 Mentor Graphics Corporation
# (C) 2007-2013 Cadence Design Systems, Inc.
# (C) 2006-2013 Synopsys, Inc.
# (C) 2011-2013 Cypress Semiconductor Corp.
# ----------------------------------------------------------------
# 
#   ***********       IMPORTANT RELEASE NOTES         ************
# 
#   You are using a version of the UVM library that has been compiled
#   with `UVM_NO_DEPRECATED undefined.
#   See http://www.eda.org/svdb/view.php?id=3313 for more details.
# 
#   You are using a version of the UVM library that has been compiled
#   with `UVM_OBJECT_MUST_HAVE_CONSTRUCTOR undefined.
#   See http://www.eda.org/svdb/view.php?id=3770 for more details.
# 
#       (Specify +UVM_NO_RELNOTES to turn off this notice)
# 
# UVM_INFO verilog_src/questa_uvm_pkg-1.2/src/questa_uvm_pkg.sv(215) @ 0: reporter [Questa UVM] QUESTA_UVM-1.2.3
# UVM_INFO verilog_src/questa_uvm_pkg-1.2/src/questa_uvm_pkg.sv(217) @ 0: reporter [Questa UVM]  questa_uvm::init(+struct)
# UVM_INFO ../src/tb_top.sv(147) @ 0: reporter [TB_TOP] Virtual interface set in config_db
# UVM_INFO @ 0: reporter [RNTST] Running test axi4_random_test...
# UVM_INFO ../src/tb_top.sv(161) @ 0: reporter [TB_TOP] Waveform VCD dumping enabled (axi4_vip.vcd)
# UVM_INFO ../src/env/axi4_vip_env.sv(83) @ 0: uvm_test_top.env [axi4_vip_env] slave_vif not set - reusing master_vif (passthrough mode)
# UVM_INFO ../src/env/axi4_vip_env.sv(93) @ 0: uvm_test_top.env [axi4_vip_env] Scoreboard created
# UVM_INFO ../src/env/axi4_vip_env.sv(100) @ 0: uvm_test_top.env [axi4_vip_env] Coverage collectors created
# UVM_INFO ../src/mst/axi4_master_agent.sv(69) @ 0: uvm_test_top.env.master_agent [axi4_master_agent] ACTIVE mode - driver + sequencer created
# UVM_INFO ../src/slv/axi4_slave_agent.sv(82) @ 0: uvm_test_top.env.slave_agent [axi4_slave_agent] ACTIVE mode — ready_delay=[0:0] resp_delay=[0:0]
# UVM_INFO ../src/env/axi4_vip_env.sv(116) @ 0: uvm_test_top.env [axi4_vip_env] Scoreboard connected: master_mon.ap -> scb, slave_mon.ap -> scb
# UVM_INFO ../src/env/axi4_vip_env.sv(124) @ 0: uvm_test_top.env [axi4_vip_env] Coverage connected: master_mon.ap -> master_cov, slave_mon.ap -> slave_cov
# UVM_INFO @ 0: reporter [UVMTOP] UVM testbench topology:
# ---------------------------------------------------------------
# Name                       Type                     Size  Value
# ---------------------------------------------------------------
# uvm_test_top               axi4_random_test         -     @475 
#   env                      axi4_vip_env             -     @490 
#     master_agent           axi4_master_agent        -     @505 
#       drv                  axi4_master_driver       -     @569 
#         rsp_port           uvm_analysis_port        -     @584 
#         seq_item_port      uvm_seq_item_pull_port   -     @576 
#       mon                  axi4_master_monitor      -     @561 
#         ap                 uvm_analysis_port        -     @702 
#       sqr                  axi4_master_sequencer    -     @592 
#         rsp_export         uvm_analysis_export      -     @599 
#         seq_item_export    uvm_seq_item_pull_imp    -     @693 
#         arbitration_queue  array                    0     -    
#         lock_queue         array                    0     -    
#         num_last_reqs      integral                 32    'd1  
#         num_last_rsps      integral                 32    'd1  
#     master_cov             axi4_coverage            -     @526 
#       analysis_imp         uvm_analysis_imp         -     @533 
#     scb                    axi4_scoreboard          -     @519 
#       master_export        uvm_analysis_imp_master  -     @716 
#       slave_export         uvm_analysis_imp_slave   -     @724 
#     slave_agent            axi4_slave_agent         -     @512 
#       drv                  axi4_slave_driver        -     @755 
#         rsp_port           uvm_analysis_port        -     @770 
#         seq_item_port      uvm_seq_item_pull_port   -     @762 
#       mon                  axi4_slave_monitor       -     @737 
#         ap                 uvm_analysis_port        -     @894 
#       sqr                  axi4_slave_sequencer     -     @778 
#         rsp_export         uvm_analysis_export      -     @785 
#         seq_item_export    uvm_seq_item_pull_imp    -     @879 
#         arbitration_queue  array                    0     -    
#         lock_queue         array                    0     -    
#         num_last_reqs      integral                 32    'd1  
#         num_last_rsps      integral                 32    'd1  
#     slave_cov              axi4_coverage            -     @541 
#       analysis_imp         uvm_analysis_imp         -     @548 
# ---------------------------------------------------------------
# 
# UVM_INFO verilog_src/questa_uvm_pkg-1.2/src/questa_uvm_pkg.sv(277) @ 0: reporter [Questa UVM] End Of Elaboration
# UVM_INFO ../src/test/axi4_random_test.sv(43) @ 0: uvm_test_top [axi4_random_test] Starting random test with 50 transactions
# UVM_INFO ../src/seq/axi4_random_seq.sv(37) @ 0: uvm_test_top.env.master_agent.sqr@@rand_seq [axi4_random_seq] Starting random sequence: 50 transactions
# UVM_INFO ../src/tb_top.sv(49) @ 95000: reporter [TOP_TB] Reset de-asserted
# UVM_INFO ../src/slv/axi4_slave_driver.sv(131) @ 95000: uvm_test_top.env.slave_agent.drv [axi4_slave_driver] Reset deasserted - slave driver active
# UVM_INFO ../src/mst/axi4_master_driver.sv(64) @ 95000: uvm_test_top.env.master_agent.drv [axi4_master_driver] Reset deasserted - master driver active
# UVM_INFO ../src/mst/axi4_master_monitor.sv(77) @ 95000: uvm_test_top.env.master_agent.mon [axi4_master_monitor] Reset deasserted - monitor active
# UVM_INFO ../src/slv/axi4_slave_monitor.sv(71) @ 95000: uvm_test_top.env.slave_agent.mon [axi4_slave_monitor] Reset deasserted - monitor active
# UVM_INFO ../src/mst/axi4_master_driver.sv(73) @ 95000: uvm_test_top.env.master_agent.drv [axi4_master_driver] Driving AXI4_READ  ID=0x4  ADDR=0x4bc32640  LEN=39
# UVM_INFO ../src/seq/axi4_random_seq.sv(58) @ 95000: uvm_test_top.env.master_agent.sqr@@rand_seq [axi4_random_seq] [1/50] AXI4_READ: ID=0x4 ADDR=0x4bc32640 LEN=39 BURST=AXI4_BURST_INCR
# UVM_INFO ../src/mst/axi4_master_driver.sv(73) @ 95000: uvm_test_top.env.master_agent.drv [axi4_master_driver] Driving AXI4_WRITE  ID=0xd  ADDR=0xa91a8173  LEN=131
# UVM_INFO ../src/seq/axi4_random_seq.sv(58) @ 95000: uvm_test_top.env.master_agent.sqr@@rand_seq [axi4_random_seq] [2/50] AXI4_WRITE: ID=0xd ADDR=0xa91a8173 LEN=131 BURST=AXI4_BURST_INCR
# UVM_INFO ../src/mst/axi4_master_driver.sv(73) @ 95000: uvm_test_top.env.master_agent.drv [axi4_master_driver] Driving AXI4_WRITE  ID=0x7  ADDR=0x20c2022a  LEN=101
# UVM_INFO ../src/seq/axi4_random_seq.sv(58) @ 95000: uvm_test_top.env.master_agent.sqr@@rand_seq [axi4_random_seq] [3/50] AXI4_WRITE: ID=0x7 ADDR=0x20c2022a LEN=101 BURST=AXI4_BURST_INCR
# UVM_INFO ../src/mst/axi4_master_driver.sv(73) @ 95000: uvm_test_top.env.master_agent.drv [axi4_master_driver] Driving AXI4_READ  ID=0xd  ADDR=0x71b5015a  LEN=243
# UVM_INFO ../src/seq/axi4_random_seq.sv(58) @ 95000: uvm_test_top.env.master_agent.sqr@@rand_seq [axi4_random_seq] [4/50] AXI4_READ: ID=0xd ADDR=0x71b5015a LEN=243 BURST=AXI4_BURST_INCR
# UVM_INFO ../src/mst/axi4_master_driver.sv(73) @ 95000: uvm_test_top.env.master_agent.drv [axi4_master_driver] Driving AXI4_WRITE  ID=0xb  ADDR=0xbfbad100  LEN=77
# UVM_INFO ../src/seq/axi4_random_seq.sv(58) @ 95000: uvm_test_top.env.master_agent.sqr@@rand_seq [axi4_random_seq] [5/50] AXI4_WRITE: ID=0xb ADDR=0xbfbad100 LEN=77 BURST=AXI4_BURST_INCR
# UVM_INFO ../src/mst/axi4_master_driver.sv(73) @ 95000: uvm_test_top.env.master_agent.drv [axi4_master_driver] Driving AXI4_READ  ID=0xa  ADDR=0xc658153a  LEN=49
# UVM_INFO ../src/seq/axi4_random_seq.sv(58) @ 95000: uvm_test_top.env.master_agent.sqr@@rand_seq [axi4_random_seq] [6/50] AXI4_READ: ID=0xa ADDR=0xc658153a LEN=49 BURST=AXI4_BURST_INCR
# UVM_INFO ../src/mst/axi4_master_driver.sv(73) @ 95000: uvm_test_top.env.master_agent.drv [axi4_master_driver] Driving AXI4_READ  ID=0x2  ADDR=0x10b592b4  LEN=133
# UVM_INFO ../src/seq/axi4_random_seq.sv(58) @ 95000: uvm_test_top.env.master_agent.sqr@@rand_seq [axi4_random_seq] [7/50] AXI4_READ: ID=0x2 ADDR=0x10b592b4 LEN=133 BURST=AXI4_BURST_INCR
# UVM_INFO ../src/mst/axi4_master_driver.sv(73) @ 95000: uvm_test_top.env.master_agent.drv [axi4_master_driver] Driving AXI4_READ  ID=0xf  ADDR=0xc3d38556  LEN=20
# UVM_INFO ../src/seq/axi4_random_seq.sv(58) @ 95000: uvm_test_top.env.master_agent.sqr@@rand_seq [axi4_random_seq] [8/50] AXI4_READ: ID=0xf ADDR=0xc3d38556 LEN=20 BURST=AXI4_BURST_INCR
# UVM_INFO ../src/mst/axi4_master_driver.sv(73) @ 95000: uvm_test_top.env.master_agent.drv [axi4_master_driver] Driving AXI4_READ  ID=0x3  ADDR=0xf3a8ca3f  LEN=185
# UVM_INFO ../src/seq/axi4_random_seq.sv(58) @ 95000: uvm_test_top.env.master_agent.sqr@@rand_seq [axi4_random_seq] [9/50] AXI4_READ: ID=0x3 ADDR=0xf3a8ca3f LEN=185 BURST=AXI4_BURST_INCR
# UVM_INFO ../src/mst/axi4_master_driver.sv(73) @ 95000: uvm_test_top.env.master_agent.drv [axi4_master_driver] Driving AXI4_WRITE  ID=0xf  ADDR=0xad53504d  LEN=46
# UVM_INFO ../src/seq/axi4_random_seq.sv(58) @ 95000: uvm_test_top.env.master_agent.sqr@@rand_seq [axi4_random_seq] [10/50] AXI4_WRITE: ID=0xf ADDR=0xad53504d LEN=46 BURST=AXI4_BURST_INCR
# UVM_INFO ../src/mst/axi4_master_driver.sv(73) @ 95000: uvm_test_top.env.master_agent.drv [axi4_master_driver] Driving AXI4_READ  ID=0x4  ADDR=0x5e963a29  LEN=14
# UVM_INFO ../src/seq/axi4_random_seq.sv(58) @ 95000: uvm_test_top.env.master_agent.sqr@@rand_seq [axi4_random_seq] [11/50] AXI4_READ: ID=0x4 ADDR=0x5e963a29 LEN=14 BURST=AXI4_BURST_FIXED
# UVM_INFO ../src/mst/axi4_master_driver.sv(73) @ 95000: uvm_test_top.env.master_agent.drv [axi4_master_driver] Driving AXI4_READ  ID=0x5  ADDR=0xdf352e44  LEN=55
# UVM_INFO ../src/seq/axi4_random_seq.sv(58) @ 95000: uvm_test_top.env.master_agent.sqr@@rand_seq [axi4_random_seq] [12/50] AXI4_READ: ID=0x5 ADDR=0xdf352e44 LEN=55 BURST=AXI4_BURST_INCR
# UVM_INFO ../src/mst/axi4_master_driver.sv(73) @ 95000: uvm_test_top.env.master_agent.drv [axi4_master_driver] Driving AXI4_WRITE  ID=0x6  ADDR=0x284faa1e  LEN=73
# UVM_INFO ../src/seq/axi4_random_seq.sv(58) @ 95000: uvm_test_top.env.master_agent.sqr@@rand_seq [axi4_random_seq] [13/50] AXI4_WRITE: ID=0x6 ADDR=0x284faa1e LEN=73 BURST=AXI4_BURST_INCR
# UVM_INFO ../src/mst/axi4_master_driver.sv(73) @ 95000: uvm_test_top.env.master_agent.drv [axi4_master_driver] Driving AXI4_READ  ID=0xd  ADDR=0x345941a1  LEN=12
# UVM_INFO ../src/seq/axi4_random_seq.sv(58) @ 95000: uvm_test_top.env.master_agent.sqr@@rand_seq [axi4_random_seq] [14/50] AXI4_READ: ID=0xd ADDR=0x345941a1 LEN=12 BURST=AXI4_BURST_INCR
# UVM_INFO ../src/mst/axi4_master_driver.sv(73) @ 95000: uvm_test_top.env.master_agent.drv [axi4_master_driver] Driving AXI4_WRITE  ID=0x8  ADDR=0xa6a252ec  LEN=139
# UVM_INFO ../src/seq/axi4_random_seq.sv(58) @ 95000: uvm_test_top.env.master_agent.sqr@@rand_seq [axi4_random_seq] [15/50] AXI4_WRITE: ID=0x8 ADDR=0xa6a252ec LEN=139 BURST=AXI4_BURST_INCR
# UVM_INFO ../src/mst/axi4_master_driver.sv(73) @ 95000: uvm_test_top.env.master_agent.drv [axi4_master_driver] Driving AXI4_WRITE  ID=0x4  ADDR=0xe67b324c  LEN=75
# UVM_INFO ../src/seq/axi4_random_seq.sv(58) @ 95000: uvm_test_top.env.master_agent.sqr@@rand_seq [axi4_random_seq] [16/50] AXI4_WRITE: ID=0x4 ADDR=0xe67b324c LEN=75 BURST=AXI4_BURST_INCR
# UVM_INFO ../src/mst/axi4_master_driver.sv(73) @ 95000: uvm_test_top.env.master_agent.drv [axi4_master_driver] Driving AXI4_READ  ID=0xf  ADDR=0xec501699  LEN=218
# UVM_INFO ../src/seq/axi4_random_seq.sv(58) @ 95000: uvm_test_top.env.master_agent.sqr@@rand_seq [axi4_random_seq] [17/50] AXI4_READ: ID=0xf ADDR=0xec501699 LEN=218 BURST=AXI4_BURST_INCR
# UVM_INFO ../src/mst/axi4_master_driver.sv(73) @ 95000: uvm_test_top.env.master_agent.drv [axi4_master_driver] Driving AXI4_WRITE  ID=0x4  ADDR=0xf0f04085  LEN=154
# UVM_INFO ../src/seq/axi4_random_seq.sv(58) @ 95000: uvm_test_top.env.master_agent.sqr@@rand_seq [axi4_random_seq] [18/50] AXI4_WRITE: ID=0x4 ADDR=0xf0f04085 LEN=154 BURST=AXI4_BURST_INCR
# UVM_INFO ../src/mst/axi4_master_driver.sv(73) @ 95000: uvm_test_top.env.master_agent.drv [axi4_master_driver] Driving AXI4_WRITE  ID=0xa  ADDR=0x1e4d0cac  LEN=34
# UVM_INFO ../src/seq/axi4_random_seq.sv(58) @ 95000: uvm_test_top.env.master_agent.sqr@@rand_seq [axi4_random_seq] [19/50] AXI4_WRITE: ID=0xa ADDR=0x1e4d0cac LEN=34 BURST=AXI4_BURST_INCR
# UVM_INFO ../src/mst/axi4_master_driver.sv(73) @ 95000: uvm_test_top.env.master_agent.drv [axi4_master_driver] Driving AXI4_WRITE  ID=0xc  ADDR=0xaeaec7ae  LEN=221
# UVM_INFO ../src/seq/axi4_random_seq.sv(58) @ 95000: uvm_test_top.env.master_agent.sqr@@rand_seq [axi4_random_seq] [20/50] AXI4_WRITE: ID=0xc ADDR=0xaeaec7ae LEN=221 BURST=AXI4_BURST_INCR
# UVM_INFO ../src/mst/axi4_master_driver.sv(73) @ 95000: uvm_test_top.env.master_agent.drv [axi4_master_driver] Driving AXI4_WRITE  ID=0xc  ADDR=0x4c149f0b  LEN=1
# UVM_INFO ../src/seq/axi4_random_seq.sv(58) @ 95000: uvm_test_top.env.master_agent.sqr@@rand_seq [axi4_random_seq] [21/50] AXI4_WRITE: ID=0xc ADDR=0x4c149f0b LEN=1 BURST=AXI4_BURST_FIXED
# UVM_INFO ../src/mst/axi4_master_driver.sv(73) @ 95000: uvm_test_top.env.master_agent.drv [axi4_master_driver] Driving AXI4_WRITE  ID=0x6  ADDR=0xee47ae78  LEN=196
# UVM_INFO ../src/seq/axi4_random_seq.sv(58) @ 95000: uvm_test_top.env.master_agent.sqr@@rand_seq [axi4_random_seq] [22/50] AXI4_WRITE: ID=0x6 ADDR=0xee47ae78 LEN=196 BURST=AXI4_BURST_INCR
# UVM_INFO ../src/mst/axi4_master_driver.sv(73) @ 95000: uvm_test_top.env.master_agent.drv [axi4_master_driver] Driving AXI4_WRITE  ID=0x4  ADDR=0xa754e6dc  LEN=222
# UVM_INFO ../src/seq/axi4_random_seq.sv(58) @ 95000: uvm_test_top.env.master_agent.sqr@@rand_seq [axi4_random_seq] [23/50] AXI4_WRITE: ID=0x4 ADDR=0xa754e6dc LEN=222 BURST=AXI4_BURST_INCR
# UVM_INFO ../src/mst/axi4_master_driver.sv(73) @ 95000: uvm_test_top.env.master_agent.drv [axi4_master_driver] Driving AXI4_WRITE  ID=0xd  ADDR=0x6fbc6487  LEN=79
# UVM_INFO ../src/seq/axi4_random_seq.sv(58) @ 95000: uvm_test_top.env.master_agent.sqr@@rand_seq [axi4_random_seq] [24/50] AXI4_WRITE: ID=0xd ADDR=0x6fbc6487 LEN=79 BURST=AXI4_BURST_INCR
# UVM_INFO ../src/mst/axi4_master_driver.sv(73) @ 95000: uvm_test_top.env.master_agent.drv [axi4_master_driver] Driving AXI4_WRITE  ID=0x7  ADDR=0x8fb4f892  LEN=3
# UVM_INFO ../src/seq/axi4_random_seq.sv(58) @ 95000: uvm_test_top.env.master_agent.sqr@@rand_seq [axi4_random_seq] [25/50] AXI4_WRITE: ID=0x7 ADDR=0x8fb4f892 LEN=3 BURST=AXI4_BURST_FIXED
# UVM_INFO ../src/mst/axi4_master_driver.sv(73) @ 95000: uvm_test_top.env.master_agent.drv [axi4_master_driver] Driving AXI4_READ  ID=0x1  ADDR=0x70ed15a7  LEN=73
# UVM_INFO ../src/seq/axi4_random_seq.sv(58) @ 95000: uvm_test_top.env.master_agent.sqr@@rand_seq [axi4_random_seq] [26/50] AXI4_READ: ID=0x1 ADDR=0x70ed15a7 LEN=73 BURST=AXI4_BURST_INCR
# UVM_INFO ../src/mst/axi4_master_driver.sv(73) @ 95000: uvm_test_top.env.master_agent.drv [axi4_master_driver] Driving AXI4_WRITE  ID=0xe  ADDR=0xb091a018  LEN=1
# UVM_INFO ../src/seq/axi4_random_seq.sv(58) @ 95000: uvm_test_top.env.master_agent.sqr@@rand_seq [axi4_random_seq] [27/50] AXI4_WRITE: ID=0xe ADDR=0xb091a018 LEN=1 BURST=AXI4_BURST_WRAP
# UVM_INFO ../src/mst/axi4_master_driver.sv(73) @ 95000: uvm_test_top.env.master_agent.drv [axi4_master_driver] Driving AXI4_WRITE  ID=0x4  ADDR=0x37efe7cf  LEN=0
# UVM_INFO ../src/seq/axi4_random_seq.sv(58) @ 95000: uvm_test_top.env.master_agent.sqr@@rand_seq [axi4_random_seq] [28/50] AXI4_WRITE: ID=0x4 ADDR=0x37efe7cf LEN=0 BURST=AXI4_BURST_INCR
# UVM_INFO ../src/mst/axi4_master_driver.sv(73) @ 95000: uvm_test_top.env.master_agent.drv [axi4_master_driver] Driving AXI4_READ  ID=0xd  ADDR=0x13f3e0e7  LEN=6
# UVM_INFO ../src/seq/axi4_random_seq.sv(58) @ 95000: uvm_test_top.env.master_agent.sqr@@rand_seq [axi4_random_seq] [29/50] AXI4_READ: ID=0xd ADDR=0x13f3e0e7 LEN=6 BURST=AXI4_BURST_INCR
# UVM_INFO ../src/mst/axi4_master_driver.sv(73) @ 95000: uvm_test_top.env.master_agent.drv [axi4_master_driver] Driving AXI4_WRITE  ID=0x6  ADDR=0x869d6b42  LEN=119
# UVM_INFO ../src/seq/axi4_random_seq.sv(58) @ 95000: uvm_test_top.env.master_agent.sqr@@rand_seq [axi4_random_seq] [30/50] AXI4_WRITE: ID=0x6 ADDR=0x869d6b42 LEN=119 BURST=AXI4_BURST_INCR
# UVM_INFO ../src/mst/axi4_master_driver.sv(73) @ 95000: uvm_test_top.env.master_agent.drv [axi4_master_driver] Driving AXI4_WRITE  ID=0xb  ADDR=0xbb85e2e2  LEN=43
# UVM_INFO ../src/seq/axi4_random_seq.sv(58) @ 95000: uvm_test_top.env.master_agent.sqr@@rand_seq [axi4_random_seq] [31/50] AXI4_WRITE: ID=0xb ADDR=0xbb85e2e2 LEN=43 BURST=AXI4_BURST_INCR
# UVM_INFO ../src/mst/axi4_master_driver.sv(73) @ 95000: uvm_test_top.env.master_agent.drv [axi4_master_driver] Driving AXI4_WRITE  ID=0x8  ADDR=0x4eff1bb7  LEN=53
# UVM_INFO ../src/seq/axi4_random_seq.sv(58) @ 95000: uvm_test_top.env.master_agent.sqr@@rand_seq [axi4_random_seq] [32/50] AXI4_WRITE: ID=0x8 ADDR=0x4eff1bb7 LEN=53 BURST=AXI4_BURST_INCR
# UVM_INFO ../src/mst/axi4_master_driver.sv(73) @ 95000: uvm_test_top.env.master_agent.drv [axi4_master_driver] Driving AXI4_WRITE  ID=0x2  ADDR=0x2c0b1c22  LEN=246
# UVM_INFO ../src/seq/axi4_random_seq.sv(58) @ 95000: uvm_test_top.env.master_agent.sqr@@rand_seq [axi4_random_seq] [33/50] AXI4_WRITE: ID=0x2 ADDR=0x2c0b1c22 LEN=246 BURST=AXI4_BURST_INCR
# UVM_INFO ../src/mst/axi4_master_driver.sv(73) @ 95000: uvm_test_top.env.master_agent.drv [axi4_master_driver] Driving AXI4_READ  ID=0xe  ADDR=0xd400c6ba  LEN=148
# UVM_INFO ../src/seq/axi4_random_seq.sv(58) @ 95000: uvm_test_top.env.master_agent.sqr@@rand_seq [axi4_random_seq] [34/50] AXI4_READ: ID=0xe ADDR=0xd400c6ba LEN=148 BURST=AXI4_BURST_INCR
# UVM_INFO ../src/mst/axi4_master_driver.sv(73) @ 95000: uvm_test_top.env.master_agent.drv [axi4_master_driver] Driving AXI4_WRITE  ID=0x0  ADDR=0x176c36ab  LEN=121
# UVM_INFO ../src/seq/axi4_random_seq.sv(58) @ 95000: uvm_test_top.env.master_agent.sqr@@rand_seq [axi4_random_seq] [35/50] AXI4_WRITE: ID=0x0 ADDR=0x176c36ab LEN=121 BURST=AXI4_BURST_INCR
# UVM_INFO ../src/mst/axi4_master_driver.sv(73) @ 95000: uvm_test_top.env.master_agent.drv [axi4_master_driver] Driving AXI4_WRITE  ID=0x9  ADDR=0x75b44533  LEN=69
# UVM_INFO ../src/seq/axi4_random_seq.sv(58) @ 95000: uvm_test_top.env.master_agent.sqr@@rand_seq [axi4_random_seq] [36/50] AXI4_WRITE: ID=0x9 ADDR=0x75b44533 LEN=69 BURST=AXI4_BURST_INCR
# UVM_INFO ../src/mst/axi4_master_driver.sv(73) @ 95000: uvm_test_top.env.master_agent.drv [axi4_master_driver] Driving AXI4_WRITE  ID=0x2  ADDR=0xfb3758b8  LEN=246
# UVM_INFO ../src/seq/axi4_random_seq.sv(58) @ 95000: uvm_test_top.env.master_agent.sqr@@rand_seq [axi4_random_seq] [37/50] AXI4_WRITE: ID=0x2 ADDR=0xfb3758b8 LEN=246 BURST=AXI4_BURST_INCR
# UVM_INFO ../src/mst/axi4_master_driver.sv(73) @ 95000: uvm_test_top.env.master_agent.drv [axi4_master_driver] Driving AXI4_WRITE  ID=0x5  ADDR=0x69760432  LEN=86
# UVM_INFO ../src/seq/axi4_random_seq.sv(58) @ 95000: uvm_test_top.env.master_agent.sqr@@rand_seq [axi4_random_seq] [38/50] AXI4_WRITE: ID=0x5 ADDR=0x69760432 LEN=86 BURST=AXI4_BURST_INCR
# UVM_INFO ../src/mst/axi4_master_driver.sv(73) @ 95000: uvm_test_top.env.master_agent.drv [axi4_master_driver] Driving AXI4_WRITE  ID=0x8  ADDR=0x96b163cb  LEN=181
# UVM_INFO ../src/seq/axi4_random_seq.sv(58) @ 95000: uvm_test_top.env.master_agent.sqr@@rand_seq [axi4_random_seq] [39/50] AXI4_WRITE: ID=0x8 ADDR=0x96b163cb LEN=181 BURST=AXI4_BURST_INCR
# UVM_INFO ../src/mst/axi4_master_driver.sv(73) @ 95000: uvm_test_top.env.master_agent.drv [axi4_master_driver] Driving AXI4_WRITE  ID=0xc  ADDR=0xe92bbaf9  LEN=12
# UVM_INFO ../src/seq/axi4_random_seq.sv(58) @ 95000: uvm_test_top.env.master_agent.sqr@@rand_seq [axi4_random_seq] [40/50] AXI4_WRITE: ID=0xc ADDR=0xe92bbaf9 LEN=12 BURST=AXI4_BURST_FIXED
# UVM_INFO ../src/mst/axi4_master_driver.sv(73) @ 95000: uvm_test_top.env.master_agent.drv [axi4_master_driver] Driving AXI4_READ  ID=0x6  ADDR=0x02c433b6  LEN=251
# UVM_INFO ../src/seq/axi4_random_seq.sv(58) @ 95000: uvm_test_top.env.master_agent.sqr@@rand_seq [axi4_random_seq] [41/50] AXI4_READ: ID=0x6 ADDR=0x02c433b6 LEN=251 BURST=AXI4_BURST_INCR
# UVM_INFO ../src/mst/axi4_master_driver.sv(73) @ 95000: uvm_test_top.env.master_agent.drv [axi4_master_driver] Driving AXI4_WRITE  ID=0x5  ADDR=0xbedcedca  LEN=212
# UVM_INFO ../src/seq/axi4_random_seq.sv(58) @ 95000: uvm_test_top.env.master_agent.sqr@@rand_seq [axi4_random_seq] [42/50] AXI4_WRITE: ID=0x5 ADDR=0xbedcedca LEN=212 BURST=AXI4_BURST_INCR
# UVM_INFO ../src/mst/axi4_master_driver.sv(73) @ 95000: uvm_test_top.env.master_agent.drv [axi4_master_driver] Driving AXI4_READ  ID=0x3  ADDR=0x326a6e43  LEN=66
# UVM_INFO ../src/seq/axi4_random_seq.sv(58) @ 95000: uvm_test_top.env.master_agent.sqr@@rand_seq [axi4_random_seq] [43/50] AXI4_READ: ID=0x3 ADDR=0x326a6e43 LEN=66 BURST=AXI4_BURST_INCR
# UVM_INFO ../src/mst/axi4_master_driver.sv(73) @ 95000: uvm_test_top.env.master_agent.drv [axi4_master_driver] Driving AXI4_READ  ID=0x9  ADDR=0x652a0cc0  LEN=7
# UVM_INFO ../src/seq/axi4_random_seq.sv(58) @ 95000: uvm_test_top.env.master_agent.sqr@@rand_seq [axi4_random_seq] [44/50] AXI4_READ: ID=0x9 ADDR=0x652a0cc0 LEN=7 BURST=AXI4_BURST_WRAP
# UVM_INFO ../src/mst/axi4_master_driver.sv(73) @ 95000: uvm_test_top.env.master_agent.drv [axi4_master_driver] Driving AXI4_READ  ID=0x1  ADDR=0x174043f0  LEN=198
# UVM_INFO ../src/seq/axi4_random_seq.sv(58) @ 95000: uvm_test_top.env.master_agent.sqr@@rand_seq [axi4_random_seq] [45/50] AXI4_READ: ID=0x1 ADDR=0x174043f0 LEN=198 BURST=AXI4_BURST_INCR
# UVM_INFO ../src/mst/axi4_master_driver.sv(73) @ 95000: uvm_test_top.env.master_agent.drv [axi4_master_driver] Driving AXI4_READ  ID=0x8  ADDR=0x03fc8949  LEN=74
# UVM_INFO ../src/seq/axi4_random_seq.sv(58) @ 95000: uvm_test_top.env.master_agent.sqr@@rand_seq [axi4_random_seq] [46/50] AXI4_READ: ID=0x8 ADDR=0x03fc8949 LEN=74 BURST=AXI4_BURST_INCR
# UVM_INFO ../src/mst/axi4_master_driver.sv(73) @ 95000: uvm_test_top.env.master_agent.drv [axi4_master_driver] Driving AXI4_WRITE  ID=0x0  ADDR=0x3d180efe  LEN=4
# UVM_INFO ../src/seq/axi4_random_seq.sv(58) @ 95000: uvm_test_top.env.master_agent.sqr@@rand_seq [axi4_random_seq] [47/50] AXI4_WRITE: ID=0x0 ADDR=0x3d180efe LEN=4 BURST=AXI4_BURST_FIXED
# UVM_INFO ../src/mst/axi4_master_driver.sv(73) @ 95000: uvm_test_top.env.master_agent.drv [axi4_master_driver] Driving AXI4_WRITE  ID=0xc  ADDR=0x994c0960  LEN=15
# UVM_INFO ../src/seq/axi4_random_seq.sv(58) @ 95000: uvm_test_top.env.master_agent.sqr@@rand_seq [axi4_random_seq] [48/50] AXI4_WRITE: ID=0xc ADDR=0x994c0960 LEN=15 BURST=AXI4_BURST_FIXED
# UVM_INFO ../src/mst/axi4_master_driver.sv(73) @ 95000: uvm_test_top.env.master_agent.drv [axi4_master_driver] Driving AXI4_WRITE  ID=0xb  ADDR=0x1a23e43d  LEN=7
# UVM_INFO ../src/seq/axi4_random_seq.sv(58) @ 95000: uvm_test_top.env.master_agent.sqr@@rand_seq [axi4_random_seq] [49/50] AXI4_WRITE: ID=0xb ADDR=0x1a23e43d LEN=7 BURST=AXI4_BURST_WRAP
# UVM_INFO ../src/mst/axi4_master_driver.sv(73) @ 95000: uvm_test_top.env.master_agent.drv [axi4_master_driver] Driving AXI4_WRITE  ID=0x4  ADDR=0x3a6fd11e  LEN=51
# UVM_INFO ../src/seq/axi4_random_seq.sv(58) @ 95000: uvm_test_top.env.master_agent.sqr@@rand_seq [axi4_random_seq] [50/50] AXI4_WRITE: ID=0x4 ADDR=0x3a6fd11e LEN=51 BURST=AXI4_BURST_INCR
# UVM_INFO ../src/seq/axi4_random_seq.sv(63) @ 95000: uvm_test_top.env.master_agent.sqr@@rand_seq [axi4_random_seq] Random sequence complete: 50 transactions sent
# UVM_INFO ../src/slv/axi4_slave_driver.sv(386) @ 115000: uvm_test_top.env.slave_agent.drv [axi4_slave_driver] AR received: ID=0x4 ADDR=0x4bc32640 LEN=39 LOCK=AXI4_LOCK_NORMAL
# UVM_INFO ../src/slv/axi4_slave_driver.sv(228) @ 115000: uvm_test_top.env.slave_agent.drv [axi4_slave_driver] AW received: ID=0xd ADDR=0xa91a8173 LEN=131 LOCK=AXI4_LOCK_NORMAL
# UVM_INFO ../src/slv/axi4_slave_monitor.sv(224) @ 115000: uvm_test_top.env.slave_agent.mon [axi4_slave_monitor] AR received: ID=0x4 ADDR=0x4bc32640 LEN=39
# UVM_INFO ../src/slv/axi4_slave_monitor.sv(116) @ 115000: uvm_test_top.env.slave_agent.mon [axi4_slave_monitor] AW received: ID=0xd ADDR=0xa91a8173 LEN=131
# UVM_INFO ../src/mst/axi4_master_monitor.sv(246) @ 115000: uvm_test_top.env.master_agent.mon [axi4_master_monitor] AR observed: ID=0x4 ADDR=0x4bc32640 LEN=39
# UVM_INFO ../src/mst/axi4_master_monitor.sv(124) @ 115000: uvm_test_top.env.master_agent.mon [axi4_master_monitor] AW observed: ID=0xd ADDR=0xa91a8173 LEN=131
# UVM_INFO ../src/slv/axi4_slave_driver.sv(228) @ 145000: uvm_test_top.env.slave_agent.drv [axi4_slave_driver] AW received: ID=0x7 ADDR=0x20c2022a LEN=101 LOCK=AXI4_LOCK_NORMAL
# UVM_INFO ../src/slv/axi4_slave_driver.sv(386) @ 145000: uvm_test_top.env.slave_agent.drv [axi4_slave_driver] AR received: ID=0xd ADDR=0x71b5015a LEN=243 LOCK=AXI4_LOCK_NORMAL
# UVM_INFO ../src/mst/axi4_master_monitor.sv(124) @ 145000: uvm_test_top.env.master_agent.mon [axi4_master_monitor] AW observed: ID=0x7 ADDR=0x20c2022a LEN=101
# UVM_INFO ../src/mst/axi4_master_monitor.sv(246) @ 145000: uvm_test_top.env.master_agent.mon [axi4_master_monitor] AR observed: ID=0xd ADDR=0x71b5015a LEN=243
# UVM_INFO ../src/slv/axi4_slave_monitor.sv(116) @ 145000: uvm_test_top.env.slave_agent.mon [axi4_slave_monitor] AW received: ID=0x7 ADDR=0x20c2022a LEN=101
# UVM_INFO ../src/slv/axi4_slave_monitor.sv(224) @ 145000: uvm_test_top.env.slave_agent.mon [axi4_slave_monitor] AR received: ID=0xd ADDR=0x71b5015a LEN=243
# UVM_INFO ../src/slv/axi4_slave_driver.sv(386) @ 175000: uvm_test_top.env.slave_agent.drv [axi4_slave_driver] AR received: ID=0xa ADDR=0xc658153a LEN=49 LOCK=AXI4_LOCK_NORMAL
# UVM_INFO ../src/slv/axi4_slave_driver.sv(228) @ 175000: uvm_test_top.env.slave_agent.drv [axi4_slave_driver] AW received: ID=0xb ADDR=0xbfbad100 LEN=77 LOCK=AXI4_LOCK_NORMAL
# UVM_INFO ../src/slv/axi4_slave_monitor.sv(224) @ 175000: uvm_test_top.env.slave_agent.mon [axi4_slave_monitor] AR received: ID=0xa ADDR=0xc658153a LEN=49
# UVM_INFO ../src/slv/axi4_slave_monitor.sv(116) @ 175000: uvm_test_top.env.slave_agent.mon [axi4_slave_monitor] AW received: ID=0xb ADDR=0xbfbad100 LEN=77
# UVM_INFO ../src/mst/axi4_master_monitor.sv(246) @ 175000: uvm_test_top.env.master_agent.mon [axi4_master_monitor] AR observed: ID=0xa ADDR=0xc658153a LEN=49
# UVM_INFO ../src/mst/axi4_master_monitor.sv(124) @ 175000: uvm_test_top.env.master_agent.mon [axi4_master_monitor] AW observed: ID=0xb ADDR=0xbfbad100 LEN=77
# UVM_INFO ../src/slv/axi4_slave_driver.sv(386) @ 205000: uvm_test_top.env.slave_agent.drv [axi4_slave_driver] AR received: ID=0x2 ADDR=0x10b592b4 LEN=133 LOCK=AXI4_LOCK_NORMAL
# UVM_INFO ../src/mst/axi4_master_monitor.sv(246) @ 205000: uvm_test_top.env.master_agent.mon [axi4_master_monitor] AR observed: ID=0x2 ADDR=0x10b592b4 LEN=133
# UVM_INFO ../src/slv/axi4_slave_monitor.sv(224) @ 205000: uvm_test_top.env.slave_agent.mon [axi4_slave_monitor] AR received: ID=0x2 ADDR=0x10b592b4 LEN=133
# UVM_INFO ../src/slv/axi4_slave_driver.sv(386) @ 235000: uvm_test_top.env.slave_agent.drv [axi4_slave_driver] AR received: ID=0xf ADDR=0xc3d38556 LEN=20 LOCK=AXI4_LOCK_NORMAL
# UVM_INFO ../src/slv/axi4_slave_monitor.sv(224) @ 235000: uvm_test_top.env.slave_agent.mon [axi4_slave_monitor] AR received: ID=0xf ADDR=0xc3d38556 LEN=20
# UVM_INFO ../src/mst/axi4_master_monitor.sv(246) @ 235000: uvm_test_top.env.master_agent.mon [axi4_master_monitor] AR observed: ID=0xf ADDR=0xc3d38556 LEN=20
# UVM_INFO ../src/slv/axi4_slave_driver.sv(386) @ 265000: uvm_test_top.env.slave_agent.drv [axi4_slave_driver] AR received: ID=0x3 ADDR=0xf3a8ca3f LEN=185 LOCK=AXI4_LOCK_NORMAL
# UVM_INFO ../src/mst/axi4_master_monitor.sv(246) @ 265000: uvm_test_top.env.master_agent.mon [axi4_master_monitor] AR observed: ID=0x3 ADDR=0xf3a8ca3f LEN=185
# UVM_INFO ../src/slv/axi4_slave_monitor.sv(224) @ 265000: uvm_test_top.env.slave_agent.mon [axi4_slave_monitor] AR received: ID=0x3 ADDR=0xf3a8ca3f LEN=185
# UVM_INFO ../src/slv/axi4_slave_driver.sv(386) @ 295000: uvm_test_top.env.slave_agent.drv [axi4_slave_driver] AR received: ID=0x4 ADDR=0x5e963a29 LEN=14 LOCK=AXI4_LOCK_NORMAL
# UVM_INFO ../src/slv/axi4_slave_monitor.sv(224) @ 295000: uvm_test_top.env.slave_agent.mon [axi4_slave_monitor] AR received: ID=0x4 ADDR=0x5e963a29 LEN=14
# UVM_INFO ../src/mst/axi4_master_monitor.sv(246) @ 295000: uvm_test_top.env.master_agent.mon [axi4_master_monitor] AR observed: ID=0x4 ADDR=0x5e963a29 LEN=14
# UVM_INFO ../src/slv/axi4_slave_driver.sv(386) @ 325000: uvm_test_top.env.slave_agent.drv [axi4_slave_driver] AR received: ID=0x5 ADDR=0xdf352e44 LEN=55 LOCK=AXI4_LOCK_NORMAL
# UVM_INFO ../src/mst/axi4_master_monitor.sv(246) @ 325000: uvm_test_top.env.master_agent.mon [axi4_master_monitor] AR observed: ID=0x5 ADDR=0xdf352e44 LEN=55
# UVM_INFO ../src/slv/axi4_slave_monitor.sv(224) @ 325000: uvm_test_top.env.slave_agent.mon [axi4_slave_monitor] AR received: ID=0x5 ADDR=0xdf352e44 LEN=55
# UVM_INFO ../src/slv/axi4_slave_driver.sv(386) @ 355000: uvm_test_top.env.slave_agent.drv [axi4_slave_driver] AR received: ID=0xd ADDR=0x345941a1 LEN=12 LOCK=AXI4_LOCK_NORMAL
# UVM_INFO ../src/slv/axi4_slave_monitor.sv(224) @ 355000: uvm_test_top.env.slave_agent.mon [axi4_slave_monitor] AR received: ID=0xd ADDR=0x345941a1 LEN=12
# UVM_INFO ../src/mst/axi4_master_monitor.sv(246) @ 355000: uvm_test_top.env.master_agent.mon [axi4_master_monitor] AR observed: ID=0xd ADDR=0x345941a1 LEN=12
# UVM_INFO ../src/slv/axi4_slave_driver.sv(386) @ 385000: uvm_test_top.env.slave_agent.drv [axi4_slave_driver] AR received: ID=0xf ADDR=0xec501699 LEN=218 LOCK=AXI4_LOCK_NORMAL
# UVM_INFO ../src/mst/axi4_master_monitor.sv(246) @ 385000: uvm_test_top.env.master_agent.mon [axi4_master_monitor] AR observed: ID=0xf ADDR=0xec501699 LEN=218
# UVM_INFO ../src/slv/axi4_slave_monitor.sv(224) @ 385000: uvm_test_top.env.slave_agent.mon [axi4_slave_monitor] AR received: ID=0xf ADDR=0xec501699 LEN=218
# UVM_INFO ../src/slv/axi4_slave_driver.sv(386) @ 415000: uvm_test_top.env.slave_agent.drv [axi4_slave_driver] AR received: ID=0x1 ADDR=0x70ed15a7 LEN=73 LOCK=AXI4_LOCK_NORMAL
# UVM_INFO ../src/slv/axi4_slave_monitor.sv(224) @ 415000: uvm_test_top.env.slave_agent.mon [axi4_slave_monitor] AR received: ID=0x1 ADDR=0x70ed15a7 LEN=73
# UVM_INFO ../src/mst/axi4_master_monitor.sv(246) @ 415000: uvm_test_top.env.master_agent.mon [axi4_master_monitor] AR observed: ID=0x1 ADDR=0x70ed15a7 LEN=73
# UVM_INFO ../src/slv/axi4_slave_driver.sv(386) @ 445000: uvm_test_top.env.slave_agent.drv [axi4_slave_driver] AR received: ID=0xd ADDR=0x13f3e0e7 LEN=6 LOCK=AXI4_LOCK_NORMAL
# UVM_INFO ../src/mst/axi4_master_monitor.sv(246) @ 445000: uvm_test_top.env.master_agent.mon [axi4_master_monitor] AR observed: ID=0xd ADDR=0x13f3e0e7 LEN=6
# UVM_INFO ../src/slv/axi4_slave_monitor.sv(224) @ 445000: uvm_test_top.env.slave_agent.mon [axi4_slave_monitor] AR received: ID=0xd ADDR=0x13f3e0e7 LEN=6
# UVM_INFO ../src/slv/axi4_slave_driver.sv(386) @ 475000: uvm_test_top.env.slave_agent.drv [axi4_slave_driver] AR received: ID=0xe ADDR=0xd400c6ba LEN=148 LOCK=AXI4_LOCK_NORMAL
# UVM_INFO ../src/slv/axi4_slave_monitor.sv(224) @ 475000: uvm_test_top.env.slave_agent.mon [axi4_slave_monitor] AR received: ID=0xe ADDR=0xd400c6ba LEN=148
# UVM_INFO ../src/mst/axi4_master_monitor.sv(246) @ 475000: uvm_test_top.env.master_agent.mon [axi4_master_monitor] AR observed: ID=0xe ADDR=0xd400c6ba LEN=148
# UVM_INFO ../src/slv/axi4_slave_driver.sv(386) @ 505000: uvm_test_top.env.slave_agent.drv [axi4_slave_driver] AR received: ID=0x6 ADDR=0x02c433b6 LEN=251 LOCK=AXI4_LOCK_NORMAL
# UVM_INFO ../src/mst/axi4_master_monitor.sv(246) @ 505000: uvm_test_top.env.master_agent.mon [axi4_master_monitor] AR observed: ID=0x6 ADDR=0x02c433b6 LEN=251
# UVM_INFO ../src/slv/axi4_slave_monitor.sv(224) @ 505000: uvm_test_top.env.slave_agent.mon [axi4_slave_monitor] AR received: ID=0x6 ADDR=0x02c433b6 LEN=251
# UVM_INFO ../src/slv/axi4_slave_driver.sv(386) @ 535000: uvm_test_top.env.slave_agent.drv [axi4_slave_driver] AR received: ID=0x3 ADDR=0x326a6e43 LEN=66 LOCK=AXI4_LOCK_NORMAL
# UVM_INFO ../src/slv/axi4_slave_monitor.sv(224) @ 535000: uvm_test_top.env.slave_agent.mon [axi4_slave_monitor] AR received: ID=0x3 ADDR=0x326a6e43 LEN=66
# UVM_INFO ../src/mst/axi4_master_monitor.sv(246) @ 535000: uvm_test_top.env.master_agent.mon [axi4_master_monitor] AR observed: ID=0x3 ADDR=0x326a6e43 LEN=66
# UVM_INFO ../src/slv/axi4_slave_driver.sv(386) @ 565000: uvm_test_top.env.slave_agent.drv [axi4_slave_driver] AR received: ID=0x9 ADDR=0x652a0cc0 LEN=7 LOCK=AXI4_LOCK_EXCLUSIVE
# UVM_INFO ../src/mst/axi4_master_monitor.sv(246) @ 565000: uvm_test_top.env.master_agent.mon [axi4_master_monitor] AR observed: ID=0x9 ADDR=0x652a0cc0 LEN=7
# UVM_INFO ../src/slv/axi4_slave_monitor.sv(224) @ 565000: uvm_test_top.env.slave_agent.mon [axi4_slave_monitor] AR received: ID=0x9 ADDR=0x652a0cc0 LEN=7
# UVM_INFO ../src/slv/axi4_slave_driver.sv(386) @ 595000: uvm_test_top.env.slave_agent.drv [axi4_slave_driver] AR received: ID=0x1 ADDR=0x174043f0 LEN=198 LOCK=AXI4_LOCK_NORMAL
# UVM_INFO ../src/slv/axi4_slave_monitor.sv(224) @ 595000: uvm_test_top.env.slave_agent.mon [axi4_slave_monitor] AR received: ID=0x1 ADDR=0x174043f0 LEN=198
# UVM_INFO ../src/mst/axi4_master_monitor.sv(246) @ 595000: uvm_test_top.env.master_agent.mon [axi4_master_monitor] AR observed: ID=0x1 ADDR=0x174043f0 LEN=198
# UVM_INFO ../src/slv/axi4_slave_driver.sv(386) @ 625000: uvm_test_top.env.slave_agent.drv [axi4_slave_driver] AR received: ID=0x8 ADDR=0x03fc8949 LEN=74 LOCK=AXI4_LOCK_NORMAL
# UVM_INFO ../src/mst/axi4_master_monitor.sv(246) @ 625000: uvm_test_top.env.master_agent.mon [axi4_master_monitor] AR observed: ID=0x8 ADDR=0x03fc8949 LEN=74
# UVM_INFO ../src/slv/axi4_slave_monitor.sv(224) @ 625000: uvm_test_top.env.slave_agent.mon [axi4_slave_monitor] AR received: ID=0x8 ADDR=0x03fc8949 LEN=74
# UVM_INFO ../src/mst/axi4_master_driver.sv(348) @ 915000: uvm_test_top.env.master_agent.drv [axi4_master_driver] Master driver received all R beats for ID=0x4
# UVM_INFO ../src/slv/axi4_slave_driver.sv(501) @ 915000: uvm_test_top.env.slave_agent.drv [axi4_slave_driver] Read complete: ID=0x4 ADDR=0x4bc32640 RESP=AXI4_RESP_OKAY  40 beats sent
# UVM_INFO ../src/slv/axi4_slave_monitor.sv(287) @ 915000: uvm_test_top.env.slave_agent.mon [axi4_slave_monitor] Read data sent: ID=0x4 ADDR=0x4bc32640 40 beats
# UVM_INFO ../src/env/axi4_scoreboard.sv(108) @ 915000: uvm_test_top.env.scb [axi4_scoreboard] Slave AXI4_READ received: ID=0x4 ADDR=0x4bc32640 LEN=39
# UVM_INFO ../src/mst/axi4_master_monitor.sv(314) @ 915000: uvm_test_top.env.master_agent.mon [axi4_master_monitor] Read complete: ID=0x4 ADDR=0x4bc32640 40 beats
# UVM_INFO ../src/env/axi4_scoreboard.sv(87) @ 915000: uvm_test_top.env.scb [axi4_scoreboard] Master AXI4_READ received: ID=0x4 ADDR=0x4bc32640 LEN=39
# UVM_INFO ../src/env/axi4_scoreboard.sv(291) @ 915000: uvm_test_top.env.scb [axi4_scoreboard] [READ] MATCH #1: ID=0x4 ADDR=0x4bc32640 LEN=39
# UVM_INFO ../src/test/axi4_random_test.sv(57) @ 1095000: uvm_test_top [axi4_random_test] Random test complete: 50 transactions executed
# UVM_INFO ../src/mst/axi4_master_monitor.sv(184) @ 2725000: uvm_test_top.env.master_agent.mon [axi4_master_monitor] W data assembled: ID=0xd ADDR=0xa91a8173 132 beats
# UVM_INFO ../src/slv/axi4_slave_monitor.sv(167) @ 2725000: uvm_test_top.env.slave_agent.mon [axi4_slave_monitor] W data assembled: ID=0xd ADDR=0xa91a8173 132 beats
# UVM_INFO ../src/mst/axi4_master_driver.sv(289) @ 2755000: uvm_test_top.env.master_agent.drv [axi4_master_driver] Master driver received B response: ID=0xd RESP=AXI4_RESP_OKAY
# UVM_INFO ../src/slv/axi4_slave_driver.sv(348) @ 2755000: uvm_test_top.env.slave_agent.drv [axi4_slave_driver] Write complete: ID=0xd RESP=AXI4_RESP_OKAY
# UVM_INFO ../src/slv/axi4_slave_monitor.sv(189) @ 2755000: uvm_test_top.env.slave_agent.mon [axi4_slave_monitor] Write response sent: ID=0xd ADDR=0xa91a8173 RESP=AXI4_RESP_OKAY
# UVM_INFO ../src/env/axi4_scoreboard.sv(108) @ 2755000: uvm_test_top.env.scb [axi4_scoreboard] Slave AXI4_WRITE received: ID=0xd ADDR=0xa91a8173 LEN=131
# UVM_INFO ../src/mst/axi4_master_monitor.sv(210) @ 2755000: uvm_test_top.env.master_agent.mon [axi4_master_monitor] Write complete: ID=0xd ADDR=0xa91a8173 RESP=AXI4_RESP_OKAY
# UVM_INFO ../src/env/axi4_scoreboard.sv(87) @ 2755000: uvm_test_top.env.scb [axi4_scoreboard] Master AXI4_WRITE received: ID=0xd ADDR=0xa91a8173 LEN=131
# UVM_INFO ../src/env/axi4_scoreboard.sv(291) @ 2755000: uvm_test_top.env.scb [axi4_scoreboard] [WRITE] MATCH #2: ID=0xd ADDR=0xa91a8173 LEN=131
# UVM_INFO ../src/env/axi4_scoreboard.sv(219) @ 2755000: uvm_test_top.env.scb [axi4_scoreboard] [REF_MEM_WRITE] Addr=0xa91a8171 Data=0xd8
# UVM_INFO ../src/env/axi4_scoreboard.sv(219) @ 2755000: uvm_test_top.env.scb [axi4_scoreboard] [REF_MEM_WRITE] Addr=0xa91a8173 Data=0x7d
# UVM_INFO ../src/env/axi4_scoreboard.sv(219) @ 2755000: uvm_test_top.env.scb [axi4_scoreboard] [REF_MEM_WRITE] Addr=0xa91a8176 Data=0x11
# UVM_INFO ../src/env/axi4_scoreboard.sv(219) @ 2755000: uvm_test_top.env.scb [axi4_scoreboard] [REF_MEM_WRITE] Addr=0xa91a8174 Data=0xb1
# UVM_INFO ../src/env/axi4_scoreboard.sv(219) @ 2755000: uvm_test_top.env.scb [axi4_scoreboard] [REF_MEM_WRITE] Addr=0xa91a8177 Data=0x18
# UVM_INFO ../src/env/axi4_scoreboard.sv(219) @ 2755000: uvm_test_top.env.scb [axi4_scoreboard] [REF_MEM_WRITE] Addr=0xa91a8178 Data=0x74
# UVM_INFO ../src/env/axi4_scoreboard.sv(219) @ 2755000: uvm_test_top.env.scb [axi4_scoreboard] [REF_MEM_WRITE] Addr=0xa91a8178 Data=0x2d
# UVM_INFO ../src/env/axi4_scoreboard.sv(219) @ 2755000: uvm_test_top.env.scb [axi4_scoreboard] [REF_MEM_WRITE] Addr=0xa91a8179 Data=0x51
# UVM_INFO ../src/env/axi4_scoreboard.sv(219) @ 2755000: uvm_test_top.env.scb [axi4_scoreboard] [REF_MEM_WRITE] Addr=0xa91a817a Data=0xef
# UVM_INFO ../src/env/axi4_scoreboard.sv(219) @ 2755000: uvm_test_top.env.scb [axi4_scoreboard] [REF_MEM_WRITE] Addr=0xa91a817c Data=0x1e
# UVM_INFO ../src/env/axi4_scoreboard.sv(219) @ 2755000: uvm_test_top.env.scb [axi4_scoreboard] [REF_MEM_WRITE] Addr=0xa91a817e Data=0xf4
# UVM_INFO ../src/env/axi4_scoreboard.sv(219) @ 2755000: uvm_test_top.env.scb [axi4_scoreboard] [REF_MEM_WRITE] Addr=0xa91a817f Data=0xe1
# UVM_INFO ../src/env/axi4_scoreboard.sv(219) @ 2755000: uvm_test_top.env.scb [axi4_scoreboard] [REF_MEM_WRITE] Addr=0xa91a817c Data=0x78
# UVM_INFO ../src/env/axi4_scoreboard.sv(219) @ 2755000: uvm_test_top.env.scb [axi4_scoreboard] [REF_MEM_WRITE] Addr=0xa91a817e Data=0xea
# UVM_INFO ../src/env/axi4_scoreboard.sv(219) @ 2755000: uvm_test_top.env.scb [axi4_scoreboard] [REF_MEM_WRITE] Addr=0xa91a8180 Data=0x32
# UVM_INFO ../src/env/axi4_scoreboard.sv(219) @ 2755000: uvm_test_top.env.scb [axi4_scoreboard] [REF_MEM_WRITE] Addr=0xa91a8181 Data=0xeb
# UVM_INFO ../src/env/axi4_scoreboard.sv(219) @ 2755000: uvm_test_top.env.scb [axi4_scoreboard] [REF_MEM_WRITE] Addr=0xa91a8183 Data=0x03
# UVM_INFO ../src/env/axi4_scoreboard.sv(219) @ 2755000: uvm_test_top.env.scb [axi4_scoreboard] [REF_MEM_WRITE] Addr=0xa91a8182 Data=0xdd
# UVM_INFO ../src/env/axi4_scoreboard.sv(219) @ 2755000: uvm_test_top.env.scb [axi4_scoreboard] [REF_MEM_WRITE] Addr=0xa91a8185 Data=0x3b
# UVM_INFO ../src/env/axi4_scoreboard.sv(219) @ 2755000: uvm_test_top.env.scb [axi4_scoreboard] [REF_MEM_WRITE] Addr=0xa91a8187 Data=0xe4
# UVM_INFO ../src/env/axi4_scoreboard.sv(219) @ 2755000: uvm_test_top.env.scb [axi4_scoreboard] [REF_MEM_WRITE] Addr=0xa91a8184 Data=0x55
# UVM_INFO ../src/env/axi4_scoreboard.sv(219) @ 2755000: uvm_test_top.env.scb [axi4_scoreboard] [REF_MEM_WRITE] Addr=0xa91a8188 Data=0xc1
# UVM_INFO ../src/env/axi4_scoreboard.sv(219) @ 2755000: uvm_test_top.env.scb [axi4_scoreboard] [REF_MEM_WRITE] Addr=0xa91a8189 Data=0xc7
# UVM_INFO ../src/env/axi4_scoreboard.sv(219) @ 2755000: uvm_test_top.env.scb [axi4_scoreboard] [REF_MEM_WRITE] Addr=0xa91a818b Data=0x82
# UVM_INFO ../src/env/axi4_scoreboard.sv(219) @ 2755000: uvm_test_top.env.scb [axi4_scoreboard] [REF_MEM_WRITE] Addr=0xa91a8188 Data=0x75
# UVM_INFO ../src/env/axi4_scoreboard.sv(219) @ 2755000: uvm_test_top.env.scb [axi4_scoreboard] [REF_MEM_WRITE] Addr=0xa91a818b Data=0xab
# UVM_INFO ../src/env/axi4_scoreboard.sv(219) @ 2755000: uvm_test_top.env.scb [axi4_scoreboard] [REF_MEM_WRITE] Addr=0xa91a818c Data=0xf2
# UVM_INFO ../src/env/axi4_scoreboard.sv(219) @ 2755000: uvm_test_top.env.scb [axi4_scoreboard] [REF_MEM_WRITE] Addr=0xa91a818d Data=0xf8
# UVM_INFO ../src/env/axi4_scoreboard.sv(219) @ 2755000: uvm_test_top.env.scb [axi4_scoreboard] [REF_MEM_WRITE] Addr=0xa91a818e Data=0x53
# UVM_INFO ../src/env/axi4_scoreboard.sv(219) @ 2755000: uvm_test_top.env.scb [axi4_scoreboard] [REF_MEM_WRITE] Addr=0xa91a818c Data=0xbf
# UVM_INFO ../src/env/axi4_scoreboard.sv(219) @ 2755000: uvm_test_top.env.scb [axi4_scoreboard] [REF_MEM_WRITE] Addr=0xa91a818d Data=0xdb
# UVM_INFO ../src/env/axi4_scoreboard.sv(219) @ 2755000: uvm_test_top.env.scb [axi4_scoreboard] [REF_MEM_WRITE] Addr=0xa91a818e Data=0xd3
# UVM_INFO ../src/env/axi4_scoreboard.sv(219) @ 2755000: uvm_test_top.env.scb [axi4_scoreboard] [REF_MEM_WRITE] Addr=0xa91a8191 Data=0xf3
# UVM_INFO ../src/env/axi4_scoreboard.sv(219) @ 2755000: uvm_test_top.env.scb [axi4_scoreboard] [REF_MEM_WRITE] Addr=0xa91a8192 Data=0x75
# UVM_INFO ../src/env/axi4_scoreboard.sv(219) @ 2755000: uvm_test_top.env.scb [axi4_scoreboard] [REF_MEM_WRITE] Addr=0xa91a8192 Data=0x83
# UVM_INFO ../src/env/axi4_scoreboard.sv(219) @ 2755000: uvm_test_top.env.scb [axi4_scoreboard] [REF_MEM_WRITE] Addr=0xa91a8193 Data=0x88
# UVM_INFO ../src/env/axi4_scoreboard.sv(219) @ 2755000: uvm_test_top.env.scb [axi4_scoreboard] [REF_MEM_WRITE] Addr=0xa91a8194 Data=0x9b
# UVM_INFO ../src/env/axi4_scoreboard.sv(219) @ 2755000: uvm_test_top.env.scb [axi4_scoreboard] [REF_MEM_WRITE] Addr=0xa91a8195 Data=0xcb
# UVM_INFO ../src/env/axi4_scoreboard.sv(219) @ 2755000: uvm_test_top.env.scb [axi4_scoreboard] [REF_MEM_WRITE] Addr=0xa91a8197 Data=0x48
# UVM_INFO ../src/env/axi4_scoreboard.sv(219) @ 2755000: uvm_test_top.env.scb [axi4_scoreboard] [REF_MEM_WRITE] Addr=0xa91a8198 Data=0x13
# UVM_INFO ../src/env/axi4_scoreboard.sv(219) @ 2755000: uvm_test_top.env.scb [axi4_scoreboard] [REF_MEM_WRITE] Addr=0xa91a819b Data=0xb1
# UVM_INFO ../src/env/axi4_scoreboard.sv(219) @ 2755000: uvm_test_top.env.scb [axi4_scoreboard] [REF_MEM_WRITE] Addr=0xa91a819c Data=0xe2
# UVM_INFO ../src/env/axi4_scoreboard.sv(219) @ 2755000: uvm_test_top.env.scb [axi4_scoreboard] [REF_MEM_WRITE] Addr=0xa91a819d Data=0xfd
# UVM_INFO ../src/env/axi4_scoreboard.sv(219) @ 2755000: uvm_test_top.env.scb [axi4_scoreboard] [REF_MEM_WRITE] Addr=0xa91a81a0 Data=0x69
# UVM_INFO ../src/env/axi4_scoreboard.sv(219) @ 2755000: uvm_test_top.env.scb [axi4_scoreboard] [REF_MEM_WRITE] Addr=0xa91a81a2 Data=0x24
# UVM_INFO ../src/env/axi4_scoreboard.sv(219) @ 2755000: uvm_test_top.env.scb [axi4_scoreboard] [REF_MEM_WRITE] Addr=0xa91a81a5 Data=0xdd
# UVM_INFO ../src/env/axi4_scoreboard.sv(219) @ 2755000: uvm_test_top.env.scb [axi4_scoreboard] [REF_MEM_WRITE] Addr=0xa91a81a7 Data=0xb7
# UVM_INFO ../src/env/axi4_scoreboard.sv(219) @ 2755000: uvm_test_top.env.scb [axi4_scoreboard] [REF_MEM_WRITE] Addr=0xa91a81a4 Data=0xb8
# UVM_INFO ../src/env/axi4_scoreboard.sv(219) @ 2755000: uvm_test_top.env.scb [axi4_scoreboard] [REF_MEM_WRITE] Addr=0xa91a81a5 Data=0x26
# UVM_INFO ../src/env/axi4_scoreboard.sv(219) @ 2755000: uvm_test_top.env.scb [axi4_scoreboard] [REF_MEM_WRITE] Addr=0xa91a81a6 Data=0x23
# UVM_INFO ../src/env/axi4_scoreboard.sv(219) @ 2755000: uvm_test_top.env.scb [axi4_scoreboard] [REF_MEM_WRITE] Addr=0xa91a81a7 Data=0xb6
# UVM_INFO ../src/env/axi4_scoreboard.sv(219) @ 2755000: uvm_test_top.env.scb [axi4_scoreboard] [REF_MEM_WRITE] Addr=0xa91a81aa Data=0x24
# UVM_INFO ../src/env/axi4_scoreboard.sv(219) @ 2755000: uvm_test_top.env.scb [axi4_scoreboard] [REF_MEM_WRITE] Addr=0xa91a81ab Data=0x86
# UVM_INFO ../src/env/axi4_scoreboard.sv(219) @ 2755000: uvm_test_top.env.scb [axi4_scoreboard] [REF_MEM_WRITE] Addr=0xa91a81a8 Data=0x5c
# UVM_INFO ../src/env/axi4_scoreboard.sv(219) @ 2755000: uvm_test_top.env.scb [axi4_scoreboard] [REF_MEM_WRITE] Addr=0xa91a81aa Data=0xc1
# UVM_INFO ../src/env/axi4_scoreboard.sv(219) @ 2755000: uvm_test_top.env.scb [axi4_scoreboard] [REF_MEM_WRITE] Addr=0xa91a81ad Data=0x2b
# UVM_INFO ../src/env/axi4_scoreboard.sv(219) @ 2755000: uvm_test_top.env.scb [axi4_scoreboard] [REF_MEM_WRITE] Addr=0xa91a81ae Data=0x69
# UVM_INFO ../src/env/axi4_scoreboard.sv(219) @ 2755000: uvm_test_top.env.scb [axi4_scoreboard] [REF_MEM_WRITE] Addr=0xa91a81af Data=0xab
# UVM_INFO ../src/env/axi4_scoreboard.sv(219) @ 2755000: uvm_test_top.env.scb [axi4_scoreboard] [REF_MEM_WRITE] Addr=0xa91a81ac Data=0x71
# UVM_INFO ../src/env/axi4_scoreboard.sv(219) @ 2755000: uvm_test_top.env.scb [axi4_scoreboard] [REF_MEM_WRITE] Addr=0xa91a81ad Data=0x7c
# UVM_INFO ../src/env/axi4_scoreboard.sv(219) @ 2755000: uvm_test_top.env.scb [axi4_scoreboard] [REF_MEM_WRITE] Addr=0xa91a81ae Data=0x82
# UVM_INFO ../src/env/axi4_scoreboard.sv(219) @ 2755000: uvm_test_top.env.scb [axi4_scoreboard] [REF_MEM_WRITE] Addr=0xa91a81b0 Data=0x42
# UVM_INFO ../src/env/axi4_scoreboard.sv(219) @ 2755000: uvm_test_top.env.scb [axi4_scoreboard] [REF_MEM_WRITE] Addr=0xa91a81b0 Data=0x8d
# UVM_INFO ../src/env/axi4_scoreboard.sv(219) @ 2755000: uvm_test_top.env.scb [axi4_scoreboard] [REF_MEM_WRITE] Addr=0xa91a81b1 Data=0x59
# UVM_INFO ../src/env/axi4_scoreboard.sv(219) @ 2755000: uvm_test_top.env.scb [axi4_scoreboard] [REF_MEM_WRITE] Addr=0xa91a81b2 Data=0x9d
# UVM_INFO ../src/env/axi4_scoreboard.sv(219) @ 2755000: uvm_test_top.env.scb [axi4_scoreboard] [REF_MEM_WRITE] Addr=0xa91a81b3 Data=0x6b
# UVM_INFO ../src/env/axi4_scoreboard.sv(219) @ 2755000: uvm_test_top.env.scb [axi4_scoreboard] [REF_MEM_WRITE] Addr=0xa91a81b7 Data=0xa1
# UVM_INFO ../src/env/axi4_scoreboard.sv(219) @ 2755000: uvm_test_top.env.scb [axi4_scoreboard] [REF_MEM_WRITE] Addr=0xa91a81b5 Data=0xb2
# UVM_INFO ../src/env/axi4_scoreboard.sv(219) @ 2755000: uvm_test_top.env.scb [axi4_scoreboard] [REF_MEM_WRITE] Addr=0xa91a81b6 Data=0x67
# UVM_INFO ../src/env/axi4_scoreboard.sv(219) @ 2755000: uvm_test_top.env.scb [axi4_scoreboard] [REF_MEM_WRITE] Addr=0xa91a81b8 Data=0x7c
# UVM_INFO ../src/env/axi4_scoreboard.sv(219) @ 2755000: uvm_test_top.env.scb [axi4_scoreboard] [REF_MEM_WRITE] Addr=0xa91a81b8 Data=0x9b
# UVM_INFO ../src/env/axi4_scoreboard.sv(219) @ 2755000: uvm_test_top.env.scb [axi4_scoreboard] [REF_MEM_WRITE] Addr=0xa91a81ba Data=0x1d
# UVM_INFO ../src/env/axi4_scoreboard.sv(219) @ 2755000: uvm_test_top.env.scb [axi4_scoreboard] [REF_MEM_WRITE] Addr=0xa91a81bd Data=0xe5
# UVM_INFO ../src/env/axi4_scoreboard.sv(219) @ 2755000: uvm_test_top.env.scb [axi4_scoreboard] [REF_MEM_WRITE] Addr=0xa91a81bf Data=0x56
# UVM_INFO ../src/env/axi4_scoreboard.sv(219) @ 2755000: uvm_test_top.env.scb [axi4_scoreboard] [REF_MEM_WRITE] Addr=0xa91a81bc Data=0xb2
# UVM_INFO ../src/env/axi4_scoreboard.sv(219) @ 2755000: uvm_test_top.env.scb [axi4_scoreboard] [REF_MEM_WRITE] Addr=0xa91a81c0 Data=0x7f
# UVM_INFO ../src/env/axi4_scoreboard.sv(219) @ 2755000: uvm_test_top.env.scb [axi4_scoreboard] [REF_MEM_WRITE] Addr=0xa91a81c1 Data=0x1b
# UVM_INFO ../src/env/axi4_scoreboard.sv(219) @ 2755000: uvm_test_top.env.scb [axi4_scoreboard] [REF_MEM_WRITE] Addr=0xa91a81c2 Data=0xd3
# UVM_INFO ../src/env/axi4_scoreboard.sv(219) @ 2755000: uvm_test_top.env.scb [axi4_scoreboard] [REF_MEM_WRITE] Addr=0xa91a81c3 Data=0xe9
# UVM_INFO ../src/env/axi4_scoreboard.sv(219) @ 2755000: uvm_test_top.env.scb [axi4_scoreboard] [REF_MEM_WRITE] Addr=0xa91a81c8 Data=0x2f
# UVM_INFO ../src/env/axi4_scoreboard.sv(219) @ 2755000: uvm_test_top.env.scb [axi4_scoreboard] [REF_MEM_WRITE] Addr=0xa91a81c8 Data=0xc1
# UVM_INFO ../src/env/axi4_scoreboard.sv(219) @ 2755000: uvm_test_top.env.scb [axi4_scoreboard] [REF_MEM_WRITE] Addr=0xa91a81ca Data=0x37
# UVM_INFO ../src/env/axi4_scoreboard.sv(219) @ 2755000: uvm_test_top.env.scb [axi4_scoreboard] [REF_MEM_WRITE] Addr=0xa91a81cb Data=0x86
# UVM_INFO ../src/env/axi4_scoreboard.sv(219) @ 2755000: uvm_test_top.env.scb [axi4_scoreboard] [REF_MEM_WRITE] Addr=0xa91a81cc Data=0xc0
# UVM_INFO ../src/env/axi4_scoreboard.sv(219) @ 2755000: uvm_test_top.env.scb [axi4_scoreboard] [REF_MEM_WRITE] Addr=0xa91a81ce Data=0x50
# UVM_INFO ../src/env/axi4_scoreboard.sv(219) @ 2755000: uvm_test_top.env.scb [axi4_scoreboard] [REF_MEM_WRITE] Addr=0xa91a81cc Data=0x54
# UVM_INFO ../src/env/axi4_scoreboard.sv(219) @ 2755000: uvm_test_top.env.scb [axi4_scoreboard] [REF_MEM_WRITE] Addr=0xa91a81ce Data=0xfb
# UVM_INFO ../src/env/axi4_scoreboard.sv(219) @ 2755000: uvm_test_top.env.scb [axi4_scoreboard] [REF_MEM_WRITE] Addr=0xa91a81cf Data=0x31
# UVM_INFO ../src/env/axi4_scoreboard.sv(219) @ 2755000: uvm_test_top.env.scb [axi4_scoreboard] [REF_MEM_WRITE] Addr=0xa91a81d0 Data=0xc0
# UVM_INFO ../src/env/axi4_scoreboard.sv(219) @ 2755000: uvm_test_top.env.scb [axi4_scoreboard] [REF_MEM_WRITE] Addr=0xa91a81d1 Data=0x82
# UVM_INFO ../src/env/axi4_scoreboard.sv(219) @ 2755000: uvm_test_top.env.scb [axi4_scoreboard] [REF_MEM_WRITE] Addr=0xa91a81d2 Data=0x89
# UVM_INFO ../src/env/axi4_scoreboard.sv(219) @ 2755000: uvm_test_top.env.scb [axi4_scoreboard] [REF_MEM_WRITE] Addr=0xa91a81d3 Data=0x38
# UVM_INFO ../src/env/axi4_scoreboard.sv(219) @ 2755000: uvm_test_top.env.scb [axi4_scoreboard] [REF_MEM_WRITE] Addr=0xa91a81d0 Data=0x05
# UVM_INFO ../src/env/axi4_scoreboard.sv(219) @ 2755000: uvm_test_top.env.scb [axi4_scoreboard] [REF_MEM_WRITE] Addr=0xa91a81d3 Data=0xe8
# UVM_INFO ../src/env/axi4_scoreboard.sv(219) @ 2755000: uvm_test_top.env.scb [axi4_scoreboard] [REF_MEM_WRITE] Addr=0xa91a81d5 Data=0xf4
# UVM_INFO ../src/env/axi4_scoreboard.sv(219) @ 2755000: uvm_test_top.env.scb [axi4_scoreboard] [REF_MEM_WRITE] Addr=0xa91a81d6 Data=0x72
# UVM_INFO ../src/env/axi4_scoreboard.sv(219) @ 2755000: uvm_test_top.env.scb [axi4_scoreboard] [REF_MEM_WRITE] Addr=0xa91a81d7 Data=0x88
# UVM_INFO ../src/env/axi4_scoreboard.sv(219) @ 2755000: uvm_test_top.env.scb [axi4_scoreboard] [REF_MEM_WRITE] Addr=0xa91a81d4 Data=0xda
# UVM_INFO ../src/env/axi4_scoreboard.sv(219) @ 2755000: uvm_test_top.env.scb [axi4_scoreboard] [REF_MEM_WRITE] Addr=0xa91a81d5 Data=0x45
# UVM_INFO ../src/env/axi4_scoreboard.sv(219) @ 2755000: uvm_test_top.env.scb [axi4_scoreboard] [REF_MEM_WRITE] Addr=0xa91a81d7 Data=0x27
# UVM_INFO ../src/env/axi4_scoreboard.sv(219) @ 2755000: uvm_test_top.env.scb [axi4_scoreboard] [REF_MEM_WRITE] Addr=0xa91a81d9 Data=0xde
# UVM_INFO ../src/env/axi4_scoreboard.sv(219) @ 2755000: uvm_test_top.env.scb [axi4_scoreboard] [REF_MEM_WRITE] Addr=0xa91a81da Data=0x57
# UVM_INFO ../src/env/axi4_scoreboard.sv(219) @ 2755000: uvm_test_top.env.scb [axi4_scoreboard] [REF_MEM_WRITE] Addr=0xa91a81d8 Data=0xc2
# UVM_INFO ../src/env/axi4_scoreboard.sv(219) @ 2755000: uvm_test_top.env.scb [axi4_scoreboard] [REF_MEM_WRITE] Addr=0xa91a81d9 Data=0x1d
# UVM_INFO ../src/env/axi4_scoreboard.sv(219) @ 2755000: uvm_test_top.env.scb [axi4_scoreboard] [REF_MEM_WRITE] Addr=0xa91a81dd Data=0x54
# UVM_INFO ../src/env/axi4_scoreboard.sv(219) @ 2755000: uvm_test_top.env.scb [axi4_scoreboard] [REF_MEM_WRITE] Addr=0xa91a81de Data=0x68
# UVM_INFO ../src/env/axi4_scoreboard.sv(219) @ 2755000: uvm_test_top.env.scb [axi4_scoreboard] [REF_MEM_WRITE] Addr=0xa91a81df Data=0xad
# UVM_INFO ../src/env/axi4_scoreboard.sv(219) @ 2755000: uvm_test_top.env.scb [axi4_scoreboard] [REF_MEM_WRITE] Addr=0xa91a81e0 Data=0xe2
# UVM_INFO ../src/env/axi4_scoreboard.sv(219) @ 2755000: uvm_test_top.env.scb [axi4_scoreboard] [REF_MEM_WRITE] Addr=0xa91a81e2 Data=0x1a
# UVM_INFO ../src/env/axi4_scoreboard.sv(219) @ 2755000: uvm_test_top.env.scb [axi4_scoreboard] [REF_MEM_WRITE] Addr=0xa91a81e0 Data=0x40
# UVM_INFO ../src/env/axi4_scoreboard.sv(219) @ 2755000: uvm_test_top.env.scb [axi4_scoreboard] [REF_MEM_WRITE] Addr=0xa91a81e2 Data=0x53
# UVM_INFO ../src/env/axi4_scoreboard.sv(219) @ 2755000: uvm_test_top.env.scb [axi4_scoreboard] [REF_MEM_WRITE] Addr=0xa91a81e4 Data=0x82
# UVM_INFO ../src/env/axi4_scoreboard.sv(219) @ 2755000: uvm_test_top.env.scb [axi4_scoreboard] [REF_MEM_WRITE] Addr=0xa91a81e5 Data=0xbf
# UVM_INFO ../src/env/axi4_scoreboard.sv(219) @ 2755000: uvm_test_top.env.scb [axi4_scoreboard] [REF_MEM_WRITE] Addr=0xa91a81e6 Data=0x31
# UVM_INFO ../src/env/axi4_scoreboard.sv(219) @ 2755000: uvm_test_top.env.scb [axi4_scoreboard] [REF_MEM_WRITE] Addr=0xa91a81e7 Data=0x99
# UVM_INFO ../src/env/axi4_scoreboard.sv(219) @ 2755000: uvm_test_top.env.scb [axi4_scoreboard] [REF_MEM_WRITE] Addr=0xa91a81e4 Data=0x02
# UVM_INFO ../src/env/axi4_scoreboard.sv(219) @ 2755000: uvm_test_top.env.scb [axi4_scoreboard] [REF_MEM_WRITE] Addr=0xa91a81e5 Data=0x4c
# UVM_INFO ../src/env/axi4_scoreboard.sv(219) @ 2755000: uvm_test_top.env.scb [axi4_scoreboard] [REF_MEM_WRITE] Addr=0xa91a81eb Data=0x9f
# UVM_INFO ../src/env/axi4_scoreboard.sv(219) @ 2755000: uvm_test_top.env.scb [axi4_scoreboard] [REF_MEM_WRITE] Addr=0xa91a81e8 Data=0x67
# UVM_INFO ../src/env/axi4_scoreboard.sv(219) @ 2755000: uvm_test_top.env.scb [axi4_scoreboard] [REF_MEM_WRITE] Addr=0xa91a81eb Data=0x9c
# UVM_INFO ../src/env/axi4_scoreboard.sv(219) @ 2755000: uvm_test_top.env.scb [axi4_scoreboard] [REF_MEM_WRITE] Addr=0xa91a81ec Data=0x3e
# UVM_INFO ../src/env/axi4_scoreboard.sv(219) @ 2755000: uvm_test_top.env.scb [axi4_scoreboard] [REF_MEM_WRITE] Addr=0xa91a81ef Data=0x1c
# UVM_INFO ../src/env/axi4_scoreboard.sv(219) @ 2755000: uvm_test_top.env.scb [axi4_scoreboard] [REF_MEM_WRITE] Addr=0xa91a81f0 Data=0x56
# UVM_INFO ../src/env/axi4_scoreboard.sv(219) @ 2755000: uvm_test_top.env.scb [axi4_scoreboard] [REF_MEM_WRITE] Addr=0xa91a81f2 Data=0xf6
# UVM_INFO ../src/env/axi4_scoreboard.sv(219) @ 2755000: uvm_test_top.env.scb [axi4_scoreboard] [REF_MEM_WRITE] Addr=0xa91a81f3 Data=0x40
# UVM_INFO ../src/env/axi4_scoreboard.sv(219) @ 2755000: uvm_test_top.env.scb [axi4_scoreboard] [REF_MEM_WRITE] Addr=0xa91a81f0 Data=0x0d
# UVM_INFO ../src/env/axi4_scoreboard.sv(219) @ 2755000: uvm_test_top.env.scb [axi4_scoreboard] [REF_MEM_WRITE] Addr=0xa91a81f2 Data=0x62
# UVM_INFO ../src/env/axi4_scoreboard.sv(219) @ 2755000: uvm_test_top.env.scb [axi4_scoreboard] [REF_MEM_WRITE] Addr=0xa91a81f3 Data=0x09
# UVM_INFO ../src/env/axi4_scoreboard.sv(219) @ 2755000: uvm_test_top.env.scb [axi4_scoreboard] [REF_MEM_WRITE] Addr=0xa91a81f4 Data=0x00
# UVM_INFO ../src/env/axi4_scoreboard.sv(219) @ 2755000: uvm_test_top.env.scb [axi4_scoreboard] [REF_MEM_WRITE] Addr=0xa91a81f5 Data=0x5c
# UVM_INFO ../src/env/axi4_scoreboard.sv(219) @ 2755000: uvm_test_top.env.scb [axi4_scoreboard] [REF_MEM_WRITE] Addr=0xa91a81f6 Data=0xb8
# UVM_INFO ../src/env/axi4_scoreboard.sv(219) @ 2755000: uvm_test_top.env.scb [axi4_scoreboard] [REF_MEM_WRITE] Addr=0xa91a81f9 Data=0x56
# UVM_INFO ../src/env/axi4_scoreboard.sv(219) @ 2755000: uvm_test_top.env.scb [axi4_scoreboard] [REF_MEM_WRITE] Addr=0xa91a81fa Data=0xd8
# UVM_INFO ../src/env/axi4_scoreboard.sv(219) @ 2755000: uvm_test_top.env.scb [axi4_scoreboard] [REF_MEM_WRITE] Addr=0xa91a81fb Data=0xa6
# UVM_INFO ../src/env/axi4_scoreboard.sv(219) @ 2755000: uvm_test_top.env.scb [axi4_scoreboard] [REF_MEM_WRITE] Addr=0xa91a81f8 Data=0xea
# UVM_INFO ../src/env/axi4_scoreboard.sv(219) @ 2755000: uvm_test_top.env.scb [axi4_scoreboard] [REF_MEM_WRITE] Addr=0xa91a81f9 Data=0x60
# UVM_INFO ../src/env/axi4_scoreboard.sv(219) @ 2755000: uvm_test_top.env.scb [axi4_scoreboard] [REF_MEM_WRITE] Addr=0xa91a81fb Data=0xd7
# UVM_INFO ../src/env/axi4_scoreboard.sv(219) @ 2755000: uvm_test_top.env.scb [axi4_scoreboard] [REF_MEM_WRITE] Addr=0xa91a81fc Data=0x58
# UVM_INFO ../src/env/axi4_scoreboard.sv(219) @ 2755000: uvm_test_top.env.scb [axi4_scoreboard] [REF_MEM_WRITE] Addr=0xa91a81fd Data=0x5b
# UVM_INFO ../src/env/axi4_scoreboard.sv(219) @ 2755000: uvm_test_top.env.scb [axi4_scoreboard] [REF_MEM_WRITE] Addr=0xa91a81fc Data=0xf6
# UVM_INFO ../src/env/axi4_scoreboard.sv(219) @ 2755000: uvm_test_top.env.scb [axi4_scoreboard] [REF_MEM_WRITE] Addr=0xa91a81fd Data=0xaf
# UVM_INFO ../src/env/axi4_scoreboard.sv(219) @ 2755000: uvm_test_top.env.scb [axi4_scoreboard] [REF_MEM_WRITE] Addr=0xa91a81ff Data=0x38
# UVM_INFO ../src/env/axi4_scoreboard.sv(219) @ 2755000: uvm_test_top.env.scb [axi4_scoreboard] [REF_MEM_WRITE] Addr=0xa91a8200 Data=0xac
# UVM_INFO ../src/env/axi4_scoreboard.sv(219) @ 2755000: uvm_test_top.env.scb [axi4_scoreboard] [REF_MEM_WRITE] Addr=0xa91a8201 Data=0x01
# UVM_INFO ../src/env/axi4_scoreboard.sv(219) @ 2755000: uvm_test_top.env.scb [axi4_scoreboard] [REF_MEM_WRITE] Addr=0xa91a8202 Data=0x93
# UVM_INFO ../src/env/axi4_scoreboard.sv(219) @ 2755000: uvm_test_top.env.scb [axi4_scoreboard] [REF_MEM_WRITE] Addr=0xa91a8203 Data=0x62
# UVM_INFO ../src/env/axi4_scoreboard.sv(219) @ 2755000: uvm_test_top.env.scb [axi4_scoreboard] [REF_MEM_WRITE] Addr=0xa91a8204 Data=0xe1
# UVM_INFO ../src/env/axi4_scoreboard.sv(219) @ 2755000: uvm_test_top.env.scb [axi4_scoreboard] [REF_MEM_WRITE] Addr=0xa91a8205 Data=0x6f
# UVM_INFO ../src/env/axi4_scoreboard.sv(219) @ 2755000: uvm_test_top.env.scb [axi4_scoreboard] [REF_MEM_WRITE] Addr=0xa91a8206 Data=0xcd
# UVM_INFO ../src/env/axi4_scoreboard.sv(219) @ 2755000: uvm_test_top.env.scb [axi4_scoreboard] [REF_MEM_WRITE] Addr=0xa91a8207 Data=0x8a
# UVM_INFO ../src/env/axi4_scoreboard.sv(219) @ 2755000: uvm_test_top.env.scb [axi4_scoreboard] [REF_MEM_WRITE] Addr=0xa91a8205 Data=0x90
# UVM_INFO ../src/env/axi4_scoreboard.sv(219) @ 2755000: uvm_test_top.env.scb [axi4_scoreboard] [REF_MEM_WRITE] Addr=0xa91a8207 Data=0xc4
# UVM_INFO ../src/env/axi4_scoreboard.sv(219) @ 2755000: uvm_test_top.env.scb [axi4_scoreboard] [REF_MEM_WRITE] Addr=0xa91a8209 Data=0x52
# UVM_INFO ../src/env/axi4_scoreboard.sv(219) @ 2755000: uvm_test_top.env.scb [axi4_scoreboard] [REF_MEM_WRITE] Addr=0xa91a820a Data=0x9c
# UVM_INFO ../src/env/axi4_scoreboard.sv(219) @ 2755000: uvm_test_top.env.scb [axi4_scoreboard] [REF_MEM_WRITE] Addr=0xa91a820b Data=0xf4
# UVM_INFO ../src/env/axi4_scoreboard.sv(219) @ 2755000: uvm_test_top.env.scb [axi4_scoreboard] [REF_MEM_WRITE] Addr=0xa91a8208 Data=0x14
# UVM_INFO ../src/env/axi4_scoreboard.sv(219) @ 2755000: uvm_test_top.env.scb [axi4_scoreboard] [REF_MEM_WRITE] Addr=0xa91a820b Data=0xdc
# UVM_INFO ../src/env/axi4_scoreboard.sv(219) @ 2755000: uvm_test_top.env.scb [axi4_scoreboard] [REF_MEM_WRITE] Addr=0xa91a820c Data=0x6e
# UVM_INFO ../src/env/axi4_scoreboard.sv(219) @ 2755000: uvm_test_top.env.scb [axi4_scoreboard] [REF_MEM_WRITE] Addr=0xa91a820d Data=0x59
# UVM_INFO ../src/env/axi4_scoreboard.sv(219) @ 2755000: uvm_test_top.env.scb [axi4_scoreboard] [REF_MEM_WRITE] Addr=0xa91a820d Data=0x3c
# UVM_INFO ../src/env/axi4_scoreboard.sv(219) @ 2755000: uvm_test_top.env.scb [axi4_scoreboard] [REF_MEM_WRITE] Addr=0xa91a820f Data=0x1b
# UVM_INFO ../src/env/axi4_scoreboard.sv(219) @ 2755000: uvm_test_top.env.scb [axi4_scoreboard] [REF_MEM_WRITE] Addr=0xa91a8210 Data=0x02
# UVM_INFO ../src/env/axi4_scoreboard.sv(219) @ 2755000: uvm_test_top.env.scb [axi4_scoreboard] [REF_MEM_WRITE] Addr=0xa91a8211 Data=0xbd
# UVM_INFO ../src/env/axi4_scoreboard.sv(219) @ 2755000: uvm_test_top.env.scb [axi4_scoreboard] [REF_MEM_WRITE] Addr=0xa91a8212 Data=0xda
# UVM_INFO ../src/env/axi4_scoreboard.sv(219) @ 2755000: uvm_test_top.env.scb [axi4_scoreboard] [REF_MEM_WRITE] Addr=0xa91a8213 Data=0x68
# UVM_INFO ../src/env/axi4_scoreboard.sv(219) @ 2755000: uvm_test_top.env.scb [axi4_scoreboard] [REF_MEM_WRITE] Addr=0xa91a8210 Data=0x4d
# UVM_INFO ../src/env/axi4_scoreboard.sv(219) @ 2755000: uvm_test_top.env.scb [axi4_scoreboard] [REF_MEM_WRITE] Addr=0xa91a8212 Data=0x9d
# UVM_INFO ../src/env/axi4_scoreboard.sv(219) @ 2755000: uvm_test_top.env.scb [axi4_scoreboard] [REF_MEM_WRITE] Addr=0xa91a8213 Data=0x74
# UVM_INFO ../src/env/axi4_scoreboard.sv(219) @ 2755000: uvm_test_top.env.scb [axi4_scoreboard] [REF_MEM_WRITE] Addr=0xa91a8214 Data=0x45
# UVM_INFO ../src/env/axi4_scoreboard.sv(219) @ 2755000: uvm_test_top.env.scb [axi4_scoreboard] [REF_MEM_WRITE] Addr=0xa91a8217 Data=0x44
# UVM_INFO ../src/env/axi4_scoreboard.sv(219) @ 2755000: uvm_test_top.env.scb [axi4_scoreboard] [REF_MEM_WRITE] Addr=0xa91a8214 Data=0x93
# UVM_INFO ../src/env/axi4_scoreboard.sv(219) @ 2755000: uvm_test_top.env.scb [axi4_scoreboard] [REF_MEM_WRITE] Addr=0xa91a8216 Data=0x2b
# UVM_INFO ../src/env/axi4_scoreboard.sv(219) @ 2755000: uvm_test_top.env.scb [axi4_scoreboard] [REF_MEM_WRITE] Addr=0xa91a8218 Data=0x70
# UVM_INFO ../src/env/axi4_scoreboard.sv(219) @ 2755000: uvm_test_top.env.scb [axi4_scoreboard] [REF_MEM_WRITE] Addr=0xa91a821b Data=0x57
# UVM_INFO ../src/env/axi4_scoreboard.sv(219) @ 2755000: uvm_test_top.env.scb [axi4_scoreboard] [REF_MEM_WRITE] Addr=0xa91a8218 Data=0x42
# UVM_INFO ../src/env/axi4_scoreboard.sv(219) @ 2755000: uvm_test_top.env.scb [axi4_scoreboard] [REF_MEM_WRITE] Addr=0xa91a8219 Data=0xbf
# UVM_INFO ../src/env/axi4_scoreboard.sv(219) @ 2755000: uvm_test_top.env.scb [axi4_scoreboard] [REF_MEM_WRITE] Addr=0xa91a821c Data=0x32
# UVM_INFO ../src/env/axi4_scoreboard.sv(219) @ 2755000: uvm_test_top.env.scb [axi4_scoreboard] [REF_MEM_WRITE] Addr=0xa91a821f Data=0xff
# UVM_INFO ../src/env/axi4_scoreboard.sv(219) @ 2755000: uvm_test_top.env.scb [axi4_scoreboard] [REF_MEM_WRITE] Addr=0xa91a821c Data=0x32
# UVM_INFO ../src/env/axi4_scoreboard.sv(219) @ 2755000: uvm_test_top.env.scb [axi4_scoreboard] [REF_MEM_WRITE] Addr=0xa91a821d Data=0x01
# UVM_INFO ../src/env/axi4_scoreboard.sv(219) @ 2755000: uvm_test_top.env.scb [axi4_scoreboard] [REF_MEM_WRITE] Addr=0xa91a821f Data=0x1f
# UVM_INFO ../src/env/axi4_scoreboard.sv(219) @ 2755000: uvm_test_top.env.scb [axi4_scoreboard] [REF_MEM_WRITE] Addr=0xa91a8223 Data=0x2c
# UVM_INFO ../src/env/axi4_scoreboard.sv(219) @ 2755000: uvm_test_top.env.scb [axi4_scoreboard] [REF_MEM_WRITE] Addr=0xa91a8220 Data=0x6a
# UVM_INFO ../src/env/axi4_scoreboard.sv(219) @ 2755000: uvm_test_top.env.scb [axi4_scoreboard] [REF_MEM_WRITE] Addr=0xa91a8221 Data=0x88
# UVM_INFO ../src/env/axi4_scoreboard.sv(219) @ 2755000: uvm_test_top.env.scb [axi4_scoreboard] [REF_MEM_WRITE] Addr=0xa91a8222 Data=0xb0
# UVM_INFO ../src/env/axi4_scoreboard.sv(219) @ 2755000: uvm_test_top.env.scb [axi4_scoreboard] [REF_MEM_WRITE] Addr=0xa91a8224 Data=0x87
# UVM_INFO ../src/env/axi4_scoreboard.sv(219) @ 2755000: uvm_test_top.env.scb [axi4_scoreboard] [REF_MEM_WRITE] Addr=0xa91a8227 Data=0x34
# UVM_INFO ../src/env/axi4_scoreboard.sv(219) @ 2755000: uvm_test_top.env.scb [axi4_scoreboard] [REF_MEM_WRITE] Addr=0xa91a8225 Data=0x70
# UVM_INFO ../src/env/axi4_scoreboard.sv(219) @ 2755000: uvm_test_top.env.scb [axi4_scoreboard] [REF_MEM_WRITE] Addr=0xa91a8227 Data=0xac
# UVM_INFO ../src/env/axi4_scoreboard.sv(219) @ 2755000: uvm_test_top.env.scb [axi4_scoreboard] [REF_MEM_WRITE] Addr=0xa91a8229 Data=0x49
# UVM_INFO ../src/env/axi4_scoreboard.sv(219) @ 2755000: uvm_test_top.env.scb [axi4_scoreboard] [REF_MEM_WRITE] Addr=0xa91a822a Data=0x6e
# UVM_INFO ../src/env/axi4_scoreboard.sv(219) @ 2755000: uvm_test_top.env.scb [axi4_scoreboard] [REF_MEM_WRITE] Addr=0xa91a822e Data=0xe0
# UVM_INFO ../src/env/axi4_scoreboard.sv(219) @ 2755000: uvm_test_top.env.scb [axi4_scoreboard] [REF_MEM_WRITE] Addr=0xa91a822f Data=0x56
# UVM_INFO ../src/env/axi4_scoreboard.sv(219) @ 2755000: uvm_test_top.env.scb [axi4_scoreboard] [REF_MEM_WRITE] Addr=0xa91a822d Data=0xa6
# UVM_INFO ../src/env/axi4_scoreboard.sv(219) @ 2755000: uvm_test_top.env.scb [axi4_scoreboard] [REF_MEM_WRITE] Addr=0xa91a8230 Data=0x60
# UVM_INFO ../src/env/axi4_scoreboard.sv(219) @ 2755000: uvm_test_top.env.scb [axi4_scoreboard] [REF_MEM_WRITE] Addr=0xa91a8232 Data=0x46
# UVM_INFO ../src/env/axi4_scoreboard.sv(219) @ 2755000: uvm_test_top.env.scb [axi4_scoreboard] [REF_MEM_WRITE] Addr=0xa91a8231 Data=0x25
# UVM_INFO ../src/env/axi4_scoreboard.sv(219) @ 2755000: uvm_test_top.env.scb [axi4_scoreboard] [REF_MEM_WRITE] Addr=0xa91a8233 Data=0x5d
# UVM_INFO ../src/env/axi4_scoreboard.sv(219) @ 2755000: uvm_test_top.env.scb [axi4_scoreboard] [REF_MEM_WRITE] Addr=0xa91a8234 Data=0xe9
# UVM_INFO ../src/env/axi4_scoreboard.sv(219) @ 2755000: uvm_test_top.env.scb [axi4_scoreboard] [REF_MEM_WRITE] Addr=0xa91a8236 Data=0xbc
# UVM_INFO ../src/env/axi4_scoreboard.sv(219) @ 2755000: uvm_test_top.env.scb [axi4_scoreboard] [REF_MEM_WRITE] Addr=0xa91a8237 Data=0xfa
# UVM_INFO ../src/env/axi4_scoreboard.sv(219) @ 2755000: uvm_test_top.env.scb [axi4_scoreboard] [REF_MEM_WRITE] Addr=0xa91a8236 Data=0xbb
# UVM_INFO ../src/env/axi4_scoreboard.sv(219) @ 2755000: uvm_test_top.env.scb [axi4_scoreboard] [REF_MEM_WRITE] Addr=0xa91a8237 Data=0xe4
# UVM_INFO ../src/env/axi4_scoreboard.sv(219) @ 2755000: uvm_test_top.env.scb [axi4_scoreboard] [REF_MEM_WRITE] Addr=0xa91a8238 Data=0x46
# UVM_INFO ../src/env/axi4_scoreboard.sv(219) @ 2755000: uvm_test_top.env.scb [axi4_scoreboard] [REF_MEM_WRITE] Addr=0xa91a8239 Data=0x5a
# UVM_INFO ../src/env/axi4_scoreboard.sv(219) @ 2755000: uvm_test_top.env.scb [axi4_scoreboard] [REF_MEM_WRITE] Addr=0xa91a823b Data=0xe8
# UVM_INFO ../src/env/axi4_scoreboard.sv(219) @ 2755000: uvm_test_top.env.scb [axi4_scoreboard] [REF_MEM_WRITE] Addr=0xa91a823b Data=0xc4
# UVM_INFO ../src/env/axi4_scoreboard.sv(219) @ 2755000: uvm_test_top.env.scb [axi4_scoreboard] [REF_MEM_WRITE] Addr=0xa91a823c Data=0xce
# UVM_INFO ../src/env/axi4_scoreboard.sv(219) @ 2755000: uvm_test_top.env.scb [axi4_scoreboard] [REF_MEM_WRITE] Addr=0xa91a823d Data=0x53
# UVM_INFO ../src/env/axi4_scoreboard.sv(219) @ 2755000: uvm_test_top.env.scb [axi4_scoreboard] [REF_MEM_WRITE] Addr=0xa91a823c Data=0x84
# UVM_INFO ../src/env/axi4_scoreboard.sv(219) @ 2755000: uvm_test_top.env.scb [axi4_scoreboard] [REF_MEM_WRITE] Addr=0xa91a823d Data=0xf5
# UVM_INFO ../src/env/axi4_scoreboard.sv(219) @ 2755000: uvm_test_top.env.scb [axi4_scoreboard] [REF_MEM_WRITE] Addr=0xa91a823e Data=0xde
# UVM_INFO ../src/env/axi4_scoreboard.sv(219) @ 2755000: uvm_test_top.env.scb [axi4_scoreboard] [REF_MEM_WRITE] Addr=0xa91a823f Data=0xd6
# UVM_INFO ../src/env/axi4_scoreboard.sv(219) @ 2755000: uvm_test_top.env.scb [axi4_scoreboard] [REF_MEM_WRITE] Addr=0xa91a8240 Data=0x5f
# UVM_INFO ../src/env/axi4_scoreboard.sv(219) @ 2755000: uvm_test_top.env.scb [axi4_scoreboard] [REF_MEM_WRITE] Addr=0xa91a8242 Data=0xad
# UVM_INFO ../src/env/axi4_scoreboard.sv(219) @ 2755000: uvm_test_top.env.scb [axi4_scoreboard] [REF_MEM_WRITE] Addr=0xa91a8240 Data=0x86
# UVM_INFO ../src/env/axi4_scoreboard.sv(219) @ 2755000: uvm_test_top.env.scb [axi4_scoreboard] [REF_MEM_WRITE] Addr=0xa91a8241 Data=0x9b
# UVM_INFO ../src/env/axi4_scoreboard.sv(219) @ 2755000: uvm_test_top.env.scb [axi4_scoreboard] [REF_MEM_WRITE] Addr=0xa91a8243 Data=0x69
# UVM_INFO ../src/env/axi4_scoreboard.sv(219) @ 2755000: uvm_test_top.env.scb [axi4_scoreboard] [REF_MEM_WRITE] Addr=0xa91a8246 Data=0xe9
# UVM_INFO ../src/env/axi4_scoreboard.sv(219) @ 2755000: uvm_test_top.env.scb [axi4_scoreboard] [REF_MEM_WRITE] Addr=0xa91a8244 Data=0x3c
# UVM_INFO ../src/env/axi4_scoreboard.sv(219) @ 2755000: uvm_test_top.env.scb [axi4_scoreboard] [REF_MEM_WRITE] Addr=0xa91a8248 Data=0xaf
# UVM_INFO ../src/env/axi4_scoreboard.sv(219) @ 2755000: uvm_test_top.env.scb [axi4_scoreboard] [REF_MEM_WRITE] Addr=0xa91a824b Data=0xe9
# UVM_INFO ../src/env/axi4_scoreboard.sv(219) @ 2755000: uvm_test_top.env.scb [axi4_scoreboard] [REF_MEM_WRITE] Addr=0xa91a8249 Data=0xf6
# UVM_INFO ../src/env/axi4_scoreboard.sv(219) @ 2755000: uvm_test_top.env.scb [axi4_scoreboard] [REF_MEM_WRITE] Addr=0xa91a824b Data=0xe2
# UVM_INFO ../src/env/axi4_scoreboard.sv(219) @ 2755000: uvm_test_top.env.scb [axi4_scoreboard] [REF_MEM_WRITE] Addr=0xa91a824c Data=0x9c
# UVM_INFO ../src/env/axi4_scoreboard.sv(219) @ 2755000: uvm_test_top.env.scb [axi4_scoreboard] [REF_MEM_WRITE] Addr=0xa91a824d Data=0x94
# UVM_INFO ../src/env/axi4_scoreboard.sv(219) @ 2755000: uvm_test_top.env.scb [axi4_scoreboard] [REF_MEM_WRITE] Addr=0xa91a824e Data=0xd6
# UVM_INFO ../src/env/axi4_scoreboard.sv(219) @ 2755000: uvm_test_top.env.scb [axi4_scoreboard] [REF_MEM_WRITE] Addr=0xa91a8251 Data=0x02
# UVM_INFO ../src/env/axi4_scoreboard.sv(219) @ 2755000: uvm_test_top.env.scb [axi4_scoreboard] [REF_MEM_WRITE] Addr=0xa91a8252 Data=0x9c
# UVM_INFO ../src/env/axi4_scoreboard.sv(219) @ 2755000: uvm_test_top.env.scb [axi4_scoreboard] [REF_MEM_WRITE] Addr=0xa91a8251 Data=0xc5
# UVM_INFO ../src/env/axi4_scoreboard.sv(219) @ 2755000: uvm_test_top.env.scb [axi4_scoreboard] [REF_MEM_WRITE] Addr=0xa91a8252 Data=0x0b
# UVM_INFO ../src/env/axi4_scoreboard.sv(219) @ 2755000: uvm_test_top.env.scb [axi4_scoreboard] [REF_MEM_WRITE] Addr=0xa91a8254 Data=0x1c
# UVM_INFO ../src/env/axi4_scoreboard.sv(219) @ 2755000: uvm_test_top.env.scb [axi4_scoreboard] [REF_MEM_WRITE] Addr=0xa91a8255 Data=0xf3
# UVM_INFO ../src/env/axi4_scoreboard.sv(219) @ 2755000: uvm_test_top.env.scb [axi4_scoreboard] [REF_MEM_WRITE] Addr=0xa91a8256 Data=0xdd
# UVM_INFO ../src/env/axi4_scoreboard.sv(219) @ 2755000: uvm_test_top.env.scb [axi4_scoreboard] [REF_MEM_WRITE] Addr=0xa91a8257 Data=0x9d
# UVM_INFO ../src/env/axi4_scoreboard.sv(219) @ 2755000: uvm_test_top.env.scb [axi4_scoreboard] [REF_MEM_WRITE] Addr=0xa91a8255 Data=0xe3
# UVM_INFO ../src/env/axi4_scoreboard.sv(219) @ 2755000: uvm_test_top.env.scb [axi4_scoreboard] [REF_MEM_WRITE] Addr=0xa91a8256 Data=0x0f
# UVM_INFO ../src/env/axi4_scoreboard.sv(219) @ 2755000: uvm_test_top.env.scb [axi4_scoreboard] [REF_MEM_WRITE] Addr=0xa91a8257 Data=0x51
# UVM_INFO ../src/env/axi4_scoreboard.sv(219) @ 2755000: uvm_test_top.env.scb [axi4_scoreboard] [REF_MEM_WRITE] Addr=0xa91a825a Data=0x4e
# UVM_INFO ../src/env/axi4_scoreboard.sv(219) @ 2755000: uvm_test_top.env.scb [axi4_scoreboard] [REF_MEM_WRITE] Addr=0xa91a825a Data=0xd6
# UVM_INFO ../src/env/axi4_scoreboard.sv(219) @ 2755000: uvm_test_top.env.scb [axi4_scoreboard] [REF_MEM_WRITE] Addr=0xa91a825b Data=0xf3
# UVM_INFO ../src/env/axi4_scoreboard.sv(219) @ 2755000: uvm_test_top.env.scb [axi4_scoreboard] [REF_MEM_WRITE] Addr=0xa91a825c Data=0x98
# UVM_INFO ../src/env/axi4_scoreboard.sv(219) @ 2755000: uvm_test_top.env.scb [axi4_scoreboard] [REF_MEM_WRITE] Addr=0xa91a825d Data=0x88
# UVM_INFO ../src/env/axi4_scoreboard.sv(219) @ 2755000: uvm_test_top.env.scb [axi4_scoreboard] [REF_MEM_WRITE] Addr=0xa91a825e Data=0xae
# UVM_INFO ../src/env/axi4_scoreboard.sv(219) @ 2755000: uvm_test_top.env.scb [axi4_scoreboard] [REF_MEM_WRITE] Addr=0xa91a825c Data=0xd0
# UVM_INFO ../src/env/axi4_scoreboard.sv(219) @ 2755000: uvm_test_top.env.scb [axi4_scoreboard] [REF_MEM_WRITE] Addr=0xa91a825d Data=0x6b
# UVM_INFO ../src/env/axi4_scoreboard.sv(219) @ 2755000: uvm_test_top.env.scb [axi4_scoreboard] [REF_MEM_WRITE] Addr=0xa91a825e Data=0x11
# UVM_INFO ../src/env/axi4_scoreboard.sv(219) @ 2755000: uvm_test_top.env.scb [axi4_scoreboard] [REF_MEM_WRITE] Addr=0xa91a825f Data=0x8e
# UVM_INFO ../src/env/axi4_scoreboard.sv(219) @ 2755000: uvm_test_top.env.scb [axi4_scoreboard] [REF_MEM_WRITE] Addr=0xa91a8262 Data=0x6e
# UVM_INFO ../src/env/axi4_scoreboard.sv(219) @ 2755000: uvm_test_top.env.scb [axi4_scoreboard] [REF_MEM_WRITE] Addr=0xa91a8263 Data=0x12
# UVM_INFO ../src/env/axi4_scoreboard.sv(219) @ 2755000: uvm_test_top.env.scb [axi4_scoreboard] [REF_MEM_WRITE] Addr=0xa91a8260 Data=0x32
# UVM_INFO ../src/env/axi4_scoreboard.sv(219) @ 2755000: uvm_test_top.env.scb [axi4_scoreboard] [REF_MEM_WRITE] Addr=0xa91a8263 Data=0xed
# UVM_INFO ../src/env/axi4_scoreboard.sv(219) @ 2755000: uvm_test_top.env.scb [axi4_scoreboard] [REF_MEM_WRITE] Addr=0xa91a8264 Data=0x06
# UVM_INFO ../src/env/axi4_scoreboard.sv(219) @ 2755000: uvm_test_top.env.scb [axi4_scoreboard] [REF_MEM_WRITE] Addr=0xa91a8266 Data=0x38
# UVM_INFO ../src/env/axi4_scoreboard.sv(219) @ 2755000: uvm_test_top.env.scb [axi4_scoreboard] [REF_MEM_WRITE] Addr=0xa91a8267 Data=0x9a
# UVM_INFO ../src/env/axi4_scoreboard.sv(219) @ 2755000: uvm_test_top.env.scb [axi4_scoreboard] [REF_MEM_WRITE] Addr=0xa91a8264 Data=0xd0
# UVM_INFO ../src/env/axi4_scoreboard.sv(219) @ 2755000: uvm_test_top.env.scb [axi4_scoreboard] [REF_MEM_WRITE] Addr=0xa91a8265 Data=0xe2
# UVM_INFO ../src/env/axi4_scoreboard.sv(219) @ 2755000: uvm_test_top.env.scb [axi4_scoreboard] [REF_MEM_WRITE] Addr=0xa91a8269 Data=0xf6
# UVM_INFO ../src/env/axi4_scoreboard.sv(219) @ 2755000: uvm_test_top.env.scb [axi4_scoreboard] [REF_MEM_WRITE] Addr=0xa91a826b Data=0xf3
# UVM_INFO ../src/env/axi4_scoreboard.sv(219) @ 2755000: uvm_test_top.env.scb [axi4_scoreboard] [REF_MEM_WRITE] Addr=0xa91a826c Data=0x70
# UVM_INFO ../src/env/axi4_scoreboard.sv(219) @ 2755000: uvm_test_top.env.scb [axi4_scoreboard] [REF_MEM_WRITE] Addr=0xa91a826d Data=0x8f
# UVM_INFO ../src/env/axi4_scoreboard.sv(219) @ 2755000: uvm_test_top.env.scb [axi4_scoreboard] [REF_MEM_WRITE] Addr=0xa91a826f Data=0xae
# UVM_INFO ../src/env/axi4_scoreboard.sv(219) @ 2755000: uvm_test_top.env.scb [axi4_scoreboard] [REF_MEM_WRITE] Addr=0xa91a826d Data=0xeb
# UVM_INFO ../src/env/axi4_scoreboard.sv(219) @ 2755000: uvm_test_top.env.scb [axi4_scoreboard] [REF_MEM_WRITE] Addr=0xa91a8270 Data=0x10
# UVM_INFO ../src/env/axi4_scoreboard.sv(219) @ 2755000: uvm_test_top.env.scb [axi4_scoreboard] [REF_MEM_WRITE] Addr=0xa91a8272 Data=0x6b
# UVM_INFO ../src/env/axi4_scoreboard.sv(219) @ 2755000: uvm_test_top.env.scb [axi4_scoreboard] [REF_MEM_WRITE] Addr=0xa91a8271 Data=0xd6
# UVM_INFO ../src/env/axi4_scoreboard.sv(219) @ 2755000: uvm_test_top.env.scb [axi4_scoreboard] [REF_MEM_WRITE] Addr=0xa91a8273 Data=0x40
# UVM_INFO ../src/env/axi4_scoreboard.sv(219) @ 2755000: uvm_test_top.env.scb [axi4_scoreboard] [REF_MEM_WRITE] Addr=0xa91a8276 Data=0x31
# UVM_INFO ../src/env/axi4_scoreboard.sv(219) @ 2755000: uvm_test_top.env.scb [axi4_scoreboard] [REF_MEM_WRITE] Addr=0xa91a8277 Data=0xa4
# UVM_INFO ../src/env/axi4_scoreboard.sv(219) @ 2755000: uvm_test_top.env.scb [axi4_scoreboard] [REF_MEM_WRITE] Addr=0xa91a8278 Data=0x60
# UVM_INFO ../src/env/axi4_scoreboard.sv(219) @ 2755000: uvm_test_top.env.scb [axi4_scoreboard] [REF_MEM_WRITE] Addr=0xa91a8279 Data=0x9c
# UVM_INFO ../src/env/axi4_scoreboard.sv(219) @ 2755000: uvm_test_top.env.scb [axi4_scoreboard] [REF_MEM_WRITE] Addr=0xa91a827b Data=0x03
# UVM_INFO ../src/mst/axi4_master_monitor.sv(184) @ 4765000: uvm_test_top.env.master_agent.mon [axi4_master_monitor] W data assembled: ID=0x7 ADDR=0x20c2022a 102 beats
# UVM_INFO ../src/slv/axi4_slave_monitor.sv(167) @ 4765000: uvm_test_top.env.slave_agent.mon [axi4_slave_monitor] W data assembled: ID=0x7 ADDR=0x20c2022a 102 beats
# UVM_INFO ../src/mst/axi4_master_driver.sv(289) @ 4795000: uvm_test_top.env.master_agent.drv [axi4_master_driver] Master driver received B response: ID=0x7 RESP=AXI4_RESP_OKAY
# UVM_INFO ../src/slv/axi4_slave_driver.sv(348) @ 4795000: uvm_test_top.env.slave_agent.drv [axi4_slave_driver] Write complete: ID=0x7 RESP=AXI4_RESP_OKAY
# UVM_INFO ../src/slv/axi4_slave_monitor.sv(189) @ 4795000: uvm_test_top.env.slave_agent.mon [axi4_slave_monitor] Write response sent: ID=0x7 ADDR=0x20c2022a RESP=AXI4_RESP_OKAY
# UVM_INFO ../src/env/axi4_scoreboard.sv(108) @ 4795000: uvm_test_top.env.scb [axi4_scoreboard] Slave AXI4_WRITE received: ID=0x7 ADDR=0x20c2022a LEN=101
# UVM_INFO ../src/mst/axi4_master_monitor.sv(210) @ 4795000: uvm_test_top.env.master_agent.mon [axi4_master_monitor] Write complete: ID=0x7 ADDR=0x20c2022a RESP=AXI4_RESP_OKAY
# UVM_INFO ../src/env/axi4_scoreboard.sv(87) @ 4795000: uvm_test_top.env.scb [axi4_scoreboard] Master AXI4_WRITE received: ID=0x7 ADDR=0x20c2022a LEN=101
# UVM_INFO ../src/env/axi4_scoreboard.sv(291) @ 4795000: uvm_test_top.env.scb [axi4_scoreboard] [WRITE] MATCH #3: ID=0x7 ADDR=0x20c2022a LEN=101
# UVM_INFO ../src/env/axi4_scoreboard.sv(219) @ 4795000: uvm_test_top.env.scb [axi4_scoreboard] [REF_MEM_WRITE] Addr=0x20c20228 Data=0x17
# UVM_INFO ../src/env/axi4_scoreboard.sv(219) @ 4795000: uvm_test_top.env.scb [axi4_scoreboard] [REF_MEM_WRITE] Addr=0x20c2022b Data=0x0b
# UVM_INFO ../src/env/axi4_scoreboard.sv(219) @ 4795000: uvm_test_top.env.scb [axi4_scoreboard] [REF_MEM_WRITE] Addr=0x20c20229 Data=0xc8
# UVM_INFO ../src/env/axi4_scoreboard.sv(219) @ 4795000: uvm_test_top.env.scb [axi4_scoreboard] [REF_MEM_WRITE] Addr=0x20c2022a Data=0x84
# UVM_INFO ../src/env/axi4_scoreboard.sv(219) @ 4795000: uvm_test_top.env.scb [axi4_scoreboard] [REF_MEM_WRITE] Addr=0x20c2022b Data=0x7e
# UVM_INFO ../src/env/axi4_scoreboard.sv(219) @ 4795000: uvm_test_top.env.scb [axi4_scoreboard] [REF_MEM_WRITE] Addr=0x20c2022c Data=0xe3
# UVM_INFO ../src/env/axi4_scoreboard.sv(219) @ 4795000: uvm_test_top.env.scb [axi4_scoreboard] [REF_MEM_WRITE] Addr=0x20c2022d Data=0x9b
# UVM_INFO ../src/env/axi4_scoreboard.sv(219) @ 4795000: uvm_test_top.env.scb [axi4_scoreboard] [REF_MEM_WRITE] Addr=0x20c2022f Data=0xb6
# UVM_INFO ../src/env/axi4_scoreboard.sv(219) @ 4795000: uvm_test_top.env.scb [axi4_scoreboard] [REF_MEM_WRITE] Addr=0x20c2022e Data=0x89
# UVM_INFO ../src/env/axi4_scoreboard.sv(219) @ 4795000: uvm_test_top.env.scb [axi4_scoreboard] [REF_MEM_WRITE] Addr=0x20c2022f Data=0x0e
# UVM_INFO ../src/env/axi4_scoreboard.sv(219) @ 4795000: uvm_test_top.env.scb [axi4_scoreboard] [REF_MEM_WRITE] Addr=0x20c2022c Data=0x7f
# UVM_INFO ../src/env/axi4_scoreboard.sv(219) @ 4795000: uvm_test_top.env.scb [axi4_scoreboard] [REF_MEM_WRITE] Addr=0x20c2022e Data=0x7f
# UVM_INFO ../src/env/axi4_scoreboard.sv(219) @ 4795000: uvm_test_top.env.scb [axi4_scoreboard] [REF_MEM_WRITE] Addr=0x20c2022e Data=0x3b
# UVM_INFO ../src/env/axi4_scoreboard.sv(219) @ 4795000: uvm_test_top.env.scb [axi4_scoreboard] [REF_MEM_WRITE] Addr=0x20c2022f Data=0x10
# UVM_INFO ../src/env/axi4_scoreboard.sv(219) @ 4795000: uvm_test_top.env.scb [axi4_scoreboard] [REF_MEM_WRITE] Addr=0x20c20230 Data=0x74
# UVM_INFO ../src/env/axi4_scoreboard.sv(219) @ 4795000: uvm_test_top.env.scb [axi4_scoreboard] [REF_MEM_WRITE] Addr=0x20c20231 Data=0x81
# UVM_INFO ../src/env/axi4_scoreboard.sv(219) @ 4795000: uvm_test_top.env.scb [axi4_scoreboard] [REF_MEM_WRITE] Addr=0x20c20233 Data=0x09
# UVM_INFO ../src/env/axi4_scoreboard.sv(219) @ 4795000: uvm_test_top.env.scb [axi4_scoreboard] [REF_MEM_WRITE] Addr=0x20c20232 Data=0x1e
# UVM_INFO ../src/env/axi4_scoreboard.sv(219) @ 4795000: uvm_test_top.env.scb [axi4_scoreboard] [REF_MEM_WRITE] Addr=0x20c20233 Data=0xd0
# UVM_INFO ../src/env/axi4_scoreboard.sv(219) @ 4795000: uvm_test_top.env.scb [axi4_scoreboard] [REF_MEM_WRITE] Addr=0x20c20231 Data=0x00
# UVM_INFO ../src/env/axi4_scoreboard.sv(219) @ 4795000: uvm_test_top.env.scb [axi4_scoreboard] [REF_MEM_WRITE] Addr=0x20c20230 Data=0xf1
# UVM_INFO ../src/env/axi4_scoreboard.sv(219) @ 4795000: uvm_test_top.env.scb [axi4_scoreboard] [REF_MEM_WRITE] Addr=0x20c20231 Data=0x11
# UVM_INFO ../src/env/axi4_scoreboard.sv(219) @ 4795000: uvm_test_top.env.scb [axi4_scoreboard] [REF_MEM_WRITE] Addr=0x20c20234 Data=0x6b
# UVM_INFO ../src/env/axi4_scoreboard.sv(219) @ 4795000: uvm_test_top.env.scb [axi4_scoreboard] [REF_MEM_WRITE] Addr=0x20c20235 Data=0x44
# UVM_INFO ../src/env/axi4_scoreboard.sv(219) @ 4795000: uvm_test_top.env.scb [axi4_scoreboard] [REF_MEM_WRITE] Addr=0x20c20236 Data=0xbc
# UVM_INFO ../src/env/axi4_scoreboard.sv(219) @ 4795000: uvm_test_top.env.scb [axi4_scoreboard] [REF_MEM_WRITE] Addr=0x20c20234 Data=0x2c
# UVM_INFO ../src/env/axi4_scoreboard.sv(219) @ 4795000: uvm_test_top.env.scb [axi4_scoreboard] [REF_MEM_WRITE] Addr=0x20c20235 Data=0x99
# UVM_INFO ../src/env/axi4_scoreboard.sv(219) @ 4795000: uvm_test_top.env.scb [axi4_scoreboard] [REF_MEM_WRITE] Addr=0x20c20236 Data=0x61
# UVM_INFO ../src/env/axi4_scoreboard.sv(219) @ 4795000: uvm_test_top.env.scb [axi4_scoreboard] [REF_MEM_WRITE] Addr=0x20c20234 Data=0x34
# UVM_INFO ../src/env/axi4_scoreboard.sv(219) @ 4795000: uvm_test_top.env.scb [axi4_scoreboard] [REF_MEM_WRITE] Addr=0x20c20238 Data=0xa6
# UVM_INFO ../src/env/axi4_scoreboard.sv(219) @ 4795000: uvm_test_top.env.scb [axi4_scoreboard] [REF_MEM_WRITE] Addr=0x20c20239 Data=0x5b
# UVM_INFO ../src/env/axi4_scoreboard.sv(219) @ 4795000: uvm_test_top.env.scb [axi4_scoreboard] [REF_MEM_WRITE] Addr=0x20c2023a Data=0xad
# UVM_INFO ../src/env/axi4_scoreboard.sv(219) @ 4795000: uvm_test_top.env.scb [axi4_scoreboard] [REF_MEM_WRITE] Addr=0x20c20238 Data=0xe1
# UVM_INFO ../src/env/axi4_scoreboard.sv(219) @ 4795000: uvm_test_top.env.scb [axi4_scoreboard] [REF_MEM_WRITE] Addr=0x20c2023a Data=0x8d
# UVM_INFO ../src/env/axi4_scoreboard.sv(219) @ 4795000: uvm_test_top.env.scb [axi4_scoreboard] [REF_MEM_WRITE] Addr=0x20c2023b Data=0x36
# UVM_INFO ../src/env/axi4_scoreboard.sv(219) @ 4795000: uvm_test_top.env.scb [axi4_scoreboard] [REF_MEM_WRITE] Addr=0x20c2023b Data=0xd9
# UVM_INFO ../src/env/axi4_scoreboard.sv(219) @ 4795000: uvm_test_top.env.scb [axi4_scoreboard] [REF_MEM_WRITE] Addr=0x20c2023c Data=0x0e
# UVM_INFO ../src/env/axi4_scoreboard.sv(219) @ 4795000: uvm_test_top.env.scb [axi4_scoreboard] [REF_MEM_WRITE] Addr=0x20c2023d Data=0x85
# UVM_INFO ../src/env/axi4_scoreboard.sv(219) @ 4795000: uvm_test_top.env.scb [axi4_scoreboard] [REF_MEM_WRITE] Addr=0x20c2023e Data=0x03
# UVM_INFO ../src/env/axi4_scoreboard.sv(219) @ 4795000: uvm_test_top.env.scb [axi4_scoreboard] [REF_MEM_WRITE] Addr=0x20c2023f Data=0x23
# UVM_INFO ../src/env/axi4_scoreboard.sv(219) @ 4795000: uvm_test_top.env.scb [axi4_scoreboard] [REF_MEM_WRITE] Addr=0x20c2023c Data=0x1e
# UVM_INFO ../src/env/axi4_scoreboard.sv(219) @ 4795000: uvm_test_top.env.scb [axi4_scoreboard] [REF_MEM_WRITE] Addr=0x20c2023d Data=0xfd
# UVM_INFO ../src/env/axi4_scoreboard.sv(219) @ 4795000: uvm_test_top.env.scb [axi4_scoreboard] [REF_MEM_WRITE] Addr=0x20c2023e Data=0x9a
# UVM_INFO ../src/env/axi4_scoreboard.sv(219) @ 4795000: uvm_test_top.env.scb [axi4_scoreboard] [REF_MEM_WRITE] Addr=0x20c20240 Data=0x4d
# UVM_INFO ../src/env/axi4_scoreboard.sv(219) @ 4795000: uvm_test_top.env.scb [axi4_scoreboard] [REF_MEM_WRITE] Addr=0x20c20241 Data=0xfc
# UVM_INFO ../src/env/axi4_scoreboard.sv(219) @ 4795000: uvm_test_top.env.scb [axi4_scoreboard] [REF_MEM_WRITE] Addr=0x20c20243 Data=0xa9
# UVM_INFO ../src/env/axi4_scoreboard.sv(219) @ 4795000: uvm_test_top.env.scb [axi4_scoreboard] [REF_MEM_WRITE] Addr=0x20c20242 Data=0x18
# UVM_INFO ../src/env/axi4_scoreboard.sv(219) @ 4795000: uvm_test_top.env.scb [axi4_scoreboard] [REF_MEM_WRITE] Addr=0x20c20243 Data=0xed
# UVM_INFO ../src/env/axi4_scoreboard.sv(219) @ 4795000: uvm_test_top.env.scb [axi4_scoreboard] [REF_MEM_WRITE] Addr=0x20c20241 Data=0x6a
# UVM_INFO ../src/env/axi4_scoreboard.sv(219) @ 4795000: uvm_test_top.env.scb [axi4_scoreboard] [REF_MEM_WRITE] Addr=0x20c20244 Data=0x50
# UVM_INFO ../src/env/axi4_scoreboard.sv(219) @ 4795000: uvm_test_top.env.scb [axi4_scoreboard] [REF_MEM_WRITE] Addr=0x20c20245 Data=0x96
# UVM_INFO ../src/env/axi4_scoreboard.sv(219) @ 4795000: uvm_test_top.env.scb [axi4_scoreboard] [REF_MEM_WRITE] Addr=0x20c20246 Data=0x46
# UVM_INFO ../src/env/axi4_scoreboard.sv(219) @ 4795000: uvm_test_top.env.scb [axi4_scoreboard] [REF_MEM_WRITE] Addr=0x20c20247 Data=0x1b
# UVM_INFO ../src/env/axi4_scoreboard.sv(219) @ 4795000: uvm_test_top.env.scb [axi4_scoreboard] [REF_MEM_WRITE] Addr=0x20c20246 Data=0xd5
# UVM_INFO ../src/env/axi4_scoreboard.sv(219) @ 4795000: uvm_test_top.env.scb [axi4_scoreboard] [REF_MEM_WRITE] Addr=0x20c20247 Data=0xb6
# UVM_INFO ../src/env/axi4_scoreboard.sv(219) @ 4795000: uvm_test_top.env.scb [axi4_scoreboard] [REF_MEM_WRITE] Addr=0x20c20244 Data=0x85
# UVM_INFO ../src/env/axi4_scoreboard.sv(219) @ 4795000: uvm_test_top.env.scb [axi4_scoreboard] [REF_MEM_WRITE] Addr=0x20c20247 Data=0x03
# UVM_INFO ../src/env/axi4_scoreboard.sv(219) @ 4795000: uvm_test_top.env.scb [axi4_scoreboard] [REF_MEM_WRITE] Addr=0x20c20244 Data=0xad
# UVM_INFO ../src/env/axi4_scoreboard.sv(219) @ 4795000: uvm_test_top.env.scb [axi4_scoreboard] [REF_MEM_WRITE] Addr=0x20c20245 Data=0x00
# UVM_INFO ../src/env/axi4_scoreboard.sv(219) @ 4795000: uvm_test_top.env.scb [axi4_scoreboard] [REF_MEM_WRITE] Addr=0x20c20248 Data=0x25
# UVM_INFO ../src/env/axi4_scoreboard.sv(219) @ 4795000: uvm_test_top.env.scb [axi4_scoreboard] [REF_MEM_WRITE] Addr=0x20c20248 Data=0xdd
# UVM_INFO ../src/env/axi4_scoreboard.sv(219) @ 4795000: uvm_test_top.env.scb [axi4_scoreboard] [REF_MEM_WRITE] Addr=0x20c20249 Data=0x94
# UVM_INFO ../src/env/axi4_scoreboard.sv(219) @ 4795000: uvm_test_top.env.scb [axi4_scoreboard] [REF_MEM_WRITE] Addr=0x20c20248 Data=0x2b
# UVM_INFO ../src/env/axi4_scoreboard.sv(219) @ 4795000: uvm_test_top.env.scb [axi4_scoreboard] [REF_MEM_WRITE] Addr=0x20c20249 Data=0x70
# UVM_INFO ../src/env/axi4_scoreboard.sv(219) @ 4795000: uvm_test_top.env.scb [axi4_scoreboard] [REF_MEM_WRITE] Addr=0x20c2024b Data=0x94
# UVM_INFO ../src/env/axi4_scoreboard.sv(219) @ 4795000: uvm_test_top.env.scb [axi4_scoreboard] [REF_MEM_WRITE] Addr=0x20c20248 Data=0x6a
# UVM_INFO ../src/env/axi4_scoreboard.sv(219) @ 4795000: uvm_test_top.env.scb [axi4_scoreboard] [REF_MEM_WRITE] Addr=0x20c20249 Data=0x89
# UVM_INFO ../src/env/axi4_scoreboard.sv(219) @ 4795000: uvm_test_top.env.scb [axi4_scoreboard] [REF_MEM_WRITE] Addr=0x20c2024a Data=0xff
# UVM_INFO ../src/env/axi4_scoreboard.sv(219) @ 4795000: uvm_test_top.env.scb [axi4_scoreboard] [REF_MEM_WRITE] Addr=0x20c2024d Data=0x21
# UVM_INFO ../src/env/axi4_scoreboard.sv(219) @ 4795000: uvm_test_top.env.scb [axi4_scoreboard] [REF_MEM_WRITE] Addr=0x20c2024e Data=0x3f
# UVM_INFO ../src/env/axi4_scoreboard.sv(219) @ 4795000: uvm_test_top.env.scb [axi4_scoreboard] [REF_MEM_WRITE] Addr=0x20c2024f Data=0x04
# UVM_INFO ../src/env/axi4_scoreboard.sv(219) @ 4795000: uvm_test_top.env.scb [axi4_scoreboard] [REF_MEM_WRITE] Addr=0x20c2024f Data=0x03
# UVM_INFO ../src/env/axi4_scoreboard.sv(219) @ 4795000: uvm_test_top.env.scb [axi4_scoreboard] [REF_MEM_WRITE] Addr=0x20c2024c Data=0x46
# UVM_INFO ../src/env/axi4_scoreboard.sv(219) @ 4795000: uvm_test_top.env.scb [axi4_scoreboard] [REF_MEM_WRITE] Addr=0x20c2024c Data=0x5f
# UVM_INFO ../src/env/axi4_scoreboard.sv(219) @ 4795000: uvm_test_top.env.scb [axi4_scoreboard] [REF_MEM_WRITE] Addr=0x20c2024f Data=0xcd
# UVM_INFO ../src/env/axi4_scoreboard.sv(219) @ 4795000: uvm_test_top.env.scb [axi4_scoreboard] [REF_MEM_WRITE] Addr=0x20c20251 Data=0x1e
# UVM_INFO ../src/env/axi4_scoreboard.sv(219) @ 4795000: uvm_test_top.env.scb [axi4_scoreboard] [REF_MEM_WRITE] Addr=0x20c20253 Data=0xe7
# UVM_INFO ../src/env/axi4_scoreboard.sv(219) @ 4795000: uvm_test_top.env.scb [axi4_scoreboard] [REF_MEM_WRITE] Addr=0x20c20253 Data=0x31
# UVM_INFO ../src/env/axi4_scoreboard.sv(219) @ 4795000: uvm_test_top.env.scb [axi4_scoreboard] [REF_MEM_WRITE] Addr=0x20c20252 Data=0xea
# UVM_INFO ../src/env/axi4_scoreboard.sv(219) @ 4795000: uvm_test_top.env.scb [axi4_scoreboard] [REF_MEM_WRITE] Addr=0x20c20252 Data=0x55
# UVM_INFO ../src/env/axi4_scoreboard.sv(219) @ 4795000: uvm_test_top.env.scb [axi4_scoreboard] [REF_MEM_WRITE] Addr=0x20c20254 Data=0x2c
# UVM_INFO ../src/env/axi4_scoreboard.sv(219) @ 4795000: uvm_test_top.env.scb [axi4_scoreboard] [REF_MEM_WRITE] Addr=0x20c20255 Data=0x82
# UVM_INFO ../src/env/axi4_scoreboard.sv(219) @ 4795000: uvm_test_top.env.scb [axi4_scoreboard] [REF_MEM_WRITE] Addr=0x20c20257 Data=0x32
# UVM_INFO ../src/env/axi4_scoreboard.sv(219) @ 4795000: uvm_test_top.env.scb [axi4_scoreboard] [REF_MEM_WRITE] Addr=0x20c20254 Data=0xc0
# UVM_INFO ../src/env/axi4_scoreboard.sv(219) @ 4795000: uvm_test_top.env.scb [axi4_scoreboard] [REF_MEM_WRITE] Addr=0x20c20256 Data=0x11
# UVM_INFO ../src/env/axi4_scoreboard.sv(219) @ 4795000: uvm_test_top.env.scb [axi4_scoreboard] [REF_MEM_WRITE] Addr=0x20c20257 Data=0xc5
# UVM_INFO ../src/env/axi4_scoreboard.sv(219) @ 4795000: uvm_test_top.env.scb [axi4_scoreboard] [REF_MEM_WRITE] Addr=0x20c20254 Data=0x44
# UVM_INFO ../src/env/axi4_scoreboard.sv(219) @ 4795000: uvm_test_top.env.scb [axi4_scoreboard] [REF_MEM_WRITE] Addr=0x20c20254 Data=0x42
# UVM_INFO ../src/env/axi4_scoreboard.sv(219) @ 4795000: uvm_test_top.env.scb [axi4_scoreboard] [REF_MEM_WRITE] Addr=0x20c20255 Data=0xa8
# UVM_INFO ../src/env/axi4_scoreboard.sv(219) @ 4795000: uvm_test_top.env.scb [axi4_scoreboard] [REF_MEM_WRITE] Addr=0x20c20258 Data=0x3f
# UVM_INFO ../src/env/axi4_scoreboard.sv(219) @ 4795000: uvm_test_top.env.scb [axi4_scoreboard] [REF_MEM_WRITE] Addr=0x20c2025b Data=0xad
# UVM_INFO ../src/env/axi4_scoreboard.sv(219) @ 4795000: uvm_test_top.env.scb [axi4_scoreboard] [REF_MEM_WRITE] Addr=0x20c20258 Data=0xac
# UVM_INFO ../src/env/axi4_scoreboard.sv(219) @ 4795000: uvm_test_top.env.scb [axi4_scoreboard] [REF_MEM_WRITE] Addr=0x20c20259 Data=0xeb
# UVM_INFO ../src/env/axi4_scoreboard.sv(219) @ 4795000: uvm_test_top.env.scb [axi4_scoreboard] [REF_MEM_WRITE] Addr=0x20c2025b Data=0x95
# UVM_INFO ../src/env/axi4_scoreboard.sv(219) @ 4795000: uvm_test_top.env.scb [axi4_scoreboard] [REF_MEM_WRITE] Addr=0x20c20258 Data=0x06
# UVM_INFO ../src/env/axi4_scoreboard.sv(219) @ 4795000: uvm_test_top.env.scb [axi4_scoreboard] [REF_MEM_WRITE] Addr=0x20c2025b Data=0x99
# UVM_INFO ../src/env/axi4_scoreboard.sv(219) @ 4795000: uvm_test_top.env.scb [axi4_scoreboard] [REF_MEM_WRITE] Addr=0x20c2025e Data=0x34
# UVM_INFO ../src/env/axi4_scoreboard.sv(219) @ 4795000: uvm_test_top.env.scb [axi4_scoreboard] [REF_MEM_WRITE] Addr=0x20c2025d Data=0xa5
# UVM_INFO ../src/env/axi4_scoreboard.sv(219) @ 4795000: uvm_test_top.env.scb [axi4_scoreboard] [REF_MEM_WRITE] Addr=0x20c2025f Data=0x77
# UVM_INFO ../src/env/axi4_scoreboard.sv(219) @ 4795000: uvm_test_top.env.scb [axi4_scoreboard] [REF_MEM_WRITE] Addr=0x20c2025c Data=0xb9
# UVM_INFO ../src/env/axi4_scoreboard.sv(219) @ 4795000: uvm_test_top.env.scb [axi4_scoreboard] [REF_MEM_WRITE] Addr=0x20c2025d Data=0xcd
# UVM_INFO ../src/env/axi4_scoreboard.sv(219) @ 4795000: uvm_test_top.env.scb [axi4_scoreboard] [REF_MEM_WRITE] Addr=0x20c2025e Data=0x86
# UVM_INFO ../src/env/axi4_scoreboard.sv(219) @ 4795000: uvm_test_top.env.scb [axi4_scoreboard] [REF_MEM_WRITE] Addr=0x20c2025f Data=0x8e
# UVM_INFO ../src/env/axi4_scoreboard.sv(219) @ 4795000: uvm_test_top.env.scb [axi4_scoreboard] [REF_MEM_WRITE] Addr=0x20c20261 Data=0xd4
# UVM_INFO ../src/env/axi4_scoreboard.sv(219) @ 4795000: uvm_test_top.env.scb [axi4_scoreboard] [REF_MEM_WRITE] Addr=0x20c20263 Data=0xfa
# UVM_INFO ../src/env/axi4_scoreboard.sv(219) @ 4795000: uvm_test_top.env.scb [axi4_scoreboard] [REF_MEM_WRITE] Addr=0x20c20260 Data=0x07
# UVM_INFO ../src/env/axi4_scoreboard.sv(219) @ 4795000: uvm_test_top.env.scb [axi4_scoreboard] [REF_MEM_WRITE] Addr=0x20c20261 Data=0xa9
# UVM_INFO ../src/env/axi4_scoreboard.sv(219) @ 4795000: uvm_test_top.env.scb [axi4_scoreboard] [REF_MEM_WRITE] Addr=0x20c20261 Data=0xb0
# UVM_INFO ../src/env/axi4_scoreboard.sv(219) @ 4795000: uvm_test_top.env.scb [axi4_scoreboard] [REF_MEM_WRITE] Addr=0x20c20262 Data=0x20
# UVM_INFO ../src/env/axi4_scoreboard.sv(219) @ 4795000: uvm_test_top.env.scb [axi4_scoreboard] [REF_MEM_WRITE] Addr=0x20c20263 Data=0x0c
# UVM_INFO ../src/env/axi4_scoreboard.sv(219) @ 4795000: uvm_test_top.env.scb [axi4_scoreboard] [REF_MEM_WRITE] Addr=0x20c20260 Data=0x06
# UVM_INFO ../src/env/axi4_scoreboard.sv(219) @ 4795000: uvm_test_top.env.scb [axi4_scoreboard] [REF_MEM_WRITE] Addr=0x20c20263 Data=0xcf
# UVM_INFO ../src/env/axi4_scoreboard.sv(219) @ 4795000: uvm_test_top.env.scb [axi4_scoreboard] [REF_MEM_WRITE] Addr=0x20c20264 Data=0xac
# UVM_INFO ../src/env/axi4_scoreboard.sv(219) @ 4795000: uvm_test_top.env.scb [axi4_scoreboard] [REF_MEM_WRITE] Addr=0x20c20265 Data=0x7c
# UVM_INFO ../src/env/axi4_scoreboard.sv(219) @ 4795000: uvm_test_top.env.scb [axi4_scoreboard] [REF_MEM_WRITE] Addr=0x20c20264 Data=0x0c
# UVM_INFO ../src/env/axi4_scoreboard.sv(219) @ 4795000: uvm_test_top.env.scb [axi4_scoreboard] [REF_MEM_WRITE] Addr=0x20c20265 Data=0x84
# UVM_INFO ../src/env/axi4_scoreboard.sv(219) @ 4795000: uvm_test_top.env.scb [axi4_scoreboard] [REF_MEM_WRITE] Addr=0x20c20264 Data=0x26
# UVM_INFO ../src/env/axi4_scoreboard.sv(219) @ 4795000: uvm_test_top.env.scb [axi4_scoreboard] [REF_MEM_WRITE] Addr=0x20c20265 Data=0xd7
# UVM_INFO ../src/env/axi4_scoreboard.sv(219) @ 4795000: uvm_test_top.env.scb [axi4_scoreboard] [REF_MEM_WRITE] Addr=0x20c20266 Data=0x42
# UVM_INFO ../src/env/axi4_scoreboard.sv(219) @ 4795000: uvm_test_top.env.scb [axi4_scoreboard] [REF_MEM_WRITE] Addr=0x20c20266 Data=0x83
# UVM_INFO ../src/env/axi4_scoreboard.sv(219) @ 4795000: uvm_test_top.env.scb [axi4_scoreboard] [REF_MEM_WRITE] Addr=0x20c20267 Data=0xa2
# UVM_INFO ../src/env/axi4_scoreboard.sv(219) @ 4795000: uvm_test_top.env.scb [axi4_scoreboard] [REF_MEM_WRITE] Addr=0x20c20268 Data=0x62
# UVM_INFO ../src/env/axi4_scoreboard.sv(219) @ 4795000: uvm_test_top.env.scb [axi4_scoreboard] [REF_MEM_WRITE] Addr=0x20c20269 Data=0x13
# UVM_INFO ../src/env/axi4_scoreboard.sv(219) @ 4795000: uvm_test_top.env.scb [axi4_scoreboard] [REF_MEM_WRITE] Addr=0x20c2026a Data=0xbd
# UVM_INFO ../src/env/axi4_scoreboard.sv(219) @ 4795000: uvm_test_top.env.scb [axi4_scoreboard] [REF_MEM_WRITE] Addr=0x20c20268 Data=0x1b
# UVM_INFO ../src/env/axi4_scoreboard.sv(219) @ 4795000: uvm_test_top.env.scb [axi4_scoreboard] [REF_MEM_WRITE] Addr=0x20c20269 Data=0xdc
# UVM_INFO ../src/env/axi4_scoreboard.sv(219) @ 4795000: uvm_test_top.env.scb [axi4_scoreboard] [REF_MEM_WRITE] Addr=0x20c2026a Data=0xa0
# UVM_INFO ../src/env/axi4_scoreboard.sv(219) @ 4795000: uvm_test_top.env.scb [axi4_scoreboard] [REF_MEM_WRITE] Addr=0x20c2026b Data=0x39
# UVM_INFO ../src/env/axi4_scoreboard.sv(219) @ 4795000: uvm_test_top.env.scb [axi4_scoreboard] [REF_MEM_WRITE] Addr=0x20c20269 Data=0x29
# UVM_INFO ../src/env/axi4_scoreboard.sv(219) @ 4795000: uvm_test_top.env.scb [axi4_scoreboard] [REF_MEM_WRITE] Addr=0x20c2026a Data=0x60
# UVM_INFO ../src/env/axi4_scoreboard.sv(219) @ 4795000: uvm_test_top.env.scb [axi4_scoreboard] [REF_MEM_WRITE] Addr=0x20c2026f Data=0x78
# UVM_INFO ../src/env/axi4_scoreboard.sv(219) @ 4795000: uvm_test_top.env.scb [axi4_scoreboard] [REF_MEM_WRITE] Addr=0x20c2026c Data=0x0c
# UVM_INFO ../src/env/axi4_scoreboard.sv(219) @ 4795000: uvm_test_top.env.scb [axi4_scoreboard] [REF_MEM_WRITE] Addr=0x20c2026d Data=0x11
# UVM_INFO ../src/env/axi4_scoreboard.sv(219) @ 4795000: uvm_test_top.env.scb [axi4_scoreboard] [REF_MEM_WRITE] Addr=0x20c2026e Data=0xa5
# UVM_INFO ../src/env/axi4_scoreboard.sv(219) @ 4795000: uvm_test_top.env.scb [axi4_scoreboard] [REF_MEM_WRITE] Addr=0x20c2026f Data=0x5f
# UVM_INFO ../src/env/axi4_scoreboard.sv(219) @ 4795000: uvm_test_top.env.scb [axi4_scoreboard] [REF_MEM_WRITE] Addr=0x20c2026c Data=0x17
# UVM_INFO ../src/env/axi4_scoreboard.sv(219) @ 4795000: uvm_test_top.env.scb [axi4_scoreboard] [REF_MEM_WRITE] Addr=0x20c2026d Data=0xb6
# UVM_INFO ../src/env/axi4_scoreboard.sv(219) @ 4795000: uvm_test_top.env.scb [axi4_scoreboard] [REF_MEM_WRITE] Addr=0x20c2026e Data=0x9e
# UVM_INFO ../src/env/axi4_scoreboard.sv(219) @ 4795000: uvm_test_top.env.scb [axi4_scoreboard] [REF_MEM_WRITE] Addr=0x20c2026f Data=0x3a
# UVM_INFO ../src/env/axi4_scoreboard.sv(219) @ 4795000: uvm_test_top.env.scb [axi4_scoreboard] [REF_MEM_WRITE] Addr=0x20c2026c Data=0xc1
# UVM_INFO ../src/env/axi4_scoreboard.sv(219) @ 4795000: uvm_test_top.env.scb [axi4_scoreboard] [REF_MEM_WRITE] Addr=0x20c2026e Data=0xe5
# UVM_INFO ../src/env/axi4_scoreboard.sv(219) @ 4795000: uvm_test_top.env.scb [axi4_scoreboard] [REF_MEM_WRITE] Addr=0x20c2026f Data=0xc7
# UVM_INFO ../src/env/axi4_scoreboard.sv(219) @ 4795000: uvm_test_top.env.scb [axi4_scoreboard] [REF_MEM_WRITE] Addr=0x20c20270 Data=0xb4
# UVM_INFO ../src/env/axi4_scoreboard.sv(219) @ 4795000: uvm_test_top.env.scb [axi4_scoreboard] [REF_MEM_WRITE] Addr=0x20c20272 Data=0x6c
# UVM_INFO ../src/env/axi4_scoreboard.sv(219) @ 4795000: uvm_test_top.env.scb [axi4_scoreboard] [REF_MEM_WRITE] Addr=0x20c20273 Data=0x03
# UVM_INFO ../src/env/axi4_scoreboard.sv(219) @ 4795000: uvm_test_top.env.scb [axi4_scoreboard] [REF_MEM_WRITE] Addr=0x20c20270 Data=0x8f
# UVM_INFO ../src/env/axi4_scoreboard.sv(219) @ 4795000: uvm_test_top.env.scb [axi4_scoreboard] [REF_MEM_WRITE] Addr=0x20c20271 Data=0xb6
# UVM_INFO ../src/env/axi4_scoreboard.sv(219) @ 4795000: uvm_test_top.env.scb [axi4_scoreboard] [REF_MEM_WRITE] Addr=0x20c20272 Data=0xfc
# UVM_INFO ../src/env/axi4_scoreboard.sv(219) @ 4795000: uvm_test_top.env.scb [axi4_scoreboard] [REF_MEM_WRITE] Addr=0x20c20273 Data=0x6d
# UVM_INFO ../src/env/axi4_scoreboard.sv(219) @ 4795000: uvm_test_top.env.scb [axi4_scoreboard] [REF_MEM_WRITE] Addr=0x20c20270 Data=0xd2
# UVM_INFO ../src/env/axi4_scoreboard.sv(219) @ 4795000: uvm_test_top.env.scb [axi4_scoreboard] [REF_MEM_WRITE] Addr=0x20c20270 Data=0x94
# UVM_INFO ../src/env/axi4_scoreboard.sv(219) @ 4795000: uvm_test_top.env.scb [axi4_scoreboard] [REF_MEM_WRITE] Addr=0x20c20272 Data=0x1a
# UVM_INFO ../src/env/axi4_scoreboard.sv(219) @ 4795000: uvm_test_top.env.scb [axi4_scoreboard] [REF_MEM_WRITE] Addr=0x20c20273 Data=0xd7
# UVM_INFO ../src/env/axi4_scoreboard.sv(219) @ 4795000: uvm_test_top.env.scb [axi4_scoreboard] [REF_MEM_WRITE] Addr=0x20c20276 Data=0x58
# UVM_INFO ../src/env/axi4_scoreboard.sv(219) @ 4795000: uvm_test_top.env.scb [axi4_scoreboard] [REF_MEM_WRITE] Addr=0x20c20274 Data=0x1e
# UVM_INFO ../src/env/axi4_scoreboard.sv(219) @ 4795000: uvm_test_top.env.scb [axi4_scoreboard] [REF_MEM_WRITE] Addr=0x20c20275 Data=0xee
# UVM_INFO ../src/env/axi4_scoreboard.sv(219) @ 4795000: uvm_test_top.env.scb [axi4_scoreboard] [REF_MEM_WRITE] Addr=0x20c20276 Data=0xff
# UVM_INFO ../src/env/axi4_scoreboard.sv(219) @ 4795000: uvm_test_top.env.scb [axi4_scoreboard] [REF_MEM_WRITE] Addr=0x20c2027a Data=0x92
# UVM_INFO ../src/env/axi4_scoreboard.sv(219) @ 4795000: uvm_test_top.env.scb [axi4_scoreboard] [REF_MEM_WRITE] Addr=0x20c20279 Data=0xcb
# UVM_INFO ../src/env/axi4_scoreboard.sv(219) @ 4795000: uvm_test_top.env.scb [axi4_scoreboard] [REF_MEM_WRITE] Addr=0x20c2027b Data=0xc2
# UVM_INFO ../src/env/axi4_scoreboard.sv(219) @ 4795000: uvm_test_top.env.scb [axi4_scoreboard] [REF_MEM_WRITE] Addr=0x20c20278 Data=0x73
# UVM_INFO ../src/env/axi4_scoreboard.sv(219) @ 4795000: uvm_test_top.env.scb [axi4_scoreboard] [REF_MEM_WRITE] Addr=0x20c2027a Data=0xe0
# UVM_INFO ../src/env/axi4_scoreboard.sv(219) @ 4795000: uvm_test_top.env.scb [axi4_scoreboard] [REF_MEM_WRITE] Addr=0x20c2027b Data=0x0f
# UVM_INFO ../src/env/axi4_scoreboard.sv(219) @ 4795000: uvm_test_top.env.scb [axi4_scoreboard] [REF_MEM_WRITE] Addr=0x20c20278 Data=0xfe
# UVM_INFO ../src/env/axi4_scoreboard.sv(219) @ 4795000: uvm_test_top.env.scb [axi4_scoreboard] [REF_MEM_WRITE] Addr=0x20c2027b Data=0xd3
