# vsim -c -coverage -sv_seed 19526695 "+UVM_TESTNAME=axi4_wr_rd_test" "+UVM_VERBOSITY=UVM_HIGH" "+DUMP_VCD" -l ./report/logs/axi4_wr_rd_test_run_2_seed_19526695.log -do "coverage save -onexit ./report/coverage/axi4_wr_rd_test_run_2_seed_19526695.ucdb; run -all; quit -f" opt_tb_top 
# Start time: 20:08:59 on Jun 04,2026
# //  Questa Sim-64
# //  Version 10.6b linux_x86_64 May 25 2017
# //
# //  Copyright 1991-2017 Mentor Graphics Corporation
# //  All Rights Reserved.
# //
# //  QuestaSim and its associated documentation contain trade
# //  secrets and commercial or financial information that are the property of
# //  Mentor Graphics Corporation and are privileged, confidential,
# //  and exempt from disclosure under the Freedom of Information Act,
# //  5 U.S.C. Section 552. Furthermore, this information
# //  is prohibited from disclosure under the Trade Secrets Act,
# //  18 U.S.C. Section 1905.
# //
# Loading sv_std.std
# Loading work.axi4_if(fast)
# Loading mtiUvm.uvm_pkg
# Loading work.axi4_pkg(fast)
# Loading work.axi4_test_pkg(fast)
# Loading work.tb_top(fast)
# Loading work.axi4_if(fast)
# Loading work.axi4_sva(fast)
# Loading mtiUvm.questa_uvm_pkg(fast)
# Loading /cadtools/mentor/Questa_10.6b/questasim/uvm-1.1d/linux_x86_64/uvm_dpi.so
# coverage save -onexit ./report/coverage/axi4_wr_rd_test_run_2_seed_19526695.ucdb
#  run -all
# ----------------------------------------------------------------
# UVM-1.1d
# (C) 2007-2013 Mentor Graphics Corporation
# (C) 2007-2013 Cadence Design Systems, Inc.
# (C) 2006-2013 Synopsys, Inc.
# (C) 2011-2013 Cypress Semiconductor Corp.
# ----------------------------------------------------------------
# 
#   ***********       IMPORTANT RELEASE NOTES         ************
# 
#   You are using a version of the UVM library that has been compiled
#   with `UVM_NO_DEPRECATED undefined.
#   See http://www.eda.org/svdb/view.php?id=3313 for more details.
# 
#   You are using a version of the UVM library that has been compiled
#   with `UVM_OBJECT_MUST_HAVE_CONSTRUCTOR undefined.
#   See http://www.eda.org/svdb/view.php?id=3770 for more details.
# 
#       (Specify +UVM_NO_RELNOTES to turn off this notice)
# 
# UVM_INFO verilog_src/questa_uvm_pkg-1.2/src/questa_uvm_pkg.sv(215) @ 0: reporter [Questa UVM] QUESTA_UVM-1.2.3
# UVM_INFO verilog_src/questa_uvm_pkg-1.2/src/questa_uvm_pkg.sv(217) @ 0: reporter [Questa UVM]  questa_uvm::init(+struct)
# UVM_INFO ../src/tb_top.sv(128) @ 0: reporter [TB_TOP] Virtual interface set in config_db
# UVM_INFO @ 0: reporter [RNTST] Running test axi4_wr_rd_test...
# UVM_INFO ../src/tb_top.sv(142) @ 0: reporter [TB_TOP] Waveform VCD dumping enabled (axi4_vip.vcd)
# UVM_INFO ../src/env/axi4_vip_env.sv(83) @ 0: uvm_test_top.env [axi4_vip_env] slave_vif not set - reusing master_vif (passthrough mode)
# UVM_INFO ../src/env/axi4_vip_env.sv(93) @ 0: uvm_test_top.env [axi4_vip_env] Scoreboard created
# UVM_INFO ../src/env/axi4_vip_env.sv(100) @ 0: uvm_test_top.env [axi4_vip_env] Coverage collectors created
# UVM_INFO ../src/mst/axi4_master_agent.sv(69) @ 0: uvm_test_top.env.master_agent [axi4_master_agent] ACTIVE mode - driver + sequencer created
# UVM_INFO ../src/slv/axi4_slave_agent.sv(82) @ 0: uvm_test_top.env.slave_agent [axi4_slave_agent] ACTIVE mode — ready_delay=[0:0] resp_delay=[0:0]
# UVM_INFO ../src/env/axi4_vip_env.sv(116) @ 0: uvm_test_top.env [axi4_vip_env] Scoreboard connected: master_mon.ap -> scb, slave_mon.ap -> scb
# UVM_INFO ../src/env/axi4_vip_env.sv(124) @ 0: uvm_test_top.env [axi4_vip_env] Coverage connected: master_mon.ap -> master_cov, slave_mon.ap -> slave_cov
# UVM_INFO @ 0: reporter [UVMTOP] UVM testbench topology:
# ---------------------------------------------------------------
# Name                       Type                     Size  Value
# ---------------------------------------------------------------
# uvm_test_top               axi4_wr_rd_test          -     @473 
#   env                      axi4_vip_env             -     @488 
#     master_agent           axi4_master_agent        -     @503 
#       drv                  axi4_master_driver       -     @567 
#         rsp_port           uvm_analysis_port        -     @582 
#         seq_item_port      uvm_seq_item_pull_port   -     @574 
#       mon                  axi4_master_monitor      -     @559 
#         ap                 uvm_analysis_port        -     @700 
#       sqr                  axi4_master_sequencer    -     @590 
#         rsp_export         uvm_analysis_export      -     @597 
#         seq_item_export    uvm_seq_item_pull_imp    -     @691 
#         arbitration_queue  array                    0     -    
#         lock_queue         array                    0     -    
#         num_last_reqs      integral                 32    'd1  
#         num_last_rsps      integral                 32    'd1  
#     master_cov             axi4_coverage            -     @524 
#       analysis_imp         uvm_analysis_imp         -     @531 
#     scb                    axi4_scoreboard          -     @517 
#       master_export        uvm_analysis_imp_master  -     @714 
#       slave_export         uvm_analysis_imp_slave   -     @722 
#     slave_agent            axi4_slave_agent         -     @510 
#       drv                  axi4_slave_driver        -     @753 
#         rsp_port           uvm_analysis_port        -     @768 
#         seq_item_port      uvm_seq_item_pull_port   -     @760 
#       mon                  axi4_slave_monitor       -     @735 
#         ap                 uvm_analysis_port        -     @890 
#       sqr                  axi4_slave_sequencer     -     @776 
#         rsp_export         uvm_analysis_export      -     @783 
#         seq_item_export    uvm_seq_item_pull_imp    -     @877 
#         arbitration_queue  array                    0     -    
#         lock_queue         array                    0     -    
#         num_last_reqs      integral                 32    'd1  
#         num_last_rsps      integral                 32    'd1  
#     slave_cov              axi4_coverage            -     @539 
#       analysis_imp         uvm_analysis_imp         -     @546 
# ---------------------------------------------------------------
# 
# UVM_INFO verilog_src/questa_uvm_pkg-1.2/src/questa_uvm_pkg.sv(277) @ 0: reporter [Questa UVM] End Of Elaboration
# UVM_INFO ../src/test/axi4_wr_rd_test.sv(37) @ 0: uvm_test_top [axi4_wr_rd_test] Starting 10 write-read-back iterations
# UVM_INFO ../src/test/axi4_wr_rd_test.sv(52) @ 0: uvm_test_top [axi4_wr_rd_test] [1/10] ADDR=0xda96f7f2 LEN=15 BURST=AXI4_BURST_INCR
# UVM_INFO ../src/tb_top.sv(49) @ 95000: reporter [TOP_TB] Reset de-asserted
# UVM_INFO ../src/slv/axi4_slave_driver.sv(66) @ 95000: uvm_test_top.env.slave_agent.drv [axi4_slave_driver] Reset deasserted - slave driver active
# UVM_INFO ../src/mst/axi4_master_driver.sv(46) @ 95000: uvm_test_top.env.master_agent.drv [axi4_master_driver] Reset deasserted - master driver active
# UVM_INFO ../src/mst/axi4_master_monitor.sv(77) @ 95000: uvm_test_top.env.master_agent.mon [axi4_master_monitor] Reset deasserted — monitor active
# UVM_INFO ../src/slv/axi4_slave_monitor.sv(71) @ 95000: uvm_test_top.env.slave_agent.mon [axi4_slave_monitor] Reset deasserted — monitor active
# UVM_INFO ../src/mst/axi4_master_driver.sv(55) @ 95000: uvm_test_top.env.master_agent.drv [axi4_master_driver] Driving AXI4_WRITE  ID=0x8  ADDR=0xda96f7f2  LEN=15
# UVM_INFO ../src/mst/axi4_master_driver.sv(106) @ 95000: uvm_test_top.env.master_agent.drv [axi4_master_driver] Write order: W -> AW (W first)
# UVM_INFO ../src/slv/axi4_slave_driver.sv(159) @ 155000: uvm_test_top.env.slave_agent.drv [axi4_slave_driver] AW received: ID=0x8 ADDR=0xda96f7f2 LEN=15
# UVM_INFO ../src/slv/axi4_slave_monitor.sv(116) @ 155000: uvm_test_top.env.slave_agent.mon [axi4_slave_monitor] AW received: ID=0x8 ADDR=0xda96f7f2 LEN=15
# UVM_INFO ../src/mst/axi4_master_monitor.sv(124) @ 155000: uvm_test_top.env.master_agent.mon [axi4_master_monitor] AW observed: ID=0x8 ADDR=0xda96f7f2 LEN=15
# UVM_INFO ../src/mst/axi4_master_monitor.sv(184) @ 405000: uvm_test_top.env.master_agent.mon [axi4_master_monitor] W data assembled: ID=0x8 ADDR=0xda96f7f2 16 beats
# UVM_INFO ../src/slv/axi4_slave_monitor.sv(167) @ 405000: uvm_test_top.env.slave_agent.mon [axi4_slave_monitor] W data assembled: ID=0x8 ADDR=0xda96f7f2 16 beats
# UVM_INFO ../src/mst/axi4_master_driver.sv(197) @ 435000: uvm_test_top.env.master_agent.drv [axi4_master_driver] Write response: AXI4_RESP_OKAY
# UVM_INFO ../src/slv/axi4_slave_driver.sv(223) @ 435000: uvm_test_top.env.slave_agent.drv [axi4_slave_driver] Write complete: ID=0x8  16 beats stored
# UVM_INFO ../src/slv/axi4_slave_monitor.sv(189) @ 435000: uvm_test_top.env.slave_agent.mon [axi4_slave_monitor] Write response sent: ID=0x8 ADDR=0xda96f7f2 RESP=AXI4_RESP_OKAY
# UVM_INFO ../src/env/axi4_scoreboard.sv(103) @ 435000: uvm_test_top.env.scb [axi4_scoreboard] Slave AXI4_WRITE received: ID=0x8 ADDR=0xda96f7f2 LEN=15
# UVM_INFO ../src/mst/axi4_master_monitor.sv(210) @ 435000: uvm_test_top.env.master_agent.mon [axi4_master_monitor] Write complete: ID=0x8 ADDR=0xda96f7f2 RESP=AXI4_RESP_OKAY
# UVM_INFO ../src/env/axi4_scoreboard.sv(82) @ 435000: uvm_test_top.env.scb [axi4_scoreboard] Master AXI4_WRITE received: ID=0x8 ADDR=0xda96f7f2 LEN=15
# UVM_INFO ../src/env/axi4_scoreboard.sv(154) @ 435000: uvm_test_top.env.scb [axi4_scoreboard] [WRITE] MATCH #1: ID=0x8 ADDR=0xda96f7f2 LEN=15
# UVM_INFO ../src/seq/axi4_write_read_back_seq.sv(60) @ 435000: uvm_test_top.env.master_agent.sqr@@wr_rd_seq_0 [axi4_write_read_back_seq] Write phase: ADDR=0xda96f7f2 LEN=15 SIZE=AXI4_SIZE_4B BURST=AXI4_BURST_INCR
# UVM_INFO ../src/mst/axi4_master_driver.sv(55) @ 435000: uvm_test_top.env.master_agent.drv [axi4_master_driver] Driving AXI4_READ  ID=0x0  ADDR=0xda96f7f2  LEN=15
# UVM_INFO ../src/slv/axi4_slave_driver.sv(259) @ 465000: uvm_test_top.env.slave_agent.drv [axi4_slave_driver] AR received: ID=0x0 ADDR=0xda96f7f2 LEN=15
# UVM_INFO ../src/mst/axi4_master_monitor.sv(246) @ 465000: uvm_test_top.env.master_agent.mon [axi4_master_monitor] AR observed: ID=0x0 ADDR=0xda96f7f2 LEN=15
# UVM_INFO ../src/slv/axi4_slave_monitor.sv(224) @ 465000: uvm_test_top.env.slave_agent.mon [axi4_slave_monitor] AR received: ID=0x0 ADDR=0xda96f7f2 LEN=15
# UVM_INFO ../src/mst/axi4_master_driver.sv(254) @ 785000: uvm_test_top.env.master_agent.drv [axi4_master_driver] Read complete: 16 beats received
# UVM_INFO ../src/slv/axi4_slave_driver.sv(293) @ 785000: uvm_test_top.env.slave_agent.drv [axi4_slave_driver] Read complete: ID=0x0  16 beats sent
# UVM_INFO ../src/mst/axi4_master_monitor.sv(314) @ 785000: uvm_test_top.env.master_agent.mon [axi4_master_monitor] Read complete: ID=0x0 ADDR=0xda96f7f2 16 beats
# UVM_INFO ../src/env/axi4_scoreboard.sv(82) @ 785000: uvm_test_top.env.scb [axi4_scoreboard] Master AXI4_READ received: ID=0x0 ADDR=0xda96f7f2 LEN=15
# UVM_INFO ../src/slv/axi4_slave_monitor.sv(287) @ 785000: uvm_test_top.env.slave_agent.mon [axi4_slave_monitor] Read data sent: ID=0x0 ADDR=0xda96f7f2 16 beats
# UVM_INFO ../src/env/axi4_scoreboard.sv(103) @ 785000: uvm_test_top.env.scb [axi4_scoreboard] Slave AXI4_READ received: ID=0x0 ADDR=0xda96f7f2 LEN=15
# UVM_INFO ../src/env/axi4_scoreboard.sv(154) @ 785000: uvm_test_top.env.scb [axi4_scoreboard] [READ] MATCH #2: ID=0x0 ADDR=0xda96f7f2 LEN=15
# UVM_INFO ../src/seq/axi4_write_read_back_seq.sv(80) @ 785000: uvm_test_top.env.master_agent.sqr@@wr_rd_seq_0 [axi4_write_read_back_seq] Read-back phase: ADDR=0xda96f7f2 LEN=15 - data integrity check via scoreboard
# UVM_INFO ../src/test/axi4_wr_rd_test.sv(52) @ 785000: uvm_test_top [axi4_wr_rd_test] [2/10] ADDR=0xb30b117d LEN=8 BURST=AXI4_BURST_INCR
# UVM_INFO ../src/mst/axi4_master_driver.sv(55) @ 785000: uvm_test_top.env.master_agent.drv [axi4_master_driver] Driving AXI4_WRITE  ID=0x5  ADDR=0xb30b117d  LEN=8
# UVM_INFO ../src/mst/axi4_master_driver.sv(94) @ 785000: uvm_test_top.env.master_agent.drv [axi4_master_driver] Write order: AW || W (parallel)
# UVM_INFO ../src/slv/axi4_slave_driver.sv(159) @ 815000: uvm_test_top.env.slave_agent.drv [axi4_slave_driver] AW received: ID=0x5 ADDR=0xb30b117d LEN=8
# UVM_INFO ../src/slv/axi4_slave_monitor.sv(116) @ 815000: uvm_test_top.env.slave_agent.mon [axi4_slave_monitor] AW received: ID=0x5 ADDR=0xb30b117d LEN=8
# UVM_INFO ../src/mst/axi4_master_monitor.sv(124) @ 815000: uvm_test_top.env.master_agent.mon [axi4_master_monitor] AW observed: ID=0x5 ADDR=0xb30b117d LEN=8
# UVM_INFO ../src/mst/axi4_master_monitor.sv(184) @ 965000: uvm_test_top.env.master_agent.mon [axi4_master_monitor] W data assembled: ID=0x5 ADDR=0xb30b117d 9 beats
# UVM_INFO ../src/slv/axi4_slave_monitor.sv(167) @ 965000: uvm_test_top.env.slave_agent.mon [axi4_slave_monitor] W data assembled: ID=0x5 ADDR=0xb30b117d 9 beats
# UVM_INFO ../src/mst/axi4_master_driver.sv(197) @ 995000: uvm_test_top.env.master_agent.drv [axi4_master_driver] Write response: AXI4_RESP_OKAY
# UVM_INFO ../src/slv/axi4_slave_driver.sv(223) @ 995000: uvm_test_top.env.slave_agent.drv [axi4_slave_driver] Write complete: ID=0x5  9 beats stored
# UVM_INFO ../src/slv/axi4_slave_monitor.sv(189) @ 995000: uvm_test_top.env.slave_agent.mon [axi4_slave_monitor] Write response sent: ID=0x5 ADDR=0xb30b117d RESP=AXI4_RESP_OKAY
# UVM_INFO ../src/env/axi4_scoreboard.sv(103) @ 995000: uvm_test_top.env.scb [axi4_scoreboard] Slave AXI4_WRITE received: ID=0x5 ADDR=0xb30b117d LEN=8
# UVM_INFO ../src/mst/axi4_master_monitor.sv(210) @ 995000: uvm_test_top.env.master_agent.mon [axi4_master_monitor] Write complete: ID=0x5 ADDR=0xb30b117d RESP=AXI4_RESP_OKAY
# UVM_INFO ../src/env/axi4_scoreboard.sv(82) @ 995000: uvm_test_top.env.scb [axi4_scoreboard] Master AXI4_WRITE received: ID=0x5 ADDR=0xb30b117d LEN=8
# UVM_INFO ../src/env/axi4_scoreboard.sv(154) @ 995000: uvm_test_top.env.scb [axi4_scoreboard] [WRITE] MATCH #3: ID=0x5 ADDR=0xb30b117d LEN=8
# UVM_INFO ../src/seq/axi4_write_read_back_seq.sv(60) @ 995000: uvm_test_top.env.master_agent.sqr@@wr_rd_seq_1 [axi4_write_read_back_seq] Write phase: ADDR=0xb30b117d LEN=8 SIZE=AXI4_SIZE_4B BURST=AXI4_BURST_INCR
# UVM_INFO ../src/mst/axi4_master_driver.sv(55) @ 995000: uvm_test_top.env.master_agent.drv [axi4_master_driver] Driving AXI4_READ  ID=0x9  ADDR=0xb30b117d  LEN=8
# UVM_INFO ../src/slv/axi4_slave_driver.sv(259) @ 1025000: uvm_test_top.env.slave_agent.drv [axi4_slave_driver] AR received: ID=0x9 ADDR=0xb30b117d LEN=8
# UVM_INFO ../src/mst/axi4_master_monitor.sv(246) @ 1025000: uvm_test_top.env.master_agent.mon [axi4_master_monitor] AR observed: ID=0x9 ADDR=0xb30b117d LEN=8
# UVM_INFO ../src/slv/axi4_slave_monitor.sv(224) @ 1025000: uvm_test_top.env.slave_agent.mon [axi4_slave_monitor] AR received: ID=0x9 ADDR=0xb30b117d LEN=8
# UVM_INFO ../src/mst/axi4_master_driver.sv(254) @ 1205000: uvm_test_top.env.master_agent.drv [axi4_master_driver] Read complete: 9 beats received
# UVM_INFO ../src/slv/axi4_slave_driver.sv(293) @ 1205000: uvm_test_top.env.slave_agent.drv [axi4_slave_driver] Read complete: ID=0x9  9 beats sent
# UVM_INFO ../src/mst/axi4_master_monitor.sv(314) @ 1205000: uvm_test_top.env.master_agent.mon [axi4_master_monitor] Read complete: ID=0x9 ADDR=0xb30b117d 9 beats
# UVM_INFO ../src/env/axi4_scoreboard.sv(82) @ 1205000: uvm_test_top.env.scb [axi4_scoreboard] Master AXI4_READ received: ID=0x9 ADDR=0xb30b117d LEN=8
# UVM_INFO ../src/slv/axi4_slave_monitor.sv(287) @ 1205000: uvm_test_top.env.slave_agent.mon [axi4_slave_monitor] Read data sent: ID=0x9 ADDR=0xb30b117d 9 beats
# UVM_INFO ../src/env/axi4_scoreboard.sv(103) @ 1205000: uvm_test_top.env.scb [axi4_scoreboard] Slave AXI4_READ received: ID=0x9 ADDR=0xb30b117d LEN=8
# UVM_INFO ../src/env/axi4_scoreboard.sv(154) @ 1205000: uvm_test_top.env.scb [axi4_scoreboard] [READ] MATCH #4: ID=0x9 ADDR=0xb30b117d LEN=8
# UVM_INFO ../src/seq/axi4_write_read_back_seq.sv(80) @ 1205000: uvm_test_top.env.master_agent.sqr@@wr_rd_seq_1 [axi4_write_read_back_seq] Read-back phase: ADDR=0xb30b117d LEN=8 - data integrity check via scoreboard
# UVM_INFO ../src/test/axi4_wr_rd_test.sv(52) @ 1205000: uvm_test_top [axi4_wr_rd_test] [3/10] ADDR=0x58788371 LEN=4 BURST=AXI4_BURST_INCR
# UVM_INFO ../src/mst/axi4_master_driver.sv(55) @ 1205000: uvm_test_top.env.master_agent.drv [axi4_master_driver] Driving AXI4_WRITE  ID=0x4  ADDR=0x58788371  LEN=4
# UVM_INFO ../src/mst/axi4_master_driver.sv(101) @ 1205000: uvm_test_top.env.master_agent.drv [axi4_master_driver] Write order: AW -> W (sequential)
# UVM_INFO ../src/slv/axi4_slave_driver.sv(159) @ 1235000: uvm_test_top.env.slave_agent.drv [axi4_slave_driver] AW received: ID=0x4 ADDR=0x58788371 LEN=4
# UVM_INFO ../src/slv/axi4_slave_monitor.sv(116) @ 1235000: uvm_test_top.env.slave_agent.mon [axi4_slave_monitor] AW received: ID=0x4 ADDR=0x58788371 LEN=4
# UVM_INFO ../src/mst/axi4_master_monitor.sv(124) @ 1235000: uvm_test_top.env.master_agent.mon [axi4_master_monitor] AW observed: ID=0x4 ADDR=0x58788371 LEN=4
# UVM_INFO ../src/slv/axi4_slave_monitor.sv(167) @ 1335000: uvm_test_top.env.slave_agent.mon [axi4_slave_monitor] W data assembled: ID=0x4 ADDR=0x58788371 5 beats
# UVM_INFO ../src/mst/axi4_master_monitor.sv(184) @ 1335000: uvm_test_top.env.master_agent.mon [axi4_master_monitor] W data assembled: ID=0x4 ADDR=0x58788371 5 beats
# UVM_INFO ../src/mst/axi4_master_driver.sv(197) @ 1365000: uvm_test_top.env.master_agent.drv [axi4_master_driver] Write response: AXI4_RESP_OKAY
# UVM_INFO ../src/slv/axi4_slave_driver.sv(223) @ 1365000: uvm_test_top.env.slave_agent.drv [axi4_slave_driver] Write complete: ID=0x4  5 beats stored
# UVM_INFO ../src/mst/axi4_master_monitor.sv(210) @ 1365000: uvm_test_top.env.master_agent.mon [axi4_master_monitor] Write complete: ID=0x4 ADDR=0x58788371 RESP=AXI4_RESP_OKAY
# UVM_INFO ../src/env/axi4_scoreboard.sv(82) @ 1365000: uvm_test_top.env.scb [axi4_scoreboard] Master AXI4_WRITE received: ID=0x4 ADDR=0x58788371 LEN=4
# UVM_INFO ../src/slv/axi4_slave_monitor.sv(189) @ 1365000: uvm_test_top.env.slave_agent.mon [axi4_slave_monitor] Write response sent: ID=0x4 ADDR=0x58788371 RESP=AXI4_RESP_OKAY
# UVM_INFO ../src/env/axi4_scoreboard.sv(103) @ 1365000: uvm_test_top.env.scb [axi4_scoreboard] Slave AXI4_WRITE received: ID=0x4 ADDR=0x58788371 LEN=4
# UVM_INFO ../src/env/axi4_scoreboard.sv(154) @ 1365000: uvm_test_top.env.scb [axi4_scoreboard] [WRITE] MATCH #5: ID=0x4 ADDR=0x58788371 LEN=4
# UVM_INFO ../src/seq/axi4_write_read_back_seq.sv(60) @ 1365000: uvm_test_top.env.master_agent.sqr@@wr_rd_seq_2 [axi4_write_read_back_seq] Write phase: ADDR=0x58788371 LEN=4 SIZE=AXI4_SIZE_4B BURST=AXI4_BURST_INCR
# UVM_INFO ../src/mst/axi4_master_driver.sv(55) @ 1365000: uvm_test_top.env.master_agent.drv [axi4_master_driver] Driving AXI4_READ  ID=0x5  ADDR=0x58788371  LEN=4
# UVM_INFO ../src/slv/axi4_slave_driver.sv(259) @ 1395000: uvm_test_top.env.slave_agent.drv [axi4_slave_driver] AR received: ID=0x5 ADDR=0x58788371 LEN=4
# UVM_INFO ../src/slv/axi4_slave_monitor.sv(224) @ 1395000: uvm_test_top.env.slave_agent.mon [axi4_slave_monitor] AR received: ID=0x5 ADDR=0x58788371 LEN=4
# UVM_INFO ../src/mst/axi4_master_monitor.sv(246) @ 1395000: uvm_test_top.env.master_agent.mon [axi4_master_monitor] AR observed: ID=0x5 ADDR=0x58788371 LEN=4
# UVM_INFO ../src/mst/axi4_master_driver.sv(254) @ 1495000: uvm_test_top.env.master_agent.drv [axi4_master_driver] Read complete: 5 beats received
# UVM_INFO ../src/slv/axi4_slave_driver.sv(293) @ 1495000: uvm_test_top.env.slave_agent.drv [axi4_slave_driver] Read complete: ID=0x5  5 beats sent
# UVM_INFO ../src/slv/axi4_slave_monitor.sv(287) @ 1495000: uvm_test_top.env.slave_agent.mon [axi4_slave_monitor] Read data sent: ID=0x5 ADDR=0x58788371 5 beats
# UVM_INFO ../src/env/axi4_scoreboard.sv(103) @ 1495000: uvm_test_top.env.scb [axi4_scoreboard] Slave AXI4_READ received: ID=0x5 ADDR=0x58788371 LEN=4
# UVM_INFO ../src/mst/axi4_master_monitor.sv(314) @ 1495000: uvm_test_top.env.master_agent.mon [axi4_master_monitor] Read complete: ID=0x5 ADDR=0x58788371 5 beats
# UVM_INFO ../src/env/axi4_scoreboard.sv(82) @ 1495000: uvm_test_top.env.scb [axi4_scoreboard] Master AXI4_READ received: ID=0x5 ADDR=0x58788371 LEN=4
# UVM_INFO ../src/env/axi4_scoreboard.sv(154) @ 1495000: uvm_test_top.env.scb [axi4_scoreboard] [READ] MATCH #6: ID=0x5 ADDR=0x58788371 LEN=4
# UVM_INFO ../src/seq/axi4_write_read_back_seq.sv(80) @ 1495000: uvm_test_top.env.master_agent.sqr@@wr_rd_seq_2 [axi4_write_read_back_seq] Read-back phase: ADDR=0x58788371 LEN=4 - data integrity check via scoreboard
# UVM_INFO ../src/test/axi4_wr_rd_test.sv(52) @ 1495000: uvm_test_top [axi4_wr_rd_test] [4/10] ADDR=0xa00605db LEN=12 BURST=AXI4_BURST_INCR
# UVM_INFO ../src/mst/axi4_master_driver.sv(55) @ 1495000: uvm_test_top.env.master_agent.drv [axi4_master_driver] Driving AXI4_WRITE  ID=0xa  ADDR=0xa00605db  LEN=12
# UVM_INFO ../src/mst/axi4_master_driver.sv(94) @ 1495000: uvm_test_top.env.master_agent.drv [axi4_master_driver] Write order: AW || W (parallel)
# UVM_INFO ../src/slv/axi4_slave_driver.sv(159) @ 1525000: uvm_test_top.env.slave_agent.drv [axi4_slave_driver] AW received: ID=0xa ADDR=0xa00605db LEN=12
# UVM_INFO ../src/mst/axi4_master_monitor.sv(124) @ 1525000: uvm_test_top.env.master_agent.mon [axi4_master_monitor] AW observed: ID=0xa ADDR=0xa00605db LEN=12
# UVM_INFO ../src/slv/axi4_slave_monitor.sv(116) @ 1525000: uvm_test_top.env.slave_agent.mon [axi4_slave_monitor] AW received: ID=0xa ADDR=0xa00605db LEN=12
# UVM_INFO ../src/slv/axi4_slave_monitor.sv(167) @ 1755000: uvm_test_top.env.slave_agent.mon [axi4_slave_monitor] W data assembled: ID=0xa ADDR=0xa00605db 13 beats
# UVM_INFO ../src/mst/axi4_master_monitor.sv(184) @ 1755000: uvm_test_top.env.master_agent.mon [axi4_master_monitor] W data assembled: ID=0xa ADDR=0xa00605db 13 beats
# UVM_INFO ../src/mst/axi4_master_driver.sv(197) @ 1785000: uvm_test_top.env.master_agent.drv [axi4_master_driver] Write response: AXI4_RESP_OKAY
# UVM_INFO ../src/slv/axi4_slave_driver.sv(223) @ 1785000: uvm_test_top.env.slave_agent.drv [axi4_slave_driver] Write complete: ID=0xa  13 beats stored
# UVM_INFO ../src/mst/axi4_master_monitor.sv(210) @ 1785000: uvm_test_top.env.master_agent.mon [axi4_master_monitor] Write complete: ID=0xa ADDR=0xa00605db RESP=AXI4_RESP_OKAY
# UVM_INFO ../src/env/axi4_scoreboard.sv(82) @ 1785000: uvm_test_top.env.scb [axi4_scoreboard] Master AXI4_WRITE received: ID=0xa ADDR=0xa00605db LEN=12
# UVM_INFO ../src/slv/axi4_slave_monitor.sv(189) @ 1785000: uvm_test_top.env.slave_agent.mon [axi4_slave_monitor] Write response sent: ID=0xa ADDR=0xa00605db RESP=AXI4_RESP_OKAY
# UVM_INFO ../src/env/axi4_scoreboard.sv(103) @ 1785000: uvm_test_top.env.scb [axi4_scoreboard] Slave AXI4_WRITE received: ID=0xa ADDR=0xa00605db LEN=12
# UVM_INFO ../src/env/axi4_scoreboard.sv(154) @ 1785000: uvm_test_top.env.scb [axi4_scoreboard] [WRITE] MATCH #7: ID=0xa ADDR=0xa00605db LEN=12
# UVM_INFO ../src/seq/axi4_write_read_back_seq.sv(60) @ 1785000: uvm_test_top.env.master_agent.sqr@@wr_rd_seq_3 [axi4_write_read_back_seq] Write phase: ADDR=0xa00605db LEN=12 SIZE=AXI4_SIZE_4B BURST=AXI4_BURST_INCR
# UVM_INFO ../src/mst/axi4_master_driver.sv(55) @ 1785000: uvm_test_top.env.master_agent.drv [axi4_master_driver] Driving AXI4_READ  ID=0xf  ADDR=0xa00605db  LEN=12
# UVM_INFO ../src/slv/axi4_slave_driver.sv(259) @ 1815000: uvm_test_top.env.slave_agent.drv [axi4_slave_driver] AR received: ID=0xf ADDR=0xa00605db LEN=12
# UVM_INFO ../src/slv/axi4_slave_monitor.sv(224) @ 1815000: uvm_test_top.env.slave_agent.mon [axi4_slave_monitor] AR received: ID=0xf ADDR=0xa00605db LEN=12
# UVM_INFO ../src/mst/axi4_master_monitor.sv(246) @ 1815000: uvm_test_top.env.master_agent.mon [axi4_master_monitor] AR observed: ID=0xf ADDR=0xa00605db LEN=12
# UVM_INFO ../src/mst/axi4_master_driver.sv(254) @ 2075000: uvm_test_top.env.master_agent.drv [axi4_master_driver] Read complete: 13 beats received
# UVM_INFO ../src/slv/axi4_slave_driver.sv(293) @ 2075000: uvm_test_top.env.slave_agent.drv [axi4_slave_driver] Read complete: ID=0xf  13 beats sent
# UVM_INFO ../src/slv/axi4_slave_monitor.sv(287) @ 2075000: uvm_test_top.env.slave_agent.mon [axi4_slave_monitor] Read data sent: ID=0xf ADDR=0xa00605db 13 beats
# UVM_INFO ../src/env/axi4_scoreboard.sv(103) @ 2075000: uvm_test_top.env.scb [axi4_scoreboard] Slave AXI4_READ received: ID=0xf ADDR=0xa00605db LEN=12
# UVM_INFO ../src/mst/axi4_master_monitor.sv(314) @ 2075000: uvm_test_top.env.master_agent.mon [axi4_master_monitor] Read complete: ID=0xf ADDR=0xa00605db 13 beats
# UVM_INFO ../src/env/axi4_scoreboard.sv(82) @ 2075000: uvm_test_top.env.scb [axi4_scoreboard] Master AXI4_READ received: ID=0xf ADDR=0xa00605db LEN=12
# UVM_INFO ../src/env/axi4_scoreboard.sv(154) @ 2075000: uvm_test_top.env.scb [axi4_scoreboard] [READ] MATCH #8: ID=0xf ADDR=0xa00605db LEN=12
# UVM_INFO ../src/seq/axi4_write_read_back_seq.sv(80) @ 2075000: uvm_test_top.env.master_agent.sqr@@wr_rd_seq_3 [axi4_write_read_back_seq] Read-back phase: ADDR=0xa00605db LEN=12 - data integrity check via scoreboard
# UVM_INFO ../src/test/axi4_wr_rd_test.sv(52) @ 2075000: uvm_test_top [axi4_wr_rd_test] [5/10] ADDR=0x4ff625b7 LEN=9 BURST=AXI4_BURST_INCR
# UVM_INFO ../src/mst/axi4_master_driver.sv(55) @ 2075000: uvm_test_top.env.master_agent.drv [axi4_master_driver] Driving AXI4_WRITE  ID=0x4  ADDR=0x4ff625b7  LEN=9
# UVM_INFO ../src/mst/axi4_master_driver.sv(101) @ 2075000: uvm_test_top.env.master_agent.drv [axi4_master_driver] Write order: AW -> W (sequential)
# UVM_INFO ../src/slv/axi4_slave_driver.sv(159) @ 2105000: uvm_test_top.env.slave_agent.drv [axi4_slave_driver] AW received: ID=0x4 ADDR=0x4ff625b7 LEN=9
# UVM_INFO ../src/mst/axi4_master_monitor.sv(124) @ 2105000: uvm_test_top.env.master_agent.mon [axi4_master_monitor] AW observed: ID=0x4 ADDR=0x4ff625b7 LEN=9
# UVM_INFO ../src/slv/axi4_slave_monitor.sv(116) @ 2105000: uvm_test_top.env.slave_agent.mon [axi4_slave_monitor] AW received: ID=0x4 ADDR=0x4ff625b7 LEN=9
# UVM_INFO ../src/mst/axi4_master_monitor.sv(184) @ 2305000: uvm_test_top.env.master_agent.mon [axi4_master_monitor] W data assembled: ID=0x4 ADDR=0x4ff625b7 10 beats
# UVM_INFO ../src/slv/axi4_slave_monitor.sv(167) @ 2305000: uvm_test_top.env.slave_agent.mon [axi4_slave_monitor] W data assembled: ID=0x4 ADDR=0x4ff625b7 10 beats
# UVM_INFO ../src/mst/axi4_master_driver.sv(197) @ 2335000: uvm_test_top.env.master_agent.drv [axi4_master_driver] Write response: AXI4_RESP_OKAY
# UVM_INFO ../src/slv/axi4_slave_driver.sv(223) @ 2335000: uvm_test_top.env.slave_agent.drv [axi4_slave_driver] Write complete: ID=0x4  10 beats stored
# UVM_INFO ../src/slv/axi4_slave_monitor.sv(189) @ 2335000: uvm_test_top.env.slave_agent.mon [axi4_slave_monitor] Write response sent: ID=0x4 ADDR=0x4ff625b7 RESP=AXI4_RESP_OKAY
# UVM_INFO ../src/env/axi4_scoreboard.sv(103) @ 2335000: uvm_test_top.env.scb [axi4_scoreboard] Slave AXI4_WRITE received: ID=0x4 ADDR=0x4ff625b7 LEN=9
# UVM_INFO ../src/mst/axi4_master_monitor.sv(210) @ 2335000: uvm_test_top.env.master_agent.mon [axi4_master_monitor] Write complete: ID=0x4 ADDR=0x4ff625b7 RESP=AXI4_RESP_OKAY
# UVM_INFO ../src/env/axi4_scoreboard.sv(82) @ 2335000: uvm_test_top.env.scb [axi4_scoreboard] Master AXI4_WRITE received: ID=0x4 ADDR=0x4ff625b7 LEN=9
# UVM_INFO ../src/env/axi4_scoreboard.sv(154) @ 2335000: uvm_test_top.env.scb [axi4_scoreboard] [WRITE] MATCH #9: ID=0x4 ADDR=0x4ff625b7 LEN=9
# UVM_INFO ../src/seq/axi4_write_read_back_seq.sv(60) @ 2335000: uvm_test_top.env.master_agent.sqr@@wr_rd_seq_4 [axi4_write_read_back_seq] Write phase: ADDR=0x4ff625b7 LEN=9 SIZE=AXI4_SIZE_4B BURST=AXI4_BURST_INCR
# UVM_INFO ../src/mst/axi4_master_driver.sv(55) @ 2335000: uvm_test_top.env.master_agent.drv [axi4_master_driver] Driving AXI4_READ  ID=0xc  ADDR=0x4ff625b7  LEN=9
# UVM_INFO ../src/slv/axi4_slave_driver.sv(259) @ 2365000: uvm_test_top.env.slave_agent.drv [axi4_slave_driver] AR received: ID=0xc ADDR=0x4ff625b7 LEN=9
# UVM_INFO ../src/mst/axi4_master_monitor.sv(246) @ 2365000: uvm_test_top.env.master_agent.mon [axi4_master_monitor] AR observed: ID=0xc ADDR=0x4ff625b7 LEN=9
# UVM_INFO ../src/slv/axi4_slave_monitor.sv(224) @ 2365000: uvm_test_top.env.slave_agent.mon [axi4_slave_monitor] AR received: ID=0xc ADDR=0x4ff625b7 LEN=9
# UVM_INFO ../src/mst/axi4_master_driver.sv(254) @ 2565000: uvm_test_top.env.master_agent.drv [axi4_master_driver] Read complete: 10 beats received
# UVM_INFO ../src/slv/axi4_slave_driver.sv(293) @ 2565000: uvm_test_top.env.slave_agent.drv [axi4_slave_driver] Read complete: ID=0xc  10 beats sent
# UVM_INFO ../src/mst/axi4_master_monitor.sv(314) @ 2565000: uvm_test_top.env.master_agent.mon [axi4_master_monitor] Read complete: ID=0xc ADDR=0x4ff625b7 10 beats
# UVM_INFO ../src/env/axi4_scoreboard.sv(82) @ 2565000: uvm_test_top.env.scb [axi4_scoreboard] Master AXI4_READ received: ID=0xc ADDR=0x4ff625b7 LEN=9
# UVM_INFO ../src/slv/axi4_slave_monitor.sv(287) @ 2565000: uvm_test_top.env.slave_agent.mon [axi4_slave_monitor] Read data sent: ID=0xc ADDR=0x4ff625b7 10 beats
# UVM_INFO ../src/env/axi4_scoreboard.sv(103) @ 2565000: uvm_test_top.env.scb [axi4_scoreboard] Slave AXI4_READ received: ID=0xc ADDR=0x4ff625b7 LEN=9
# UVM_INFO ../src/env/axi4_scoreboard.sv(154) @ 2565000: uvm_test_top.env.scb [axi4_scoreboard] [READ] MATCH #10: ID=0xc ADDR=0x4ff625b7 LEN=9
# UVM_INFO ../src/seq/axi4_write_read_back_seq.sv(80) @ 2565000: uvm_test_top.env.master_agent.sqr@@wr_rd_seq_4 [axi4_write_read_back_seq] Read-back phase: ADDR=0x4ff625b7 LEN=9 - data integrity check via scoreboard
# UVM_INFO ../src/test/axi4_wr_rd_test.sv(52) @ 2565000: uvm_test_top [axi4_wr_rd_test] [6/10] ADDR=0x2c1f84d2 LEN=9 BURST=AXI4_BURST_INCR
# UVM_INFO ../src/mst/axi4_master_driver.sv(55) @ 2565000: uvm_test_top.env.master_agent.drv [axi4_master_driver] Driving AXI4_WRITE  ID=0xa  ADDR=0x2c1f84d2  LEN=9
# UVM_INFO ../src/mst/axi4_master_driver.sv(101) @ 2565000: uvm_test_top.env.master_agent.drv [axi4_master_driver] Write order: AW -> W (sequential)
# UVM_INFO ../src/slv/axi4_slave_driver.sv(159) @ 2595000: uvm_test_top.env.slave_agent.drv [axi4_slave_driver] AW received: ID=0xa ADDR=0x2c1f84d2 LEN=9
# UVM_INFO ../src/slv/axi4_slave_monitor.sv(116) @ 2595000: uvm_test_top.env.slave_agent.mon [axi4_slave_monitor] AW received: ID=0xa ADDR=0x2c1f84d2 LEN=9
# UVM_INFO ../src/mst/axi4_master_monitor.sv(124) @ 2595000: uvm_test_top.env.master_agent.mon [axi4_master_monitor] AW observed: ID=0xa ADDR=0x2c1f84d2 LEN=9
# UVM_INFO ../src/slv/axi4_slave_monitor.sv(167) @ 2795000: uvm_test_top.env.slave_agent.mon [axi4_slave_monitor] W data assembled: ID=0xa ADDR=0x2c1f84d2 10 beats
# UVM_INFO ../src/mst/axi4_master_monitor.sv(184) @ 2795000: uvm_test_top.env.master_agent.mon [axi4_master_monitor] W data assembled: ID=0xa ADDR=0x2c1f84d2 10 beats
# UVM_INFO ../src/mst/axi4_master_driver.sv(197) @ 2825000: uvm_test_top.env.master_agent.drv [axi4_master_driver] Write response: AXI4_RESP_OKAY
# UVM_INFO ../src/slv/axi4_slave_driver.sv(223) @ 2825000: uvm_test_top.env.slave_agent.drv [axi4_slave_driver] Write complete: ID=0xa  10 beats stored
# UVM_INFO ../src/mst/axi4_master_monitor.sv(210) @ 2825000: uvm_test_top.env.master_agent.mon [axi4_master_monitor] Write complete: ID=0xa ADDR=0x2c1f84d2 RESP=AXI4_RESP_OKAY
# UVM_INFO ../src/env/axi4_scoreboard.sv(82) @ 2825000: uvm_test_top.env.scb [axi4_scoreboard] Master AXI4_WRITE received: ID=0xa ADDR=0x2c1f84d2 LEN=9
# UVM_INFO ../src/slv/axi4_slave_monitor.sv(189) @ 2825000: uvm_test_top.env.slave_agent.mon [axi4_slave_monitor] Write response sent: ID=0xa ADDR=0x2c1f84d2 RESP=AXI4_RESP_OKAY
# UVM_INFO ../src/env/axi4_scoreboard.sv(103) @ 2825000: uvm_test_top.env.scb [axi4_scoreboard] Slave AXI4_WRITE received: ID=0xa ADDR=0x2c1f84d2 LEN=9
# UVM_INFO ../src/env/axi4_scoreboard.sv(154) @ 2825000: uvm_test_top.env.scb [axi4_scoreboard] [WRITE] MATCH #11: ID=0xa ADDR=0x2c1f84d2 LEN=9
# UVM_INFO ../src/seq/axi4_write_read_back_seq.sv(60) @ 2825000: uvm_test_top.env.master_agent.sqr@@wr_rd_seq_5 [axi4_write_read_back_seq] Write phase: ADDR=0x2c1f84d2 LEN=9 SIZE=AXI4_SIZE_4B BURST=AXI4_BURST_INCR
# UVM_INFO ../src/mst/axi4_master_driver.sv(55) @ 2825000: uvm_test_top.env.master_agent.drv [axi4_master_driver] Driving AXI4_READ  ID=0xa  ADDR=0x2c1f84d2  LEN=9
# UVM_INFO ../src/slv/axi4_slave_driver.sv(259) @ 2855000: uvm_test_top.env.slave_agent.drv [axi4_slave_driver] AR received: ID=0xa ADDR=0x2c1f84d2 LEN=9
# UVM_INFO ../src/slv/axi4_slave_monitor.sv(224) @ 2855000: uvm_test_top.env.slave_agent.mon [axi4_slave_monitor] AR received: ID=0xa ADDR=0x2c1f84d2 LEN=9
# UVM_INFO ../src/mst/axi4_master_monitor.sv(246) @ 2855000: uvm_test_top.env.master_agent.mon [axi4_master_monitor] AR observed: ID=0xa ADDR=0x2c1f84d2 LEN=9
# UVM_INFO ../src/mst/axi4_master_driver.sv(254) @ 3055000: uvm_test_top.env.master_agent.drv [axi4_master_driver] Read complete: 10 beats received
# UVM_INFO ../src/slv/axi4_slave_driver.sv(293) @ 3055000: uvm_test_top.env.slave_agent.drv [axi4_slave_driver] Read complete: ID=0xa  10 beats sent
# UVM_INFO ../src/slv/axi4_slave_monitor.sv(287) @ 3055000: uvm_test_top.env.slave_agent.mon [axi4_slave_monitor] Read data sent: ID=0xa ADDR=0x2c1f84d2 10 beats
# UVM_INFO ../src/env/axi4_scoreboard.sv(103) @ 3055000: uvm_test_top.env.scb [axi4_scoreboard] Slave AXI4_READ received: ID=0xa ADDR=0x2c1f84d2 LEN=9
# UVM_INFO ../src/mst/axi4_master_monitor.sv(314) @ 3055000: uvm_test_top.env.master_agent.mon [axi4_master_monitor] Read complete: ID=0xa ADDR=0x2c1f84d2 10 beats
# UVM_INFO ../src/env/axi4_scoreboard.sv(82) @ 3055000: uvm_test_top.env.scb [axi4_scoreboard] Master AXI4_READ received: ID=0xa ADDR=0x2c1f84d2 LEN=9
# UVM_INFO ../src/env/axi4_scoreboard.sv(154) @ 3055000: uvm_test_top.env.scb [axi4_scoreboard] [READ] MATCH #12: ID=0xa ADDR=0x2c1f84d2 LEN=9
# UVM_INFO ../src/seq/axi4_write_read_back_seq.sv(80) @ 3055000: uvm_test_top.env.master_agent.sqr@@wr_rd_seq_5 [axi4_write_read_back_seq] Read-back phase: ADDR=0x2c1f84d2 LEN=9 - data integrity check via scoreboard
# UVM_INFO ../src/test/axi4_wr_rd_test.sv(52) @ 3055000: uvm_test_top [axi4_wr_rd_test] [7/10] ADDR=0x227a2532 LEN=6 BURST=AXI4_BURST_INCR
# UVM_INFO ../src/mst/axi4_master_driver.sv(55) @ 3055000: uvm_test_top.env.master_agent.drv [axi4_master_driver] Driving AXI4_WRITE  ID=0x9  ADDR=0x227a2532  LEN=6
# UVM_INFO ../src/mst/axi4_master_driver.sv(94) @ 3055000: uvm_test_top.env.master_agent.drv [axi4_master_driver] Write order: AW || W (parallel)
# UVM_INFO ../src/slv/axi4_slave_driver.sv(159) @ 3085000: uvm_test_top.env.slave_agent.drv [axi4_slave_driver] AW received: ID=0x9 ADDR=0x227a2532 LEN=6
# UVM_INFO ../src/mst/axi4_master_monitor.sv(124) @ 3085000: uvm_test_top.env.master_agent.mon [axi4_master_monitor] AW observed: ID=0x9 ADDR=0x227a2532 LEN=6
# UVM_INFO ../src/slv/axi4_slave_monitor.sv(116) @ 3085000: uvm_test_top.env.slave_agent.mon [axi4_slave_monitor] AW received: ID=0x9 ADDR=0x227a2532 LEN=6
# UVM_INFO ../src/slv/axi4_slave_monitor.sv(167) @ 3195000: uvm_test_top.env.slave_agent.mon [axi4_slave_monitor] W data assembled: ID=0x9 ADDR=0x227a2532 7 beats
# UVM_INFO ../src/mst/axi4_master_monitor.sv(184) @ 3195000: uvm_test_top.env.master_agent.mon [axi4_master_monitor] W data assembled: ID=0x9 ADDR=0x227a2532 7 beats
# UVM_INFO ../src/mst/axi4_master_driver.sv(197) @ 3225000: uvm_test_top.env.master_agent.drv [axi4_master_driver] Write response: AXI4_RESP_OKAY
# UVM_INFO ../src/slv/axi4_slave_driver.sv(223) @ 3225000: uvm_test_top.env.slave_agent.drv [axi4_slave_driver] Write complete: ID=0x9  7 beats stored
# UVM_INFO ../src/mst/axi4_master_monitor.sv(210) @ 3225000: uvm_test_top.env.master_agent.mon [axi4_master_monitor] Write complete: ID=0x9 ADDR=0x227a2532 RESP=AXI4_RESP_OKAY
# UVM_INFO ../src/env/axi4_scoreboard.sv(82) @ 3225000: uvm_test_top.env.scb [axi4_scoreboard] Master AXI4_WRITE received: ID=0x9 ADDR=0x227a2532 LEN=6
# UVM_INFO ../src/slv/axi4_slave_monitor.sv(189) @ 3225000: uvm_test_top.env.slave_agent.mon [axi4_slave_monitor] Write response sent: ID=0x9 ADDR=0x227a2532 RESP=AXI4_RESP_OKAY
# UVM_INFO ../src/env/axi4_scoreboard.sv(103) @ 3225000: uvm_test_top.env.scb [axi4_scoreboard] Slave AXI4_WRITE received: ID=0x9 ADDR=0x227a2532 LEN=6
# UVM_INFO ../src/env/axi4_scoreboard.sv(154) @ 3225000: uvm_test_top.env.scb [axi4_scoreboard] [WRITE] MATCH #13: ID=0x9 ADDR=0x227a2532 LEN=6
# UVM_INFO ../src/seq/axi4_write_read_back_seq.sv(60) @ 3225000: uvm_test_top.env.master_agent.sqr@@wr_rd_seq_6 [axi4_write_read_back_seq] Write phase: ADDR=0x227a2532 LEN=6 SIZE=AXI4_SIZE_4B BURST=AXI4_BURST_INCR
# UVM_INFO ../src/mst/axi4_master_driver.sv(55) @ 3225000: uvm_test_top.env.master_agent.drv [axi4_master_driver] Driving AXI4_READ  ID=0xc  ADDR=0x227a2532  LEN=6
# UVM_INFO ../src/slv/axi4_slave_driver.sv(259) @ 3255000: uvm_test_top.env.slave_agent.drv [axi4_slave_driver] AR received: ID=0xc ADDR=0x227a2532 LEN=6
# UVM_INFO ../src/slv/axi4_slave_monitor.sv(224) @ 3255000: uvm_test_top.env.slave_agent.mon [axi4_slave_monitor] AR received: ID=0xc ADDR=0x227a2532 LEN=6
# UVM_INFO ../src/mst/axi4_master_monitor.sv(246) @ 3255000: uvm_test_top.env.master_agent.mon [axi4_master_monitor] AR observed: ID=0xc ADDR=0x227a2532 LEN=6
# UVM_INFO ../src/mst/axi4_master_driver.sv(254) @ 3395000: uvm_test_top.env.master_agent.drv [axi4_master_driver] Read complete: 7 beats received
# UVM_INFO ../src/slv/axi4_slave_driver.sv(293) @ 3395000: uvm_test_top.env.slave_agent.drv [axi4_slave_driver] Read complete: ID=0xc  7 beats sent
# UVM_INFO ../src/slv/axi4_slave_monitor.sv(287) @ 3395000: uvm_test_top.env.slave_agent.mon [axi4_slave_monitor] Read data sent: ID=0xc ADDR=0x227a2532 7 beats
# UVM_INFO ../src/env/axi4_scoreboard.sv(103) @ 3395000: uvm_test_top.env.scb [axi4_scoreboard] Slave AXI4_READ received: ID=0xc ADDR=0x227a2532 LEN=6
# UVM_INFO ../src/mst/axi4_master_monitor.sv(314) @ 3395000: uvm_test_top.env.master_agent.mon [axi4_master_monitor] Read complete: ID=0xc ADDR=0x227a2532 7 beats
# UVM_INFO ../src/env/axi4_scoreboard.sv(82) @ 3395000: uvm_test_top.env.scb [axi4_scoreboard] Master AXI4_READ received: ID=0xc ADDR=0x227a2532 LEN=6
# UVM_INFO ../src/env/axi4_scoreboard.sv(154) @ 3395000: uvm_test_top.env.scb [axi4_scoreboard] [READ] MATCH #14: ID=0xc ADDR=0x227a2532 LEN=6
# UVM_INFO ../src/seq/axi4_write_read_back_seq.sv(80) @ 3395000: uvm_test_top.env.master_agent.sqr@@wr_rd_seq_6 [axi4_write_read_back_seq] Read-back phase: ADDR=0x227a2532 LEN=6 - data integrity check via scoreboard
# UVM_INFO ../src/test/axi4_wr_rd_test.sv(52) @ 3395000: uvm_test_top [axi4_wr_rd_test] [8/10] ADDR=0xc56013b0 LEN=9 BURST=AXI4_BURST_INCR
# UVM_INFO ../src/mst/axi4_master_driver.sv(55) @ 3395000: uvm_test_top.env.master_agent.drv [axi4_master_driver] Driving AXI4_WRITE  ID=0x6  ADDR=0xc56013b0  LEN=9
# UVM_INFO ../src/mst/axi4_master_driver.sv(106) @ 3395000: uvm_test_top.env.master_agent.drv [axi4_master_driver] Write order: W -> AW (W first)
# UVM_INFO ../src/slv/axi4_slave_driver.sv(159) @ 3445000: uvm_test_top.env.slave_agent.drv [axi4_slave_driver] AW received: ID=0x6 ADDR=0xc56013b0 LEN=9
# UVM_INFO ../src/mst/axi4_master_monitor.sv(124) @ 3445000: uvm_test_top.env.master_agent.mon [axi4_master_monitor] AW observed: ID=0x6 ADDR=0xc56013b0 LEN=9
# UVM_INFO ../src/slv/axi4_slave_monitor.sv(116) @ 3445000: uvm_test_top.env.slave_agent.mon [axi4_slave_monitor] AW received: ID=0x6 ADDR=0xc56013b0 LEN=9
# UVM_INFO ../src/slv/axi4_slave_monitor.sv(167) @ 3595000: uvm_test_top.env.slave_agent.mon [axi4_slave_monitor] W data assembled: ID=0x6 ADDR=0xc56013b0 10 beats
# UVM_INFO ../src/mst/axi4_master_monitor.sv(184) @ 3595000: uvm_test_top.env.master_agent.mon [axi4_master_monitor] W data assembled: ID=0x6 ADDR=0xc56013b0 10 beats
# UVM_INFO ../src/mst/axi4_master_driver.sv(197) @ 3625000: uvm_test_top.env.master_agent.drv [axi4_master_driver] Write response: AXI4_RESP_OKAY
# UVM_INFO ../src/slv/axi4_slave_driver.sv(223) @ 3625000: uvm_test_top.env.slave_agent.drv [axi4_slave_driver] Write complete: ID=0x6  10 beats stored
# UVM_INFO ../src/mst/axi4_master_monitor.sv(210) @ 3625000: uvm_test_top.env.master_agent.mon [axi4_master_monitor] Write complete: ID=0x6 ADDR=0xc56013b0 RESP=AXI4_RESP_OKAY
# UVM_INFO ../src/env/axi4_scoreboard.sv(82) @ 3625000: uvm_test_top.env.scb [axi4_scoreboard] Master AXI4_WRITE received: ID=0x6 ADDR=0xc56013b0 LEN=9
# UVM_INFO ../src/slv/axi4_slave_monitor.sv(189) @ 3625000: uvm_test_top.env.slave_agent.mon [axi4_slave_monitor] Write response sent: ID=0x6 ADDR=0xc56013b0 RESP=AXI4_RESP_OKAY
# UVM_INFO ../src/env/axi4_scoreboard.sv(103) @ 3625000: uvm_test_top.env.scb [axi4_scoreboard] Slave AXI4_WRITE received: ID=0x6 ADDR=0xc56013b0 LEN=9
# UVM_INFO ../src/env/axi4_scoreboard.sv(154) @ 3625000: uvm_test_top.env.scb [axi4_scoreboard] [WRITE] MATCH #15: ID=0x6 ADDR=0xc56013b0 LEN=9
# UVM_INFO ../src/seq/axi4_write_read_back_seq.sv(60) @ 3625000: uvm_test_top.env.master_agent.sqr@@wr_rd_seq_7 [axi4_write_read_back_seq] Write phase: ADDR=0xc56013b0 LEN=9 SIZE=AXI4_SIZE_4B BURST=AXI4_BURST_INCR
# UVM_INFO ../src/mst/axi4_master_driver.sv(55) @ 3625000: uvm_test_top.env.master_agent.drv [axi4_master_driver] Driving AXI4_READ  ID=0x9  ADDR=0xc56013b0  LEN=9
# UVM_INFO ../src/slv/axi4_slave_driver.sv(259) @ 3655000: uvm_test_top.env.slave_agent.drv [axi4_slave_driver] AR received: ID=0x9 ADDR=0xc56013b0 LEN=9
# UVM_INFO ../src/slv/axi4_slave_monitor.sv(224) @ 3655000: uvm_test_top.env.slave_agent.mon [axi4_slave_monitor] AR received: ID=0x9 ADDR=0xc56013b0 LEN=9
# UVM_INFO ../src/mst/axi4_master_monitor.sv(246) @ 3655000: uvm_test_top.env.master_agent.mon [axi4_master_monitor] AR observed: ID=0x9 ADDR=0xc56013b0 LEN=9
# UVM_INFO ../src/mst/axi4_master_driver.sv(254) @ 3855000: uvm_test_top.env.master_agent.drv [axi4_master_driver] Read complete: 10 beats received
# UVM_INFO ../src/slv/axi4_slave_driver.sv(293) @ 3855000: uvm_test_top.env.slave_agent.drv [axi4_slave_driver] Read complete: ID=0x9  10 beats sent
# UVM_INFO ../src/slv/axi4_slave_monitor.sv(287) @ 3855000: uvm_test_top.env.slave_agent.mon [axi4_slave_monitor] Read data sent: ID=0x9 ADDR=0xc56013b0 10 beats
# UVM_INFO ../src/env/axi4_scoreboard.sv(103) @ 3855000: uvm_test_top.env.scb [axi4_scoreboard] Slave AXI4_READ received: ID=0x9 ADDR=0xc56013b0 LEN=9
# UVM_INFO ../src/mst/axi4_master_monitor.sv(314) @ 3855000: uvm_test_top.env.master_agent.mon [axi4_master_monitor] Read complete: ID=0x9 ADDR=0xc56013b0 10 beats
# UVM_INFO ../src/env/axi4_scoreboard.sv(82) @ 3855000: uvm_test_top.env.scb [axi4_scoreboard] Master AXI4_READ received: ID=0x9 ADDR=0xc56013b0 LEN=9
# UVM_INFO ../src/env/axi4_scoreboard.sv(154) @ 3855000: uvm_test_top.env.scb [axi4_scoreboard] [READ] MATCH #16: ID=0x9 ADDR=0xc56013b0 LEN=9
# UVM_INFO ../src/seq/axi4_write_read_back_seq.sv(80) @ 3855000: uvm_test_top.env.master_agent.sqr@@wr_rd_seq_7 [axi4_write_read_back_seq] Read-back phase: ADDR=0xc56013b0 LEN=9 - data integrity check via scoreboard
# UVM_INFO ../src/test/axi4_wr_rd_test.sv(52) @ 3855000: uvm_test_top [axi4_wr_rd_test] [9/10] ADDR=0x7503d5b8 LEN=8 BURST=AXI4_BURST_INCR
# UVM_INFO ../src/mst/axi4_master_driver.sv(55) @ 3855000: uvm_test_top.env.master_agent.drv [axi4_master_driver] Driving AXI4_WRITE  ID=0xe  ADDR=0x7503d5b8  LEN=8
# UVM_INFO ../src/mst/axi4_master_driver.sv(101) @ 3855000: uvm_test_top.env.master_agent.drv [axi4_master_driver] Write order: AW -> W (sequential)
# UVM_INFO ../src/slv/axi4_slave_driver.sv(159) @ 3885000: uvm_test_top.env.slave_agent.drv [axi4_slave_driver] AW received: ID=0xe ADDR=0x7503d5b8 LEN=8
# UVM_INFO ../src/mst/axi4_master_monitor.sv(124) @ 3885000: uvm_test_top.env.master_agent.mon [axi4_master_monitor] AW observed: ID=0xe ADDR=0x7503d5b8 LEN=8
# UVM_INFO ../src/slv/axi4_slave_monitor.sv(116) @ 3885000: uvm_test_top.env.slave_agent.mon [axi4_slave_monitor] AW received: ID=0xe ADDR=0x7503d5b8 LEN=8
# UVM_INFO ../src/mst/axi4_master_monitor.sv(184) @ 4065000: uvm_test_top.env.master_agent.mon [axi4_master_monitor] W data assembled: ID=0xe ADDR=0x7503d5b8 9 beats
# UVM_INFO ../src/slv/axi4_slave_monitor.sv(167) @ 4065000: uvm_test_top.env.slave_agent.mon [axi4_slave_monitor] W data assembled: ID=0xe ADDR=0x7503d5b8 9 beats
# UVM_INFO ../src/mst/axi4_master_driver.sv(197) @ 4095000: uvm_test_top.env.master_agent.drv [axi4_master_driver] Write response: AXI4_RESP_OKAY
# UVM_INFO ../src/slv/axi4_slave_driver.sv(223) @ 4095000: uvm_test_top.env.slave_agent.drv [axi4_slave_driver] Write complete: ID=0xe  9 beats stored
# UVM_INFO ../src/slv/axi4_slave_monitor.sv(189) @ 4095000: uvm_test_top.env.slave_agent.mon [axi4_slave_monitor] Write response sent: ID=0xe ADDR=0x7503d5b8 RESP=AXI4_RESP_OKAY
# UVM_INFO ../src/env/axi4_scoreboard.sv(103) @ 4095000: uvm_test_top.env.scb [axi4_scoreboard] Slave AXI4_WRITE received: ID=0xe ADDR=0x7503d5b8 LEN=8
# UVM_INFO ../src/mst/axi4_master_monitor.sv(210) @ 4095000: uvm_test_top.env.master_agent.mon [axi4_master_monitor] Write complete: ID=0xe ADDR=0x7503d5b8 RESP=AXI4_RESP_OKAY
# UVM_INFO ../src/env/axi4_scoreboard.sv(82) @ 4095000: uvm_test_top.env.scb [axi4_scoreboard] Master AXI4_WRITE received: ID=0xe ADDR=0x7503d5b8 LEN=8
# UVM_INFO ../src/env/axi4_scoreboard.sv(154) @ 4095000: uvm_test_top.env.scb [axi4_scoreboard] [WRITE] MATCH #17: ID=0xe ADDR=0x7503d5b8 LEN=8
# UVM_INFO ../src/seq/axi4_write_read_back_seq.sv(60) @ 4095000: uvm_test_top.env.master_agent.sqr@@wr_rd_seq_8 [axi4_write_read_back_seq] Write phase: ADDR=0x7503d5b8 LEN=8 SIZE=AXI4_SIZE_4B BURST=AXI4_BURST_INCR
# UVM_INFO ../src/mst/axi4_master_driver.sv(55) @ 4095000: uvm_test_top.env.master_agent.drv [axi4_master_driver] Driving AXI4_READ  ID=0xf  ADDR=0x7503d5b8  LEN=8
# UVM_INFO ../src/slv/axi4_slave_driver.sv(259) @ 4125000: uvm_test_top.env.slave_agent.drv [axi4_slave_driver] AR received: ID=0xf ADDR=0x7503d5b8 LEN=8
# UVM_INFO ../src/mst/axi4_master_monitor.sv(246) @ 4125000: uvm_test_top.env.master_agent.mon [axi4_master_monitor] AR observed: ID=0xf ADDR=0x7503d5b8 LEN=8
# UVM_INFO ../src/slv/axi4_slave_monitor.sv(224) @ 4125000: uvm_test_top.env.slave_agent.mon [axi4_slave_monitor] AR received: ID=0xf ADDR=0x7503d5b8 LEN=8
# UVM_INFO ../src/mst/axi4_master_driver.sv(254) @ 4305000: uvm_test_top.env.master_agent.drv [axi4_master_driver] Read complete: 9 beats received
# UVM_INFO ../src/slv/axi4_slave_driver.sv(293) @ 4305000: uvm_test_top.env.slave_agent.drv [axi4_slave_driver] Read complete: ID=0xf  9 beats sent
# UVM_INFO ../src/mst/axi4_master_monitor.sv(314) @ 4305000: uvm_test_top.env.master_agent.mon [axi4_master_monitor] Read complete: ID=0xf ADDR=0x7503d5b8 9 beats
# UVM_INFO ../src/env/axi4_scoreboard.sv(82) @ 4305000: uvm_test_top.env.scb [axi4_scoreboard] Master AXI4_READ received: ID=0xf ADDR=0x7503d5b8 LEN=8
# UVM_INFO ../src/slv/axi4_slave_monitor.sv(287) @ 4305000: uvm_test_top.env.slave_agent.mon [axi4_slave_monitor] Read data sent: ID=0xf ADDR=0x7503d5b8 9 beats
# UVM_INFO ../src/env/axi4_scoreboard.sv(103) @ 4305000: uvm_test_top.env.scb [axi4_scoreboard] Slave AXI4_READ received: ID=0xf ADDR=0x7503d5b8 LEN=8
# UVM_INFO ../src/env/axi4_scoreboard.sv(154) @ 4305000: uvm_test_top.env.scb [axi4_scoreboard] [READ] MATCH #18: ID=0xf ADDR=0x7503d5b8 LEN=8
# UVM_INFO ../src/seq/axi4_write_read_back_seq.sv(80) @ 4305000: uvm_test_top.env.master_agent.sqr@@wr_rd_seq_8 [axi4_write_read_back_seq] Read-back phase: ADDR=0x7503d5b8 LEN=8 - data integrity check via scoreboard
# UVM_INFO ../src/test/axi4_wr_rd_test.sv(52) @ 4305000: uvm_test_top [axi4_wr_rd_test] [10/10] ADDR=0x54df4128 LEN=0 BURST=AXI4_BURST_INCR
# UVM_INFO ../src/mst/axi4_master_driver.sv(55) @ 4305000: uvm_test_top.env.master_agent.drv [axi4_master_driver] Driving AXI4_WRITE  ID=0xd  ADDR=0x54df4128  LEN=0
# UVM_INFO ../src/mst/axi4_master_driver.sv(94) @ 4305000: uvm_test_top.env.master_agent.drv [axi4_master_driver] Write order: AW || W (parallel)
# UVM_INFO ../src/slv/axi4_slave_driver.sv(159) @ 4335000: uvm_test_top.env.slave_agent.drv [axi4_slave_driver] AW received: ID=0xd ADDR=0x54df4128 LEN=0
# UVM_INFO ../src/slv/axi4_slave_monitor.sv(116) @ 4335000: uvm_test_top.env.slave_agent.mon [axi4_slave_monitor] AW received: ID=0xd ADDR=0x54df4128 LEN=0
# UVM_INFO ../src/mst/axi4_master_monitor.sv(124) @ 4335000: uvm_test_top.env.master_agent.mon [axi4_master_monitor] AW observed: ID=0xd ADDR=0x54df4128 LEN=0
# UVM_INFO ../src/slv/axi4_slave_monitor.sv(167) @ 4335000: uvm_test_top.env.slave_agent.mon [axi4_slave_monitor] W data assembled: ID=0xd ADDR=0x54df4128 1 beats
# UVM_INFO ../src/mst/axi4_master_monitor.sv(184) @ 4335000: uvm_test_top.env.master_agent.mon [axi4_master_monitor] W data assembled: ID=0xd ADDR=0x54df4128 1 beats
# UVM_INFO ../src/mst/axi4_master_driver.sv(197) @ 4355000: uvm_test_top.env.master_agent.drv [axi4_master_driver] Write response: AXI4_RESP_OKAY
# UVM_INFO ../src/slv/axi4_slave_driver.sv(223) @ 4355000: uvm_test_top.env.slave_agent.drv [axi4_slave_driver] Write complete: ID=0xd  1 beats stored
# UVM_INFO ../src/slv/axi4_slave_monitor.sv(189) @ 4355000: uvm_test_top.env.slave_agent.mon [axi4_slave_monitor] Write response sent: ID=0xd ADDR=0x54df4128 RESP=AXI4_RESP_OKAY
# UVM_INFO ../src/env/axi4_scoreboard.sv(103) @ 4355000: uvm_test_top.env.scb [axi4_scoreboard] Slave AXI4_WRITE received: ID=0xd ADDR=0x54df4128 LEN=0
# UVM_INFO ../src/mst/axi4_master_monitor.sv(210) @ 4355000: uvm_test_top.env.master_agent.mon [axi4_master_monitor] Write complete: ID=0xd ADDR=0x54df4128 RESP=AXI4_RESP_OKAY
# UVM_INFO ../src/env/axi4_scoreboard.sv(82) @ 4355000: uvm_test_top.env.scb [axi4_scoreboard] Master AXI4_WRITE received: ID=0xd ADDR=0x54df4128 LEN=0
# UVM_INFO ../src/env/axi4_scoreboard.sv(154) @ 4355000: uvm_test_top.env.scb [axi4_scoreboard] [WRITE] MATCH #19: ID=0xd ADDR=0x54df4128 LEN=0
# UVM_INFO ../src/seq/axi4_write_read_back_seq.sv(60) @ 4355000: uvm_test_top.env.master_agent.sqr@@wr_rd_seq_9 [axi4_write_read_back_seq] Write phase: ADDR=0x54df4128 LEN=0 SIZE=AXI4_SIZE_4B BURST=AXI4_BURST_INCR
# UVM_INFO ../src/mst/axi4_master_driver.sv(55) @ 4355000: uvm_test_top.env.master_agent.drv [axi4_master_driver] Driving AXI4_READ  ID=0xb  ADDR=0x54df4128  LEN=0
# UVM_INFO ../src/slv/axi4_slave_driver.sv(259) @ 4385000: uvm_test_top.env.slave_agent.drv [axi4_slave_driver] AR received: ID=0xb ADDR=0x54df4128 LEN=0
# UVM_INFO ../src/mst/axi4_master_monitor.sv(246) @ 4385000: uvm_test_top.env.master_agent.mon [axi4_master_monitor] AR observed: ID=0xb ADDR=0x54df4128 LEN=0
# UVM_INFO ../src/slv/axi4_slave_monitor.sv(224) @ 4385000: uvm_test_top.env.slave_agent.mon [axi4_slave_monitor] AR received: ID=0xb ADDR=0x54df4128 LEN=0
# UVM_INFO ../src/mst/axi4_master_driver.sv(254) @ 4405000: uvm_test_top.env.master_agent.drv [axi4_master_driver] Read complete: 1 beats received
# UVM_INFO ../src/slv/axi4_slave_driver.sv(293) @ 4405000: uvm_test_top.env.slave_agent.drv [axi4_slave_driver] Read complete: ID=0xb  1 beats sent
# UVM_INFO ../src/mst/axi4_master_monitor.sv(314) @ 4405000: uvm_test_top.env.master_agent.mon [axi4_master_monitor] Read complete: ID=0xb ADDR=0x54df4128 1 beats
# UVM_INFO ../src/env/axi4_scoreboard.sv(82) @ 4405000: uvm_test_top.env.scb [axi4_scoreboard] Master AXI4_READ received: ID=0xb ADDR=0x54df4128 LEN=0
# UVM_INFO ../src/slv/axi4_slave_monitor.sv(287) @ 4405000: uvm_test_top.env.slave_agent.mon [axi4_slave_monitor] Read data sent: ID=0xb ADDR=0x54df4128 1 beats
# UVM_INFO ../src/env/axi4_scoreboard.sv(103) @ 4405000: uvm_test_top.env.scb [axi4_scoreboard] Slave AXI4_READ received: ID=0xb ADDR=0x54df4128 LEN=0
# UVM_INFO ../src/env/axi4_scoreboard.sv(154) @ 4405000: uvm_test_top.env.scb [axi4_scoreboard] [READ] MATCH #20: ID=0xb ADDR=0x54df4128 LEN=0
# UVM_INFO ../src/seq/axi4_write_read_back_seq.sv(80) @ 4405000: uvm_test_top.env.master_agent.sqr@@wr_rd_seq_9 [axi4_write_read_back_seq] Read-back phase: ADDR=0x54df4128 LEN=0 - data integrity check via scoreboard
# UVM_INFO ../src/test/axi4_wr_rd_test.sv(62) @ 4905000: uvm_test_top [axi4_wr_rd_test] 10 write-read-back iterations complete
# UVM_INFO verilog_src/uvm-1.1d/src/base/uvm_objection.svh(1268) @ 4905000: reporter [TEST_DONE] 'run' phase is ready to proceed to the 'extract' phase
# UVM_INFO ../src/env/axi4_scoreboard.sv(218) @ 4905000: uvm_test_top.env.scb [axi4_scoreboard] 
# ========================================
#          SCOREBOARD SUMMARY
# ========================================
#   Master transactions : 20
#   Slave transactions  : 20
#   Matches             : 20
#   Mismatches          : 0
#   Unmatched master WR : 0
#   Unmatched master RD : 0
#   Unmatched slave  WR : 0
#   Unmatched slave  RD : 0
# ========================================
#   RESULT : PASS
# ========================================
# UVM_INFO ../src/test/axi4_base_test.sv(91) @ 4905000: uvm_test_top [axi4_wr_rd_test] 
# === TEST PASSED ===
# 
# 
# --- UVM Report Summary ---
# 
# ** Report counts by severity
# UVM_INFO :  304
# UVM_WARNING :    0
# UVM_ERROR :    0
# UVM_FATAL :    0
# ** Report counts by id
# [Questa UVM]     3
# [RNTST]     1
# [TB_TOP]     2
# [TEST_DONE]     1
# [TOP_TB]     1
# [UVMTOP]     1
# [axi4_master_agent]     1
# [axi4_master_driver]    51
# [axi4_master_monitor]    51
# [axi4_scoreboard]    61
# [axi4_slave_agent]     1
# [axi4_slave_driver]    41
# [axi4_slave_monitor]    51
# [axi4_vip_env]     5
# [axi4_wr_rd_test]    13
# [axi4_write_read_back_seq]    20
# ** Note: $finish    : /cadtools/mentor/Questa_10.6b/questasim/linux_x86_64/../verilog_src/uvm-1.1d/src/base/uvm_root.svh(430)
#    Time: 4905 ns  Iteration: 55  Instance: /tb_top
# Saving coverage database on exit...
# End time: 20:09:42 on Jun 04,2026, Elapsed time: 0:00:43
# Errors: 0, Warnings: 0
