# vsim -c -coverage -sv_seed 59300504 "+UVM_TESTNAME=axi4_data_integrity_test" "+UVM_VERBOSITY=UVM_HIGH" "+DUMP_VCD" -l ./report/logs/axi4_data_integrity_test_run_3_seed_59300504.log -do "coverage save -onexit ./report/coverage/axi4_data_integrity_test_run_3_seed_59300504.ucdb; run -all; quit -f" opt_tb_top 
# Start time: 10:54:23 on Jul 09,2026
# //  Questa Sim-64
# //  Version 10.6b linux_x86_64 May 25 2017
# //
# //  Copyright 1991-2017 Mentor Graphics Corporation
# //  All Rights Reserved.
# //
# //  QuestaSim and its associated documentation contain trade
# //  secrets and commercial or financial information that are the property of
# //  Mentor Graphics Corporation and are privileged, confidential,
# //  and exempt from disclosure under the Freedom of Information Act,
# //  5 U.S.C. Section 552. Furthermore, this information
# //  is prohibited from disclosure under the Trade Secrets Act,
# //  18 U.S.C. Section 1905.
# //
# Loading sv_std.std
# Loading work.axi4_if(fast)
# Loading mtiUvm.uvm_pkg
# Loading work.axi4_pkg(fast)
# Loading work.axi4_test_pkg(fast)
# Loading work.tb_top(fast)
# Loading work.axi4_if(fast)
# Loading work.axi4_sva(fast)
# Loading mtiUvm.questa_uvm_pkg(fast)
# Loading /cadtools/mentor/Questa_10.6b/questasim/uvm-1.1d/linux_x86_64/uvm_dpi.so
# coverage save -onexit ./report/coverage/axi4_data_integrity_test_run_3_seed_59300504.ucdb
#  run -all
# ----------------------------------------------------------------
# UVM-1.1d
# (C) 2007-2013 Mentor Graphics Corporation
# (C) 2007-2013 Cadence Design Systems, Inc.
# (C) 2006-2013 Synopsys, Inc.
# (C) 2011-2013 Cypress Semiconductor Corp.
# ----------------------------------------------------------------
# 
#   ***********       IMPORTANT RELEASE NOTES         ************
# 
#   You are using a version of the UVM library that has been compiled
#   with `UVM_NO_DEPRECATED undefined.
#   See http://www.eda.org/svdb/view.php?id=3313 for more details.
# 
#   You are using a version of the UVM library that has been compiled
#   with `UVM_OBJECT_MUST_HAVE_CONSTRUCTOR undefined.
#   See http://www.eda.org/svdb/view.php?id=3770 for more details.
# 
#       (Specify +UVM_NO_RELNOTES to turn off this notice)
# 
# UVM_INFO verilog_src/questa_uvm_pkg-1.2/src/questa_uvm_pkg.sv(215) @ 0: reporter [Questa UVM] QUESTA_UVM-1.2.3
# UVM_INFO verilog_src/questa_uvm_pkg-1.2/src/questa_uvm_pkg.sv(217) @ 0: reporter [Questa UVM]  questa_uvm::init(+struct)
# UVM_INFO ../src/tb_top.sv(147) @ 0: reporter [TB_TOP] Virtual interface set in config_db
# UVM_INFO @ 0: reporter [RNTST] Running test axi4_data_integrity_test...
# UVM_INFO ../src/tb_top.sv(161) @ 0: reporter [TB_TOP] Waveform VCD dumping enabled (axi4_vip.vcd)
# UVM_INFO ../src/env/axi4_vip_env.sv(83) @ 0: uvm_test_top.env [axi4_vip_env] slave_vif not set - reusing master_vif (passthrough mode)
# UVM_INFO ../src/env/axi4_vip_env.sv(93) @ 0: uvm_test_top.env [axi4_vip_env] Scoreboard created
# UVM_INFO ../src/env/axi4_vip_env.sv(100) @ 0: uvm_test_top.env [axi4_vip_env] Coverage collectors created
# UVM_INFO ../src/mst/axi4_master_agent.sv(69) @ 0: uvm_test_top.env.master_agent [axi4_master_agent] ACTIVE mode - driver + sequencer created
# UVM_INFO ../src/slv/axi4_slave_agent.sv(82) @ 0: uvm_test_top.env.slave_agent [axi4_slave_agent] ACTIVE mode - ready_delay=[1:2] resp_delay=[1:2]
# UVM_INFO ../src/env/axi4_vip_env.sv(116) @ 0: uvm_test_top.env [axi4_vip_env] Scoreboard connected: master_mon.ap -> scb, slave_mon.ap -> scb
# UVM_INFO ../src/env/axi4_vip_env.sv(124) @ 0: uvm_test_top.env [axi4_vip_env] Coverage connected: master_mon.ap -> master_cov, slave_mon.ap -> slave_cov
# UVM_INFO @ 0: reporter [UVMTOP] UVM testbench topology:
# ----------------------------------------------------------------
# Name                       Type                      Size  Value
# ----------------------------------------------------------------
# uvm_test_top               axi4_data_integrity_test  -     @475 
#   env                      axi4_vip_env              -     @490 
#     master_agent           axi4_master_agent         -     @505 
#       drv                  axi4_master_driver        -     @569 
#         rsp_port           uvm_analysis_port         -     @584 
#         seq_item_port      uvm_seq_item_pull_port    -     @576 
#       mon                  axi4_master_monitor       -     @561 
#         ap                 uvm_analysis_port         -     @702 
#       sqr                  axi4_master_sequencer     -     @592 
#         rsp_export         uvm_analysis_export       -     @599 
#         seq_item_export    uvm_seq_item_pull_imp     -     @693 
#         arbitration_queue  array                     0     -    
#         lock_queue         array                     0     -    
#         num_last_reqs      integral                  32    'd1  
#         num_last_rsps      integral                  32    'd1  
#     master_cov             axi4_coverage             -     @526 
#       analysis_imp         uvm_analysis_imp          -     @533 
#     scb                    axi4_scoreboard           -     @519 
#       master_export        uvm_analysis_imp_master   -     @716 
#       slave_export         uvm_analysis_imp_slave    -     @724 
#     slave_agent            axi4_slave_agent          -     @512 
#       drv                  axi4_slave_driver         -     @755 
#         rsp_port           uvm_analysis_port         -     @770 
#         seq_item_port      uvm_seq_item_pull_port    -     @762 
#       mon                  axi4_slave_monitor        -     @737 
#         ap                 uvm_analysis_port         -     @894 
#       sqr                  axi4_slave_sequencer      -     @778 
#         rsp_export         uvm_analysis_export       -     @785 
#         seq_item_export    uvm_seq_item_pull_imp     -     @879 
#         arbitration_queue  array                     0     -    
#         lock_queue         array                     0     -    
#         num_last_reqs      integral                  32    'd1  
#         num_last_rsps      integral                  32    'd1  
#     slave_cov              axi4_coverage             -     @541 
#       analysis_imp         uvm_analysis_imp          -     @548 
# ----------------------------------------------------------------
# 
# UVM_INFO verilog_src/questa_uvm_pkg-1.2/src/questa_uvm_pkg.sv(277) @ 0: reporter [Questa UVM] End Of Elaboration
# UVM_INFO ../src/test/axi4_data_integrity_test.sv(48) @ 0: uvm_test_top [axi4_data_integrity_test] Starting data integrity test (write known data -> read-back -> compare)
# UVM_INFO ../src/seq/axi4_data_integrity_seq.sv(42) @ 0: uvm_test_top.env.master_agent.sqr@@integrity_seq [axi4_data_integrity_seq] Starting data integrity demo (write known data -> read-back -> compare on waveform)
# UVM_INFO ../src/tb_top.sv(49) @ 95000: reporter [TOP_TB] Reset de-asserted
# UVM_INFO ../src/slv/axi4_slave_driver.sv(131) @ 95000: uvm_test_top.env.slave_agent.drv [axi4_slave_driver] Reset deasserted - slave driver active
# UVM_INFO ../src/mst/axi4_master_driver.sv(64) @ 95000: uvm_test_top.env.master_agent.drv [axi4_master_driver] Reset deasserted - master driver active
# UVM_INFO ../src/mst/axi4_master_monitor.sv(77) @ 95000: uvm_test_top.env.master_agent.mon [axi4_master_monitor] Reset deasserted - monitor active
# UVM_INFO ../src/slv/axi4_slave_monitor.sv(71) @ 95000: uvm_test_top.env.slave_agent.mon [axi4_slave_monitor] Reset deasserted - monitor active
# UVM_INFO ../src/mst/axi4_master_driver.sv(73) @ 95000: uvm_test_top.env.master_agent.drv [axi4_master_driver] Driving AXI4_WRITE  ID=0xc  ADDR=0x0000c000  LEN=3
# UVM_INFO ../src/slv/axi4_slave_driver.sv(228) @ 135000: uvm_test_top.env.slave_agent.drv [axi4_slave_driver] AW received: ID=0xc ADDR=0x0000c000 LEN=3 LOCK=AXI4_LOCK_NORMAL
# UVM_INFO ../src/slv/axi4_slave_monitor.sv(116) @ 135000: uvm_test_top.env.slave_agent.mon [axi4_slave_monitor] AW received: ID=0xc ADDR=0x0000c000 LEN=3
# UVM_INFO ../src/mst/axi4_master_monitor.sv(124) @ 135000: uvm_test_top.env.master_agent.mon [axi4_master_monitor] AW observed: ID=0xc ADDR=0x0000c000 LEN=3
# UVM_INFO ../src/slv/axi4_slave_monitor.sv(167) @ 215000: uvm_test_top.env.slave_agent.mon [axi4_slave_monitor] W data assembled: ID=0xc ADDR=0x0000c000 4 beats
# UVM_INFO ../src/mst/axi4_master_monitor.sv(184) @ 215000: uvm_test_top.env.master_agent.mon [axi4_master_monitor] W data assembled: ID=0xc ADDR=0x0000c000 4 beats
# UVM_INFO ../src/mst/axi4_master_driver.sv(289) @ 265000: uvm_test_top.env.master_agent.drv [axi4_master_driver] Master driver received B response: ID=0xc RESP=AXI4_RESP_OKAY
# UVM_INFO ../src/slv/axi4_slave_driver.sv(348) @ 265000: uvm_test_top.env.slave_agent.drv [axi4_slave_driver] Write complete: ID=0xc RESP=AXI4_RESP_OKAY
# UVM_INFO ../src/mst/axi4_master_monitor.sv(210) @ 265000: uvm_test_top.env.master_agent.mon [axi4_master_monitor] Write complete: ID=0xc ADDR=0x0000c000 RESP=AXI4_RESP_OKAY
# UVM_INFO ../src/env/axi4_scoreboard.sv(87) @ 265000: uvm_test_top.env.scb [axi4_scoreboard] Master AXI4_WRITE received: ID=0xc ADDR=0x0000c000 LEN=3
# UVM_INFO ../src/slv/axi4_slave_monitor.sv(189) @ 265000: uvm_test_top.env.slave_agent.mon [axi4_slave_monitor] Write response sent: ID=0xc ADDR=0x0000c000 RESP=AXI4_RESP_OKAY
# UVM_INFO ../src/env/axi4_scoreboard.sv(108) @ 265000: uvm_test_top.env.scb [axi4_scoreboard] Slave AXI4_WRITE received: ID=0xc ADDR=0x0000c000 LEN=3
# UVM_INFO ../src/env/axi4_scoreboard.sv(291) @ 265000: uvm_test_top.env.scb [axi4_scoreboard] [WRITE] MATCH #1: ID=0xc ADDR=0x0000c000 LEN=3
# UVM_INFO ../src/env/axi4_scoreboard.sv(219) @ 265000: uvm_test_top.env.scb [axi4_scoreboard] [REF_MEM_WRITE] Addr=0x0000c000 Data=0xef
# UVM_INFO ../src/env/axi4_scoreboard.sv(219) @ 265000: uvm_test_top.env.scb [axi4_scoreboard] [REF_MEM_WRITE] Addr=0x0000c001 Data=0xbe
# UVM_INFO ../src/env/axi4_scoreboard.sv(219) @ 265000: uvm_test_top.env.scb [axi4_scoreboard] [REF_MEM_WRITE] Addr=0x0000c002 Data=0xad
# UVM_INFO ../src/env/axi4_scoreboard.sv(219) @ 265000: uvm_test_top.env.scb [axi4_scoreboard] [REF_MEM_WRITE] Addr=0x0000c003 Data=0xde
# UVM_INFO ../src/env/axi4_scoreboard.sv(219) @ 265000: uvm_test_top.env.scb [axi4_scoreboard] [REF_MEM_WRITE] Addr=0x0000c004 Data=0xbe
# UVM_INFO ../src/env/axi4_scoreboard.sv(219) @ 265000: uvm_test_top.env.scb [axi4_scoreboard] [REF_MEM_WRITE] Addr=0x0000c005 Data=0xba
# UVM_INFO ../src/env/axi4_scoreboard.sv(219) @ 265000: uvm_test_top.env.scb [axi4_scoreboard] [REF_MEM_WRITE] Addr=0x0000c006 Data=0xfe
# UVM_INFO ../src/env/axi4_scoreboard.sv(219) @ 265000: uvm_test_top.env.scb [axi4_scoreboard] [REF_MEM_WRITE] Addr=0x0000c007 Data=0xca
# UVM_INFO ../src/env/axi4_scoreboard.sv(219) @ 265000: uvm_test_top.env.scb [axi4_scoreboard] [REF_MEM_WRITE] Addr=0x0000c008 Data=0x78
# UVM_INFO ../src/env/axi4_scoreboard.sv(219) @ 265000: uvm_test_top.env.scb [axi4_scoreboard] [REF_MEM_WRITE] Addr=0x0000c009 Data=0x56
# UVM_INFO ../src/env/axi4_scoreboard.sv(219) @ 265000: uvm_test_top.env.scb [axi4_scoreboard] [REF_MEM_WRITE] Addr=0x0000c00a Data=0x34
# UVM_INFO ../src/env/axi4_scoreboard.sv(219) @ 265000: uvm_test_top.env.scb [axi4_scoreboard] [REF_MEM_WRITE] Addr=0x0000c00b Data=0x12
# UVM_INFO ../src/env/axi4_scoreboard.sv(219) @ 265000: uvm_test_top.env.scb [axi4_scoreboard] [REF_MEM_WRITE] Addr=0x0000c00c Data=0xa5
# UVM_INFO ../src/env/axi4_scoreboard.sv(219) @ 265000: uvm_test_top.env.scb [axi4_scoreboard] [REF_MEM_WRITE] Addr=0x0000c00d Data=0xa5
# UVM_INFO ../src/env/axi4_scoreboard.sv(219) @ 265000: uvm_test_top.env.scb [axi4_scoreboard] [REF_MEM_WRITE] Addr=0x0000c00e Data=0xa5
# UVM_INFO ../src/env/axi4_scoreboard.sv(219) @ 265000: uvm_test_top.env.scb [axi4_scoreboard] [REF_MEM_WRITE] Addr=0x0000c00f Data=0xa5
# UVM_INFO ../src/seq/axi4_data_integrity_seq.sv(79) @ 265000: uvm_test_top.env.master_agent.sqr@@integrity_seq [axi4_data_integrity_seq] WRITE #1 done: ADDR=0x0000c000 DATA={0xdeadbeef, 0xcafebabe, 0x12345678, 0xa5a5a5a5} RESP=AXI4_RESP_OKAY
# UVM_INFO ../src/mst/axi4_master_driver.sv(73) @ 265000: uvm_test_top.env.master_agent.drv [axi4_master_driver] Driving AXI4_READ  ID=0xc  ADDR=0x0000c000  LEN=3
# UVM_INFO ../src/slv/axi4_slave_driver.sv(386) @ 305000: uvm_test_top.env.slave_agent.drv [axi4_slave_driver] AR received: ID=0xc ADDR=0x0000c000 LEN=3 LOCK=AXI4_LOCK_NORMAL
# UVM_INFO ../src/mst/axi4_master_monitor.sv(246) @ 305000: uvm_test_top.env.master_agent.mon [axi4_master_monitor] AR observed: ID=0xc ADDR=0x0000c000 LEN=3
# UVM_INFO ../src/slv/axi4_slave_monitor.sv(224) @ 305000: uvm_test_top.env.slave_agent.mon [axi4_slave_monitor] AR received: ID=0xc ADDR=0x0000c000 LEN=3
# UVM_INFO ../src/mst/axi4_master_driver.sv(348) @ 445000: uvm_test_top.env.master_agent.drv [axi4_master_driver] Master driver received all R beats for ID=0xc
# UVM_INFO ../src/slv/axi4_slave_driver.sv(501) @ 445000: uvm_test_top.env.slave_agent.drv [axi4_slave_driver] Read complete: ID=0xc ADDR=0x0000c000 RESP=AXI4_RESP_OKAY  4 beats sent
# UVM_INFO ../src/mst/axi4_master_monitor.sv(314) @ 445000: uvm_test_top.env.master_agent.mon [axi4_master_monitor] Read complete: ID=0xc ADDR=0x0000c000 4 beats
# UVM_INFO ../src/env/axi4_scoreboard.sv(87) @ 445000: uvm_test_top.env.scb [axi4_scoreboard] Master AXI4_READ received: ID=0xc ADDR=0x0000c000 LEN=3
# UVM_INFO ../src/slv/axi4_slave_monitor.sv(287) @ 445000: uvm_test_top.env.slave_agent.mon [axi4_slave_monitor] Read data sent: ID=0xc ADDR=0x0000c000 4 beats
# UVM_INFO ../src/env/axi4_scoreboard.sv(108) @ 445000: uvm_test_top.env.scb [axi4_scoreboard] Slave AXI4_READ received: ID=0xc ADDR=0x0000c000 LEN=3
# UVM_INFO ../src/env/axi4_scoreboard.sv(291) @ 445000: uvm_test_top.env.scb [axi4_scoreboard] [READ] MATCH #2: ID=0xc ADDR=0x0000c000 LEN=3
# UVM_INFO ../src/seq/axi4_data_integrity_seq.sv(100) @ 445000: uvm_test_top.env.master_agent.sqr@@integrity_seq [axi4_data_integrity_seq] READ  #1 done: ADDR=0x0000c000 DATA={0xdeadbeef, 0xcafebabe, 0x12345678, 0xa5a5a5a5}
# UVM_INFO ../src/seq/axi4_data_integrity_seq.sv(116) @ 445000: uvm_test_top.env.master_agent.sqr@@integrity_seq [axi4_data_integrity_seq] Pair #1 data integrity PASSED -- all 4 beats match
# UVM_INFO ../src/mst/axi4_master_driver.sv(73) @ 445000: uvm_test_top.env.master_agent.drv [axi4_master_driver] Driving AXI4_WRITE  ID=0xd  ADDR=0x0000d000  LEN=0
# UVM_INFO ../src/slv/axi4_slave_driver.sv(228) @ 485000: uvm_test_top.env.slave_agent.drv [axi4_slave_driver] AW received: ID=0xd ADDR=0x0000d000 LEN=0 LOCK=AXI4_LOCK_NORMAL
# UVM_INFO ../src/mst/axi4_master_monitor.sv(124) @ 485000: uvm_test_top.env.master_agent.mon [axi4_master_monitor] AW observed: ID=0xd ADDR=0x0000d000 LEN=0
# UVM_INFO ../src/slv/axi4_slave_monitor.sv(116) @ 485000: uvm_test_top.env.slave_agent.mon [axi4_slave_monitor] AW received: ID=0xd ADDR=0x0000d000 LEN=0
# UVM_INFO ../src/mst/axi4_master_monitor.sv(184) @ 505000: uvm_test_top.env.master_agent.mon [axi4_master_monitor] W data assembled: ID=0xd ADDR=0x0000d000 1 beats
# UVM_INFO ../src/slv/axi4_slave_monitor.sv(167) @ 505000: uvm_test_top.env.slave_agent.mon [axi4_slave_monitor] W data assembled: ID=0xd ADDR=0x0000d000 1 beats
# UVM_INFO ../src/mst/axi4_master_driver.sv(289) @ 555000: uvm_test_top.env.master_agent.drv [axi4_master_driver] Master driver received B response: ID=0xd RESP=AXI4_RESP_OKAY
# UVM_INFO ../src/slv/axi4_slave_driver.sv(348) @ 555000: uvm_test_top.env.slave_agent.drv [axi4_slave_driver] Write complete: ID=0xd RESP=AXI4_RESP_OKAY
# UVM_INFO ../src/slv/axi4_slave_monitor.sv(189) @ 555000: uvm_test_top.env.slave_agent.mon [axi4_slave_monitor] Write response sent: ID=0xd ADDR=0x0000d000 RESP=AXI4_RESP_OKAY
# UVM_INFO ../src/env/axi4_scoreboard.sv(108) @ 555000: uvm_test_top.env.scb [axi4_scoreboard] Slave AXI4_WRITE received: ID=0xd ADDR=0x0000d000 LEN=0
# UVM_INFO ../src/mst/axi4_master_monitor.sv(210) @ 555000: uvm_test_top.env.master_agent.mon [axi4_master_monitor] Write complete: ID=0xd ADDR=0x0000d000 RESP=AXI4_RESP_OKAY
# UVM_INFO ../src/env/axi4_scoreboard.sv(87) @ 555000: uvm_test_top.env.scb [axi4_scoreboard] Master AXI4_WRITE received: ID=0xd ADDR=0x0000d000 LEN=0
# UVM_INFO ../src/env/axi4_scoreboard.sv(291) @ 555000: uvm_test_top.env.scb [axi4_scoreboard] [WRITE] MATCH #3: ID=0xd ADDR=0x0000d000 LEN=0
# UVM_INFO ../src/env/axi4_scoreboard.sv(219) @ 555000: uvm_test_top.env.scb [axi4_scoreboard] [REF_MEM_WRITE] Addr=0x0000d000 Data=0xaa
# UVM_INFO ../src/env/axi4_scoreboard.sv(219) @ 555000: uvm_test_top.env.scb [axi4_scoreboard] [REF_MEM_WRITE] Addr=0x0000d001 Data=0xaa
# UVM_INFO ../src/env/axi4_scoreboard.sv(219) @ 555000: uvm_test_top.env.scb [axi4_scoreboard] [REF_MEM_WRITE] Addr=0x0000d002 Data=0x55
# UVM_INFO ../src/env/axi4_scoreboard.sv(219) @ 555000: uvm_test_top.env.scb [axi4_scoreboard] [REF_MEM_WRITE] Addr=0x0000d003 Data=0x55
# UVM_INFO ../src/seq/axi4_data_integrity_seq.sv(146) @ 555000: uvm_test_top.env.master_agent.sqr@@integrity_seq [axi4_data_integrity_seq] WRITE #2 done: ADDR=0x0000d000 DATA=0x5555aaaa RESP=AXI4_RESP_OKAY
# UVM_INFO ../src/mst/axi4_master_driver.sv(73) @ 555000: uvm_test_top.env.master_agent.drv [axi4_master_driver] Driving AXI4_READ  ID=0xd  ADDR=0x0000d000  LEN=0
# UVM_INFO ../src/slv/axi4_slave_driver.sv(386) @ 605000: uvm_test_top.env.slave_agent.drv [axi4_slave_driver] AR received: ID=0xd ADDR=0x0000d000 LEN=0 LOCK=AXI4_LOCK_NORMAL
# UVM_INFO ../src/mst/axi4_master_monitor.sv(246) @ 605000: uvm_test_top.env.master_agent.mon [axi4_master_monitor] AR observed: ID=0xd ADDR=0x0000d000 LEN=0
# UVM_INFO ../src/slv/axi4_slave_monitor.sv(224) @ 605000: uvm_test_top.env.slave_agent.mon [axi4_slave_monitor] AR received: ID=0xd ADDR=0x0000d000 LEN=0
# UVM_INFO ../src/mst/axi4_master_driver.sv(348) @ 645000: uvm_test_top.env.master_agent.drv [axi4_master_driver] Master driver received all R beats for ID=0xd
# UVM_INFO ../src/slv/axi4_slave_driver.sv(501) @ 645000: uvm_test_top.env.slave_agent.drv [axi4_slave_driver] Read complete: ID=0xd ADDR=0x0000d000 RESP=AXI4_RESP_OKAY  1 beats sent
# UVM_INFO ../src/mst/axi4_master_monitor.sv(314) @ 645000: uvm_test_top.env.master_agent.mon [axi4_master_monitor] Read complete: ID=0xd ADDR=0x0000d000 1 beats
# UVM_INFO ../src/env/axi4_scoreboard.sv(87) @ 645000: uvm_test_top.env.scb [axi4_scoreboard] Master AXI4_READ received: ID=0xd ADDR=0x0000d000 LEN=0
# UVM_INFO ../src/slv/axi4_slave_monitor.sv(287) @ 645000: uvm_test_top.env.slave_agent.mon [axi4_slave_monitor] Read data sent: ID=0xd ADDR=0x0000d000 1 beats
# UVM_INFO ../src/env/axi4_scoreboard.sv(108) @ 645000: uvm_test_top.env.scb [axi4_scoreboard] Slave AXI4_READ received: ID=0xd ADDR=0x0000d000 LEN=0
# UVM_INFO ../src/env/axi4_scoreboard.sv(291) @ 645000: uvm_test_top.env.scb [axi4_scoreboard] [READ] MATCH #4: ID=0xd ADDR=0x0000d000 LEN=0
# UVM_INFO ../src/seq/axi4_data_integrity_seq.sv(166) @ 645000: uvm_test_top.env.master_agent.sqr@@integrity_seq [axi4_data_integrity_seq] READ  #2 done: ADDR=0x0000d000 DATA=0x5555aaaa
# UVM_INFO ../src/seq/axi4_data_integrity_seq.sv(172) @ 645000: uvm_test_top.env.master_agent.sqr@@integrity_seq [axi4_data_integrity_seq] Pair #2 data integrity PASSED -- single beat matches
# UVM_INFO ../src/seq/axi4_data_integrity_seq.sv(180) @ 645000: uvm_test_top.env.master_agent.sqr@@integrity_seq [axi4_data_integrity_seq] Data integrity demo complete (4/4 transactions sent)
# UVM_INFO ../src/test/axi4_data_integrity_test.sv(57) @ 1145000: uvm_test_top [axi4_data_integrity_test] Data integrity test complete
# UVM_INFO verilog_src/uvm-1.1d/src/base/uvm_objection.svh(1268) @ 1145000: reporter [TEST_DONE] 'run' phase is ready to proceed to the 'extract' phase
# UVM_INFO ../src/env/axi4_scoreboard.sv(360) @ 1145000: uvm_test_top.env.scb [axi4_scoreboard] 
# ========================================
#          SCOREBOARD SUMMARY
# ========================================
#   Master transactions : 4
#   Slave transactions  : 4
#   Matches             : 4
#   Mismatches          : 0
#   Unmatched master WR : 0
#   Unmatched master RD : 0
#   Unmatched slave  WR : 0
#   Unmatched slave  RD : 0
# ========================================
#   RESULT : PASS
# ========================================
# UVM_INFO ../src/test/axi4_base_test.sv(91) @ 1145000: uvm_test_top [axi4_data_integrity_test] 
# === TEST PASSED ===
# 
# 
# --- UVM Report Summary ---
# 
# ** Report counts by severity
# UVM_INFO :  100
# UVM_WARNING :    0
# UVM_ERROR :    0
# UVM_FATAL :    0
# ** Report counts by id
# [Questa UVM]     3
# [RNTST]     1
# [TB_TOP]     2
# [TEST_DONE]     1
# [TOP_TB]     1
# [UVMTOP]     1
# [axi4_data_integrity_seq]     8
# [axi4_data_integrity_test]     3
# [axi4_master_agent]     1
# [axi4_master_driver]     9
# [axi4_master_monitor]    11
# [axi4_scoreboard]    33
# [axi4_slave_agent]     1
# [axi4_slave_driver]     9
# [axi4_slave_monitor]    11
# [axi4_vip_env]     5
# ** Note: $finish    : /cadtools/mentor/Questa_10.6b/questasim/linux_x86_64/../verilog_src/uvm-1.1d/src/base/uvm_root.svh(430)
#    Time: 1145 ns  Iteration: 55  Instance: /tb_top
# Saving coverage database on exit...
# End time: 10:54:24 on Jul 09,2026, Elapsed time: 0:00:01
# Errors: 0, Warnings: 0
