# vsim -c -coverage -sv_seed 10449816 "+UVM_TESTNAME=axi4_cache_prot_test" "+UVM_VERBOSITY=UVM_HIGH" "+DUMP_VCD" -l ./report/logs/axi4_cache_prot_test_run_5_seed_10449816.log -do "coverage save -onexit ./report/coverage/axi4_cache_prot_test_run_5_seed_10449816.ucdb; run -all; quit -f" opt_tb_top 
# Start time: 14:26:35 on Jul 06,2026
# //  Questa Sim-64
# //  Version 10.6b linux_x86_64 May 25 2017
# //
# //  Copyright 1991-2017 Mentor Graphics Corporation
# //  All Rights Reserved.
# //
# //  QuestaSim and its associated documentation contain trade
# //  secrets and commercial or financial information that are the property of
# //  Mentor Graphics Corporation and are privileged, confidential,
# //  and exempt from disclosure under the Freedom of Information Act,
# //  5 U.S.C. Section 552. Furthermore, this information
# //  is prohibited from disclosure under the Trade Secrets Act,
# //  18 U.S.C. Section 1905.
# //
# Loading sv_std.std
# Loading work.axi4_if(fast)
# Loading mtiUvm.uvm_pkg
# Loading work.axi4_pkg(fast)
# Loading work.axi4_test_pkg(fast)
# Loading work.tb_top(fast)
# Loading work.axi4_if(fast)
# Loading work.axi4_sva(fast)
# Loading mtiUvm.questa_uvm_pkg(fast)
# Loading /cadtools/mentor/Questa_10.6b/questasim/uvm-1.1d/linux_x86_64/uvm_dpi.so
# coverage save -onexit ./report/coverage/axi4_cache_prot_test_run_5_seed_10449816.ucdb
#  run -all
# ----------------------------------------------------------------
# UVM-1.1d
# (C) 2007-2013 Mentor Graphics Corporation
# (C) 2007-2013 Cadence Design Systems, Inc.
# (C) 2006-2013 Synopsys, Inc.
# (C) 2011-2013 Cypress Semiconductor Corp.
# ----------------------------------------------------------------
# 
#   ***********       IMPORTANT RELEASE NOTES         ************
# 
#   You are using a version of the UVM library that has been compiled
#   with `UVM_NO_DEPRECATED undefined.
#   See http://www.eda.org/svdb/view.php?id=3313 for more details.
# 
#   You are using a version of the UVM library that has been compiled
#   with `UVM_OBJECT_MUST_HAVE_CONSTRUCTOR undefined.
#   See http://www.eda.org/svdb/view.php?id=3770 for more details.
# 
#       (Specify +UVM_NO_RELNOTES to turn off this notice)
# 
# UVM_INFO verilog_src/questa_uvm_pkg-1.2/src/questa_uvm_pkg.sv(215) @ 0: reporter [Questa UVM] QUESTA_UVM-1.2.3
# UVM_INFO verilog_src/questa_uvm_pkg-1.2/src/questa_uvm_pkg.sv(217) @ 0: reporter [Questa UVM]  questa_uvm::init(+struct)
# UVM_INFO ../src/tb_top.sv(147) @ 0: reporter [TB_TOP] Virtual interface set in config_db
# UVM_INFO @ 0: reporter [RNTST] Running test axi4_cache_prot_test...
# UVM_INFO ../src/tb_top.sv(161) @ 0: reporter [TB_TOP] Waveform VCD dumping enabled (axi4_vip.vcd)
# UVM_INFO ../src/env/axi4_vip_env.sv(83) @ 0: uvm_test_top.env [axi4_vip_env] slave_vif not set - reusing master_vif (passthrough mode)
# UVM_INFO ../src/env/axi4_vip_env.sv(93) @ 0: uvm_test_top.env [axi4_vip_env] Scoreboard created
# UVM_INFO ../src/env/axi4_vip_env.sv(100) @ 0: uvm_test_top.env [axi4_vip_env] Coverage collectors created
# UVM_INFO ../src/mst/axi4_master_agent.sv(69) @ 0: uvm_test_top.env.master_agent [axi4_master_agent] ACTIVE mode - driver + sequencer created
# UVM_INFO ../src/slv/axi4_slave_agent.sv(82) @ 0: uvm_test_top.env.slave_agent [axi4_slave_agent] ACTIVE mode — ready_delay=[0:0] resp_delay=[0:0]
# UVM_INFO ../src/env/axi4_vip_env.sv(116) @ 0: uvm_test_top.env [axi4_vip_env] Scoreboard connected: master_mon.ap -> scb, slave_mon.ap -> scb
# UVM_INFO ../src/env/axi4_vip_env.sv(124) @ 0: uvm_test_top.env [axi4_vip_env] Coverage connected: master_mon.ap -> master_cov, slave_mon.ap -> slave_cov
# UVM_INFO @ 0: reporter [UVMTOP] UVM testbench topology:
# ---------------------------------------------------------------
# Name                       Type                     Size  Value
# ---------------------------------------------------------------
# uvm_test_top               axi4_cache_prot_test     -     @475 
#   env                      axi4_vip_env             -     @490 
#     master_agent           axi4_master_agent        -     @505 
#       drv                  axi4_master_driver       -     @569 
#         rsp_port           uvm_analysis_port        -     @584 
#         seq_item_port      uvm_seq_item_pull_port   -     @576 
#       mon                  axi4_master_monitor      -     @561 
#         ap                 uvm_analysis_port        -     @702 
#       sqr                  axi4_master_sequencer    -     @592 
#         rsp_export         uvm_analysis_export      -     @599 
#         seq_item_export    uvm_seq_item_pull_imp    -     @693 
#         arbitration_queue  array                    0     -    
#         lock_queue         array                    0     -    
#         num_last_reqs      integral                 32    'd1  
#         num_last_rsps      integral                 32    'd1  
#     master_cov             axi4_coverage            -     @526 
#       analysis_imp         uvm_analysis_imp         -     @533 
#     scb                    axi4_scoreboard          -     @519 
#       master_export        uvm_analysis_imp_master  -     @716 
#       slave_export         uvm_analysis_imp_slave   -     @724 
#     slave_agent            axi4_slave_agent         -     @512 
#       drv                  axi4_slave_driver        -     @755 
#         rsp_port           uvm_analysis_port        -     @770 
#         seq_item_port      uvm_seq_item_pull_port   -     @762 
#       mon                  axi4_slave_monitor       -     @737 
#         ap                 uvm_analysis_port        -     @894 
#       sqr                  axi4_slave_sequencer     -     @778 
#         rsp_export         uvm_analysis_export      -     @785 
#         seq_item_export    uvm_seq_item_pull_imp    -     @879 
#         arbitration_queue  array                    0     -    
#         lock_queue         array                    0     -    
#         num_last_reqs      integral                 32    'd1  
#         num_last_rsps      integral                 32    'd1  
#     slave_cov              axi4_coverage            -     @541 
#       analysis_imp         uvm_analysis_imp         -     @548 
# ---------------------------------------------------------------
# 
# UVM_INFO verilog_src/questa_uvm_pkg-1.2/src/questa_uvm_pkg.sv(277) @ 0: reporter [Questa UVM] End Of Elaboration
# UVM_INFO ../src/test/axi4_cache_prot_test.sv(24) @ 0: uvm_test_top [axi4_cache_prot_test] Starting cache and protection attributes sweep test
# UVM_INFO ../src/seq/axi4_cache_prot_seq.sv(25) @ 0: uvm_test_top.env.master_agent.sqr@@cp_seq [axi4_cache_prot_seq] Starting cache and prot attribute sweep sequence
# UVM_INFO ../src/tb_top.sv(49) @ 95000: reporter [TOP_TB] Reset de-asserted
# UVM_INFO ../src/slv/axi4_slave_driver.sv(131) @ 95000: uvm_test_top.env.slave_agent.drv [axi4_slave_driver] Reset deasserted - slave driver active
# UVM_INFO ../src/mst/axi4_master_driver.sv(64) @ 95000: uvm_test_top.env.master_agent.drv [axi4_master_driver] Reset deasserted - master driver active
# UVM_INFO ../src/mst/axi4_master_monitor.sv(77) @ 95000: uvm_test_top.env.master_agent.mon [axi4_master_monitor] Reset deasserted - monitor active
# UVM_INFO ../src/slv/axi4_slave_monitor.sv(71) @ 95000: uvm_test_top.env.slave_agent.mon [axi4_slave_monitor] Reset deasserted - monitor active
# UVM_INFO ../src/mst/axi4_master_driver.sv(73) @ 95000: uvm_test_top.env.master_agent.drv [axi4_master_driver] Driving AXI4_WRITE  ID=0x0  ADDR=0x03127261  LEN=188
# UVM_INFO ../src/mst/axi4_master_driver.sv(73) @ 95000: uvm_test_top.env.master_agent.drv [axi4_master_driver] Driving AXI4_READ  ID=0x9  ADDR=0xaea40a1a  LEN=115
# UVM_INFO ../src/seq/axi4_cache_prot_seq.sv(60) @ 95000: uvm_test_top.env.master_agent.sqr@@cp_seq [axi4_cache_prot_seq] [1/16] Swept CACHE=0b0000 PROT=0b000 (Write & Read)
# UVM_INFO ../src/mst/axi4_master_driver.sv(73) @ 95000: uvm_test_top.env.master_agent.drv [axi4_master_driver] Driving AXI4_WRITE  ID=0x4  ADDR=0x89821fe4  LEN=235
# UVM_INFO ../src/mst/axi4_master_driver.sv(73) @ 95000: uvm_test_top.env.master_agent.drv [axi4_master_driver] Driving AXI4_READ  ID=0x4  ADDR=0xa4e0b883  LEN=178
# UVM_INFO ../src/seq/axi4_cache_prot_seq.sv(60) @ 95000: uvm_test_top.env.master_agent.sqr@@cp_seq [axi4_cache_prot_seq] [2/16] Swept CACHE=0b0001 PROT=0b001 (Write & Read)
# UVM_INFO ../src/mst/axi4_master_driver.sv(73) @ 95000: uvm_test_top.env.master_agent.drv [axi4_master_driver] Driving AXI4_WRITE  ID=0x3  ADDR=0xb54e26e0  LEN=147
# UVM_INFO ../src/mst/axi4_master_driver.sv(73) @ 95000: uvm_test_top.env.master_agent.drv [axi4_master_driver] Driving AXI4_READ  ID=0x3  ADDR=0x125fc87c  LEN=222
# UVM_INFO ../src/seq/axi4_cache_prot_seq.sv(60) @ 95000: uvm_test_top.env.master_agent.sqr@@cp_seq [axi4_cache_prot_seq] [3/16] Swept CACHE=0b0010 PROT=0b010 (Write & Read)
# UVM_INFO ../src/mst/axi4_master_driver.sv(73) @ 95000: uvm_test_top.env.master_agent.drv [axi4_master_driver] Driving AXI4_WRITE  ID=0x3  ADDR=0xbdb47fe1  LEN=189
# UVM_INFO ../src/mst/axi4_master_driver.sv(73) @ 95000: uvm_test_top.env.master_agent.drv [axi4_master_driver] Driving AXI4_READ  ID=0x3  ADDR=0x3e593b03  LEN=0
# UVM_INFO ../src/seq/axi4_cache_prot_seq.sv(60) @ 95000: uvm_test_top.env.master_agent.sqr@@cp_seq [axi4_cache_prot_seq] [4/16] Swept CACHE=0b0011 PROT=0b011 (Write & Read)
# UVM_INFO ../src/mst/axi4_master_driver.sv(73) @ 95000: uvm_test_top.env.master_agent.drv [axi4_master_driver] Driving AXI4_WRITE  ID=0xc  ADDR=0x02330b8f  LEN=182
# UVM_INFO ../src/mst/axi4_master_driver.sv(73) @ 95000: uvm_test_top.env.master_agent.drv [axi4_master_driver] Driving AXI4_READ  ID=0x8  ADDR=0xd6d7d33a  LEN=14
# UVM_INFO ../src/seq/axi4_cache_prot_seq.sv(60) @ 95000: uvm_test_top.env.master_agent.sqr@@cp_seq [axi4_cache_prot_seq] [5/16] Swept CACHE=0b0100 PROT=0b100 (Write & Read)
# UVM_INFO ../src/mst/axi4_master_driver.sv(73) @ 95000: uvm_test_top.env.master_agent.drv [axi4_master_driver] Driving AXI4_WRITE  ID=0x5  ADDR=0x5cf00558  LEN=164
# UVM_INFO ../src/mst/axi4_master_driver.sv(73) @ 95000: uvm_test_top.env.master_agent.drv [axi4_master_driver] Driving AXI4_READ  ID=0x4  ADDR=0x3a4e0ff0  LEN=127
# UVM_INFO ../src/seq/axi4_cache_prot_seq.sv(60) @ 95000: uvm_test_top.env.master_agent.sqr@@cp_seq [axi4_cache_prot_seq] [6/16] Swept CACHE=0b0101 PROT=0b101 (Write & Read)
# UVM_INFO ../src/mst/axi4_master_driver.sv(73) @ 95000: uvm_test_top.env.master_agent.drv [axi4_master_driver] Driving AXI4_WRITE  ID=0xf  ADDR=0xaa36fe2f  LEN=6
# UVM_INFO ../src/mst/axi4_master_driver.sv(73) @ 95000: uvm_test_top.env.master_agent.drv [axi4_master_driver] Driving AXI4_READ  ID=0x2  ADDR=0x8abcda28  LEN=17
# UVM_INFO ../src/seq/axi4_cache_prot_seq.sv(60) @ 95000: uvm_test_top.env.master_agent.sqr@@cp_seq [axi4_cache_prot_seq] [7/16] Swept CACHE=0b0110 PROT=0b110 (Write & Read)
# UVM_INFO ../src/mst/axi4_master_driver.sv(73) @ 95000: uvm_test_top.env.master_agent.drv [axi4_master_driver] Driving AXI4_WRITE  ID=0x7  ADDR=0xd5548d96  LEN=40
# UVM_INFO ../src/mst/axi4_master_driver.sv(73) @ 95000: uvm_test_top.env.master_agent.drv [axi4_master_driver] Driving AXI4_READ  ID=0x2  ADDR=0x88e774c0  LEN=58
# UVM_INFO ../src/seq/axi4_cache_prot_seq.sv(60) @ 95000: uvm_test_top.env.master_agent.sqr@@cp_seq [axi4_cache_prot_seq] [8/16] Swept CACHE=0b0111 PROT=0b111 (Write & Read)
# UVM_INFO ../src/mst/axi4_master_driver.sv(73) @ 95000: uvm_test_top.env.master_agent.drv [axi4_master_driver] Driving AXI4_WRITE  ID=0x2  ADDR=0x0ef169a9  LEN=76
# UVM_INFO ../src/mst/axi4_master_driver.sv(73) @ 95000: uvm_test_top.env.master_agent.drv [axi4_master_driver] Driving AXI4_READ  ID=0xd  ADDR=0xceaf74f6  LEN=69
# UVM_INFO ../src/seq/axi4_cache_prot_seq.sv(60) @ 95000: uvm_test_top.env.master_agent.sqr@@cp_seq [axi4_cache_prot_seq] [9/16] Swept CACHE=0b1000 PROT=0b000 (Write & Read)
# UVM_INFO ../src/mst/axi4_master_driver.sv(73) @ 95000: uvm_test_top.env.master_agent.drv [axi4_master_driver] Driving AXI4_WRITE  ID=0x7  ADDR=0xa486b1b8  LEN=33
# UVM_INFO ../src/mst/axi4_master_driver.sv(73) @ 95000: uvm_test_top.env.master_agent.drv [axi4_master_driver] Driving AXI4_READ  ID=0x1  ADDR=0x5472cd94  LEN=14
# UVM_INFO ../src/seq/axi4_cache_prot_seq.sv(60) @ 95000: uvm_test_top.env.master_agent.sqr@@cp_seq [axi4_cache_prot_seq] [10/16] Swept CACHE=0b1001 PROT=0b001 (Write & Read)
# UVM_INFO ../src/mst/axi4_master_driver.sv(73) @ 95000: uvm_test_top.env.master_agent.drv [axi4_master_driver] Driving AXI4_WRITE  ID=0xe  ADDR=0xb6b959a1  LEN=8
# UVM_INFO ../src/mst/axi4_master_driver.sv(73) @ 95000: uvm_test_top.env.master_agent.drv [axi4_master_driver] Driving AXI4_READ  ID=0x5  ADDR=0xa286078b  LEN=11
# UVM_INFO ../src/seq/axi4_cache_prot_seq.sv(60) @ 95000: uvm_test_top.env.master_agent.sqr@@cp_seq [axi4_cache_prot_seq] [11/16] Swept CACHE=0b1010 PROT=0b010 (Write & Read)
# UVM_INFO ../src/mst/axi4_master_driver.sv(73) @ 95000: uvm_test_top.env.master_agent.drv [axi4_master_driver] Driving AXI4_WRITE  ID=0xe  ADDR=0xd582323e  LEN=79
# UVM_INFO ../src/mst/axi4_master_driver.sv(73) @ 95000: uvm_test_top.env.master_agent.drv [axi4_master_driver] Driving AXI4_READ  ID=0x7  ADDR=0x42595837  LEN=169
# UVM_INFO ../src/seq/axi4_cache_prot_seq.sv(60) @ 95000: uvm_test_top.env.master_agent.sqr@@cp_seq [axi4_cache_prot_seq] [12/16] Swept CACHE=0b1011 PROT=0b011 (Write & Read)
# UVM_INFO ../src/mst/axi4_master_driver.sv(73) @ 95000: uvm_test_top.env.master_agent.drv [axi4_master_driver] Driving AXI4_WRITE  ID=0xc  ADDR=0xacbb9232  LEN=47
# UVM_INFO ../src/mst/axi4_master_driver.sv(73) @ 95000: uvm_test_top.env.master_agent.drv [axi4_master_driver] Driving AXI4_READ  ID=0x5  ADDR=0x7907bb71  LEN=185
# UVM_INFO ../src/seq/axi4_cache_prot_seq.sv(60) @ 95000: uvm_test_top.env.master_agent.sqr@@cp_seq [axi4_cache_prot_seq] [13/16] Swept CACHE=0b1100 PROT=0b100 (Write & Read)
# UVM_INFO ../src/mst/axi4_master_driver.sv(73) @ 95000: uvm_test_top.env.master_agent.drv [axi4_master_driver] Driving AXI4_WRITE  ID=0xe  ADDR=0xc65359fe  LEN=108
# UVM_INFO ../src/mst/axi4_master_driver.sv(73) @ 95000: uvm_test_top.env.master_agent.drv [axi4_master_driver] Driving AXI4_READ  ID=0xf  ADDR=0x5d11a29c  LEN=2
# UVM_INFO ../src/seq/axi4_cache_prot_seq.sv(60) @ 95000: uvm_test_top.env.master_agent.sqr@@cp_seq [axi4_cache_prot_seq] [14/16] Swept CACHE=0b1101 PROT=0b101 (Write & Read)
# UVM_INFO ../src/mst/axi4_master_driver.sv(73) @ 95000: uvm_test_top.env.master_agent.drv [axi4_master_driver] Driving AXI4_WRITE  ID=0x1  ADDR=0x9ee41c38  LEN=66
# UVM_INFO ../src/mst/axi4_master_driver.sv(73) @ 95000: uvm_test_top.env.master_agent.drv [axi4_master_driver] Driving AXI4_READ  ID=0xa  ADDR=0xc376a286  LEN=1
# UVM_INFO ../src/seq/axi4_cache_prot_seq.sv(60) @ 95000: uvm_test_top.env.master_agent.sqr@@cp_seq [axi4_cache_prot_seq] [15/16] Swept CACHE=0b1110 PROT=0b110 (Write & Read)
# UVM_INFO ../src/mst/axi4_master_driver.sv(73) @ 95000: uvm_test_top.env.master_agent.drv [axi4_master_driver] Driving AXI4_WRITE  ID=0xe  ADDR=0x707fba34  LEN=47
# UVM_INFO ../src/mst/axi4_master_driver.sv(73) @ 95000: uvm_test_top.env.master_agent.drv [axi4_master_driver] Driving AXI4_READ  ID=0x0  ADDR=0x2e4f0748  LEN=222
# UVM_INFO ../src/seq/axi4_cache_prot_seq.sv(60) @ 95000: uvm_test_top.env.master_agent.sqr@@cp_seq [axi4_cache_prot_seq] [16/16] Swept CACHE=0b1111 PROT=0b111 (Write & Read)
# UVM_INFO ../src/seq/axi4_cache_prot_seq.sv(63) @ 95000: uvm_test_top.env.master_agent.sqr@@cp_seq [axi4_cache_prot_seq] Cache and prot attribute sweep sequence complete
# UVM_INFO ../src/slv/axi4_slave_driver.sv(386) @ 115000: uvm_test_top.env.slave_agent.drv [axi4_slave_driver] AR received: ID=0x9 ADDR=0xaea40a1a LEN=115 LOCK=AXI4_LOCK_NORMAL
# UVM_INFO ../src/slv/axi4_slave_driver.sv(228) @ 115000: uvm_test_top.env.slave_agent.drv [axi4_slave_driver] AW received: ID=0x0 ADDR=0x03127261 LEN=188 LOCK=AXI4_LOCK_NORMAL
# UVM_INFO ../src/slv/axi4_slave_monitor.sv(224) @ 115000: uvm_test_top.env.slave_agent.mon [axi4_slave_monitor] AR received: ID=0x9 ADDR=0xaea40a1a LEN=115
# UVM_INFO ../src/slv/axi4_slave_monitor.sv(116) @ 115000: uvm_test_top.env.slave_agent.mon [axi4_slave_monitor] AW received: ID=0x0 ADDR=0x03127261 LEN=188
# UVM_INFO ../src/mst/axi4_master_monitor.sv(246) @ 115000: uvm_test_top.env.master_agent.mon [axi4_master_monitor] AR observed: ID=0x9 ADDR=0xaea40a1a LEN=115
# UVM_INFO ../src/mst/axi4_master_monitor.sv(124) @ 115000: uvm_test_top.env.master_agent.mon [axi4_master_monitor] AW observed: ID=0x0 ADDR=0x03127261 LEN=188
# UVM_INFO ../src/slv/axi4_slave_driver.sv(228) @ 145000: uvm_test_top.env.slave_agent.drv [axi4_slave_driver] AW received: ID=0x4 ADDR=0x89821fe4 LEN=235 LOCK=AXI4_LOCK_NORMAL
# UVM_INFO ../src/slv/axi4_slave_driver.sv(386) @ 145000: uvm_test_top.env.slave_agent.drv [axi4_slave_driver] AR received: ID=0x4 ADDR=0xa4e0b883 LEN=178 LOCK=AXI4_LOCK_NORMAL
# UVM_INFO ../src/mst/axi4_master_monitor.sv(124) @ 145000: uvm_test_top.env.master_agent.mon [axi4_master_monitor] AW observed: ID=0x4 ADDR=0x89821fe4 LEN=235
# UVM_INFO ../src/mst/axi4_master_monitor.sv(246) @ 145000: uvm_test_top.env.master_agent.mon [axi4_master_monitor] AR observed: ID=0x4 ADDR=0xa4e0b883 LEN=178
# UVM_INFO ../src/slv/axi4_slave_monitor.sv(116) @ 145000: uvm_test_top.env.slave_agent.mon [axi4_slave_monitor] AW received: ID=0x4 ADDR=0x89821fe4 LEN=235
# UVM_INFO ../src/slv/axi4_slave_monitor.sv(224) @ 145000: uvm_test_top.env.slave_agent.mon [axi4_slave_monitor] AR received: ID=0x4 ADDR=0xa4e0b883 LEN=178
# UVM_INFO ../src/slv/axi4_slave_driver.sv(386) @ 175000: uvm_test_top.env.slave_agent.drv [axi4_slave_driver] AR received: ID=0x3 ADDR=0x125fc87c LEN=222 LOCK=AXI4_LOCK_NORMAL
# UVM_INFO ../src/slv/axi4_slave_driver.sv(228) @ 175000: uvm_test_top.env.slave_agent.drv [axi4_slave_driver] AW received: ID=0x3 ADDR=0xb54e26e0 LEN=147 LOCK=AXI4_LOCK_NORMAL
# UVM_INFO ../src/slv/axi4_slave_monitor.sv(224) @ 175000: uvm_test_top.env.slave_agent.mon [axi4_slave_monitor] AR received: ID=0x3 ADDR=0x125fc87c LEN=222
# UVM_INFO ../src/slv/axi4_slave_monitor.sv(116) @ 175000: uvm_test_top.env.slave_agent.mon [axi4_slave_monitor] AW received: ID=0x3 ADDR=0xb54e26e0 LEN=147
# UVM_INFO ../src/mst/axi4_master_monitor.sv(246) @ 175000: uvm_test_top.env.master_agent.mon [axi4_master_monitor] AR observed: ID=0x3 ADDR=0x125fc87c LEN=222
# UVM_INFO ../src/mst/axi4_master_monitor.sv(124) @ 175000: uvm_test_top.env.master_agent.mon [axi4_master_monitor] AW observed: ID=0x3 ADDR=0xb54e26e0 LEN=147
# UVM_INFO ../src/slv/axi4_slave_driver.sv(228) @ 205000: uvm_test_top.env.slave_agent.drv [axi4_slave_driver] AW received: ID=0x3 ADDR=0xbdb47fe1 LEN=189 LOCK=AXI4_LOCK_NORMAL
# UVM_INFO ../src/slv/axi4_slave_driver.sv(386) @ 205000: uvm_test_top.env.slave_agent.drv [axi4_slave_driver] AR received: ID=0x3 ADDR=0x3e593b03 LEN=0 LOCK=AXI4_LOCK_NORMAL
# UVM_INFO ../src/mst/axi4_master_monitor.sv(124) @ 205000: uvm_test_top.env.master_agent.mon [axi4_master_monitor] AW observed: ID=0x3 ADDR=0xbdb47fe1 LEN=189
# UVM_INFO ../src/mst/axi4_master_monitor.sv(246) @ 205000: uvm_test_top.env.master_agent.mon [axi4_master_monitor] AR observed: ID=0x3 ADDR=0x3e593b03 LEN=0
# UVM_INFO ../src/slv/axi4_slave_monitor.sv(116) @ 205000: uvm_test_top.env.slave_agent.mon [axi4_slave_monitor] AW received: ID=0x3 ADDR=0xbdb47fe1 LEN=189
# UVM_INFO ../src/slv/axi4_slave_monitor.sv(224) @ 205000: uvm_test_top.env.slave_agent.mon [axi4_slave_monitor] AR received: ID=0x3 ADDR=0x3e593b03 LEN=0
# UVM_INFO ../src/slv/axi4_slave_driver.sv(386) @ 235000: uvm_test_top.env.slave_agent.drv [axi4_slave_driver] AR received: ID=0x8 ADDR=0xd6d7d33a LEN=14 LOCK=AXI4_LOCK_NORMAL
# UVM_INFO ../src/slv/axi4_slave_monitor.sv(224) @ 235000: uvm_test_top.env.slave_agent.mon [axi4_slave_monitor] AR received: ID=0x8 ADDR=0xd6d7d33a LEN=14
# UVM_INFO ../src/mst/axi4_master_monitor.sv(246) @ 235000: uvm_test_top.env.master_agent.mon [axi4_master_monitor] AR observed: ID=0x8 ADDR=0xd6d7d33a LEN=14
# UVM_INFO ../src/slv/axi4_slave_driver.sv(386) @ 265000: uvm_test_top.env.slave_agent.drv [axi4_slave_driver] AR received: ID=0x4 ADDR=0x3a4e0ff0 LEN=127 LOCK=AXI4_LOCK_NORMAL
# UVM_INFO ../src/mst/axi4_master_monitor.sv(246) @ 265000: uvm_test_top.env.master_agent.mon [axi4_master_monitor] AR observed: ID=0x4 ADDR=0x3a4e0ff0 LEN=127
# UVM_INFO ../src/slv/axi4_slave_monitor.sv(224) @ 265000: uvm_test_top.env.slave_agent.mon [axi4_slave_monitor] AR received: ID=0x4 ADDR=0x3a4e0ff0 LEN=127
# UVM_INFO ../src/slv/axi4_slave_driver.sv(386) @ 295000: uvm_test_top.env.slave_agent.drv [axi4_slave_driver] AR received: ID=0x2 ADDR=0x8abcda28 LEN=17 LOCK=AXI4_LOCK_NORMAL
# UVM_INFO ../src/slv/axi4_slave_monitor.sv(224) @ 295000: uvm_test_top.env.slave_agent.mon [axi4_slave_monitor] AR received: ID=0x2 ADDR=0x8abcda28 LEN=17
# UVM_INFO ../src/mst/axi4_master_monitor.sv(246) @ 295000: uvm_test_top.env.master_agent.mon [axi4_master_monitor] AR observed: ID=0x2 ADDR=0x8abcda28 LEN=17
# UVM_INFO ../src/slv/axi4_slave_driver.sv(386) @ 325000: uvm_test_top.env.slave_agent.drv [axi4_slave_driver] AR received: ID=0x2 ADDR=0x88e774c0 LEN=58 LOCK=AXI4_LOCK_NORMAL
# UVM_INFO ../src/mst/axi4_master_monitor.sv(246) @ 325000: uvm_test_top.env.master_agent.mon [axi4_master_monitor] AR observed: ID=0x2 ADDR=0x88e774c0 LEN=58
# UVM_INFO ../src/slv/axi4_slave_monitor.sv(224) @ 325000: uvm_test_top.env.slave_agent.mon [axi4_slave_monitor] AR received: ID=0x2 ADDR=0x88e774c0 LEN=58
# UVM_INFO ../src/slv/axi4_slave_driver.sv(386) @ 355000: uvm_test_top.env.slave_agent.drv [axi4_slave_driver] AR received: ID=0xd ADDR=0xceaf74f6 LEN=69 LOCK=AXI4_LOCK_NORMAL
# UVM_INFO ../src/slv/axi4_slave_monitor.sv(224) @ 355000: uvm_test_top.env.slave_agent.mon [axi4_slave_monitor] AR received: ID=0xd ADDR=0xceaf74f6 LEN=69
# UVM_INFO ../src/mst/axi4_master_monitor.sv(246) @ 355000: uvm_test_top.env.master_agent.mon [axi4_master_monitor] AR observed: ID=0xd ADDR=0xceaf74f6 LEN=69
# UVM_INFO ../src/slv/axi4_slave_driver.sv(386) @ 385000: uvm_test_top.env.slave_agent.drv [axi4_slave_driver] AR received: ID=0x1 ADDR=0x5472cd94 LEN=14 LOCK=AXI4_LOCK_NORMAL
# UVM_INFO ../src/mst/axi4_master_monitor.sv(246) @ 385000: uvm_test_top.env.master_agent.mon [axi4_master_monitor] AR observed: ID=0x1 ADDR=0x5472cd94 LEN=14
# UVM_INFO ../src/slv/axi4_slave_monitor.sv(224) @ 385000: uvm_test_top.env.slave_agent.mon [axi4_slave_monitor] AR received: ID=0x1 ADDR=0x5472cd94 LEN=14
# UVM_INFO ../src/slv/axi4_slave_driver.sv(386) @ 415000: uvm_test_top.env.slave_agent.drv [axi4_slave_driver] AR received: ID=0x5 ADDR=0xa286078b LEN=11 LOCK=AXI4_LOCK_NORMAL
# UVM_INFO ../src/slv/axi4_slave_monitor.sv(224) @ 415000: uvm_test_top.env.slave_agent.mon [axi4_slave_monitor] AR received: ID=0x5 ADDR=0xa286078b LEN=11
# UVM_INFO ../src/mst/axi4_master_monitor.sv(246) @ 415000: uvm_test_top.env.master_agent.mon [axi4_master_monitor] AR observed: ID=0x5 ADDR=0xa286078b LEN=11
# UVM_INFO ../src/slv/axi4_slave_driver.sv(386) @ 445000: uvm_test_top.env.slave_agent.drv [axi4_slave_driver] AR received: ID=0x7 ADDR=0x42595837 LEN=169 LOCK=AXI4_LOCK_NORMAL
# UVM_INFO ../src/mst/axi4_master_monitor.sv(246) @ 445000: uvm_test_top.env.master_agent.mon [axi4_master_monitor] AR observed: ID=0x7 ADDR=0x42595837 LEN=169
# UVM_INFO ../src/slv/axi4_slave_monitor.sv(224) @ 445000: uvm_test_top.env.slave_agent.mon [axi4_slave_monitor] AR received: ID=0x7 ADDR=0x42595837 LEN=169
# UVM_INFO ../src/slv/axi4_slave_driver.sv(386) @ 475000: uvm_test_top.env.slave_agent.drv [axi4_slave_driver] AR received: ID=0x5 ADDR=0x7907bb71 LEN=185 LOCK=AXI4_LOCK_NORMAL
# UVM_INFO ../src/slv/axi4_slave_monitor.sv(224) @ 475000: uvm_test_top.env.slave_agent.mon [axi4_slave_monitor] AR received: ID=0x5 ADDR=0x7907bb71 LEN=185
# UVM_INFO ../src/mst/axi4_master_monitor.sv(246) @ 475000: uvm_test_top.env.master_agent.mon [axi4_master_monitor] AR observed: ID=0x5 ADDR=0x7907bb71 LEN=185
# UVM_INFO ../src/slv/axi4_slave_driver.sv(386) @ 505000: uvm_test_top.env.slave_agent.drv [axi4_slave_driver] AR received: ID=0xf ADDR=0x5d11a29c LEN=2 LOCK=AXI4_LOCK_NORMAL
# UVM_INFO ../src/mst/axi4_master_monitor.sv(246) @ 505000: uvm_test_top.env.master_agent.mon [axi4_master_monitor] AR observed: ID=0xf ADDR=0x5d11a29c LEN=2
# UVM_INFO ../src/slv/axi4_slave_monitor.sv(224) @ 505000: uvm_test_top.env.slave_agent.mon [axi4_slave_monitor] AR received: ID=0xf ADDR=0x5d11a29c LEN=2
# UVM_INFO ../src/slv/axi4_slave_driver.sv(386) @ 535000: uvm_test_top.env.slave_agent.drv [axi4_slave_driver] AR received: ID=0xa ADDR=0xc376a286 LEN=1 LOCK=AXI4_LOCK_NORMAL
# UVM_INFO ../src/slv/axi4_slave_monitor.sv(224) @ 535000: uvm_test_top.env.slave_agent.mon [axi4_slave_monitor] AR received: ID=0xa ADDR=0xc376a286 LEN=1
# UVM_INFO ../src/mst/axi4_master_monitor.sv(246) @ 535000: uvm_test_top.env.master_agent.mon [axi4_master_monitor] AR observed: ID=0xa ADDR=0xc376a286 LEN=1
# UVM_INFO ../src/slv/axi4_slave_driver.sv(386) @ 565000: uvm_test_top.env.slave_agent.drv [axi4_slave_driver] AR received: ID=0x0 ADDR=0x2e4f0748 LEN=222 LOCK=AXI4_LOCK_NORMAL
# UVM_INFO ../src/mst/axi4_master_monitor.sv(246) @ 565000: uvm_test_top.env.master_agent.mon [axi4_master_monitor] AR observed: ID=0x0 ADDR=0x2e4f0748 LEN=222
# UVM_INFO ../src/slv/axi4_slave_monitor.sv(224) @ 565000: uvm_test_top.env.slave_agent.mon [axi4_slave_monitor] AR received: ID=0x0 ADDR=0x2e4f0748 LEN=222
# UVM_INFO ../src/test/axi4_cache_prot_test.sv(32) @ 1095000: uvm_test_top [axi4_cache_prot_test] Cache and protection sweep test complete
# UVM_INFO ../src/mst/axi4_master_driver.sv(348) @ 2435000: uvm_test_top.env.master_agent.drv [axi4_master_driver] Master driver received all R beats for ID=0x9
# UVM_INFO ../src/slv/axi4_slave_driver.sv(501) @ 2435000: uvm_test_top.env.slave_agent.drv [axi4_slave_driver] Read complete: ID=0x9 ADDR=0xaea40a1a RESP=AXI4_RESP_OKAY  116 beats sent
# UVM_INFO ../src/slv/axi4_slave_monitor.sv(287) @ 2435000: uvm_test_top.env.slave_agent.mon [axi4_slave_monitor] Read data sent: ID=0x9 ADDR=0xaea40a1a 116 beats
# UVM_INFO ../src/env/axi4_scoreboard.sv(108) @ 2435000: uvm_test_top.env.scb [axi4_scoreboard] Slave AXI4_READ received: ID=0x9 ADDR=0xaea40a1a LEN=115
# UVM_INFO ../src/mst/axi4_master_monitor.sv(314) @ 2435000: uvm_test_top.env.master_agent.mon [axi4_master_monitor] Read complete: ID=0x9 ADDR=0xaea40a1a 116 beats
# UVM_INFO ../src/env/axi4_scoreboard.sv(87) @ 2435000: uvm_test_top.env.scb [axi4_scoreboard] Master AXI4_READ received: ID=0x9 ADDR=0xaea40a1a LEN=115
# UVM_INFO ../src/env/axi4_scoreboard.sv(291) @ 2435000: uvm_test_top.env.scb [axi4_scoreboard] [READ] MATCH #1: ID=0x9 ADDR=0xaea40a1a LEN=115
# UVM_INFO ../src/mst/axi4_master_monitor.sv(184) @ 3865000: uvm_test_top.env.master_agent.mon [axi4_master_monitor] W data assembled: ID=0x0 ADDR=0x03127261 189 beats
# UVM_INFO ../src/slv/axi4_slave_monitor.sv(167) @ 3865000: uvm_test_top.env.slave_agent.mon [axi4_slave_monitor] W data assembled: ID=0x0 ADDR=0x03127261 189 beats
# UVM_INFO ../src/mst/axi4_master_driver.sv(289) @ 3895000: uvm_test_top.env.master_agent.drv [axi4_master_driver] Master driver received B response: ID=0x0 RESP=AXI4_RESP_OKAY
# UVM_INFO ../src/slv/axi4_slave_driver.sv(348) @ 3895000: uvm_test_top.env.slave_agent.drv [axi4_slave_driver] Write complete: ID=0x0 RESP=AXI4_RESP_OKAY
# UVM_INFO ../src/slv/axi4_slave_monitor.sv(189) @ 3895000: uvm_test_top.env.slave_agent.mon [axi4_slave_monitor] Write response sent: ID=0x0 ADDR=0x03127261 RESP=AXI4_RESP_OKAY
# UVM_INFO ../src/env/axi4_scoreboard.sv(108) @ 3895000: uvm_test_top.env.scb [axi4_scoreboard] Slave AXI4_WRITE received: ID=0x0 ADDR=0x03127261 LEN=188
# UVM_INFO ../src/mst/axi4_master_monitor.sv(210) @ 3895000: uvm_test_top.env.master_agent.mon [axi4_master_monitor] Write complete: ID=0x0 ADDR=0x03127261 RESP=AXI4_RESP_OKAY
# UVM_INFO ../src/env/axi4_scoreboard.sv(87) @ 3895000: uvm_test_top.env.scb [axi4_scoreboard] Master AXI4_WRITE received: ID=0x0 ADDR=0x03127261 LEN=188
# UVM_INFO ../src/env/axi4_scoreboard.sv(291) @ 3895000: uvm_test_top.env.scb [axi4_scoreboard] [WRITE] MATCH #2: ID=0x0 ADDR=0x03127261 LEN=188
# UVM_INFO ../src/env/axi4_scoreboard.sv(219) @ 3895000: uvm_test_top.env.scb [axi4_scoreboard] [REF_MEM_WRITE] Addr=0x03127261 Data=0xfd
# UVM_INFO ../src/env/axi4_scoreboard.sv(219) @ 3895000: uvm_test_top.env.scb [axi4_scoreboard] [REF_MEM_WRITE] Addr=0x03127262 Data=0xdc
# UVM_INFO ../src/env/axi4_scoreboard.sv(219) @ 3895000: uvm_test_top.env.scb [axi4_scoreboard] [REF_MEM_WRITE] Addr=0x03127264 Data=0xc7
# UVM_INFO ../src/env/axi4_scoreboard.sv(219) @ 3895000: uvm_test_top.env.scb [axi4_scoreboard] [REF_MEM_WRITE] Addr=0x03127265 Data=0x05
# UVM_INFO ../src/env/axi4_scoreboard.sv(219) @ 3895000: uvm_test_top.env.scb [axi4_scoreboard] [REF_MEM_WRITE] Addr=0x03127266 Data=0x59
# UVM_INFO ../src/env/axi4_scoreboard.sv(219) @ 3895000: uvm_test_top.env.scb [axi4_scoreboard] [REF_MEM_WRITE] Addr=0x03127269 Data=0xf5
# UVM_INFO ../src/env/axi4_scoreboard.sv(219) @ 3895000: uvm_test_top.env.scb [axi4_scoreboard] [REF_MEM_WRITE] Addr=0x0312726a Data=0xf8
# UVM_INFO ../src/env/axi4_scoreboard.sv(219) @ 3895000: uvm_test_top.env.scb [axi4_scoreboard] [REF_MEM_WRITE] Addr=0x0312726b Data=0x25
# UVM_INFO ../src/env/axi4_scoreboard.sv(219) @ 3895000: uvm_test_top.env.scb [axi4_scoreboard] [REF_MEM_WRITE] Addr=0x0312726c Data=0x69
# UVM_INFO ../src/env/axi4_scoreboard.sv(219) @ 3895000: uvm_test_top.env.scb [axi4_scoreboard] [REF_MEM_WRITE] Addr=0x0312726d Data=0xd6
# UVM_INFO ../src/env/axi4_scoreboard.sv(219) @ 3895000: uvm_test_top.env.scb [axi4_scoreboard] [REF_MEM_WRITE] Addr=0x0312726f Data=0xe2
# UVM_INFO ../src/env/axi4_scoreboard.sv(219) @ 3895000: uvm_test_top.env.scb [axi4_scoreboard] [REF_MEM_WRITE] Addr=0x03127270 Data=0x63
# UVM_INFO ../src/env/axi4_scoreboard.sv(219) @ 3895000: uvm_test_top.env.scb [axi4_scoreboard] [REF_MEM_WRITE] Addr=0x03127273 Data=0x9f
# UVM_INFO ../src/env/axi4_scoreboard.sv(219) @ 3895000: uvm_test_top.env.scb [axi4_scoreboard] [REF_MEM_WRITE] Addr=0x03127279 Data=0x40
# UVM_INFO ../src/env/axi4_scoreboard.sv(219) @ 3895000: uvm_test_top.env.scb [axi4_scoreboard] [REF_MEM_WRITE] Addr=0x0312727b Data=0x90
# UVM_INFO ../src/env/axi4_scoreboard.sv(219) @ 3895000: uvm_test_top.env.scb [axi4_scoreboard] [REF_MEM_WRITE] Addr=0x0312727d Data=0xa8
# UVM_INFO ../src/env/axi4_scoreboard.sv(219) @ 3895000: uvm_test_top.env.scb [axi4_scoreboard] [REF_MEM_WRITE] Addr=0x0312727e Data=0x1d
# UVM_INFO ../src/env/axi4_scoreboard.sv(219) @ 3895000: uvm_test_top.env.scb [axi4_scoreboard] [REF_MEM_WRITE] Addr=0x03127280 Data=0xb5
# UVM_INFO ../src/env/axi4_scoreboard.sv(219) @ 3895000: uvm_test_top.env.scb [axi4_scoreboard] [REF_MEM_WRITE] Addr=0x03127281 Data=0xd3
# UVM_INFO ../src/env/axi4_scoreboard.sv(219) @ 3895000: uvm_test_top.env.scb [axi4_scoreboard] [REF_MEM_WRITE] Addr=0x03127282 Data=0x08
# UVM_INFO ../src/env/axi4_scoreboard.sv(219) @ 3895000: uvm_test_top.env.scb [axi4_scoreboard] [REF_MEM_WRITE] Addr=0x03127285 Data=0xfd
# UVM_INFO ../src/env/axi4_scoreboard.sv(219) @ 3895000: uvm_test_top.env.scb [axi4_scoreboard] [REF_MEM_WRITE] Addr=0x03127287 Data=0xe7
# UVM_INFO ../src/env/axi4_scoreboard.sv(219) @ 3895000: uvm_test_top.env.scb [axi4_scoreboard] [REF_MEM_WRITE] Addr=0x03127288 Data=0x07
# UVM_INFO ../src/env/axi4_scoreboard.sv(219) @ 3895000: uvm_test_top.env.scb [axi4_scoreboard] [REF_MEM_WRITE] Addr=0x03127289 Data=0x9b
# UVM_INFO ../src/env/axi4_scoreboard.sv(219) @ 3895000: uvm_test_top.env.scb [axi4_scoreboard] [REF_MEM_WRITE] Addr=0x0312728c Data=0x33
# UVM_INFO ../src/env/axi4_scoreboard.sv(219) @ 3895000: uvm_test_top.env.scb [axi4_scoreboard] [REF_MEM_WRITE] Addr=0x0312728d Data=0xd2
# UVM_INFO ../src/env/axi4_scoreboard.sv(219) @ 3895000: uvm_test_top.env.scb [axi4_scoreboard] [REF_MEM_WRITE] Addr=0x0312728e Data=0xde
# UVM_INFO ../src/env/axi4_scoreboard.sv(219) @ 3895000: uvm_test_top.env.scb [axi4_scoreboard] [REF_MEM_WRITE] Addr=0x0312728f Data=0xa6
# UVM_INFO ../src/env/axi4_scoreboard.sv(219) @ 3895000: uvm_test_top.env.scb [axi4_scoreboard] [REF_MEM_WRITE] Addr=0x03127290 Data=0xdc
# UVM_INFO ../src/env/axi4_scoreboard.sv(219) @ 3895000: uvm_test_top.env.scb [axi4_scoreboard] [REF_MEM_WRITE] Addr=0x03127291 Data=0xa0
# UVM_INFO ../src/env/axi4_scoreboard.sv(219) @ 3895000: uvm_test_top.env.scb [axi4_scoreboard] [REF_MEM_WRITE] Addr=0x03127293 Data=0x00
# UVM_INFO ../src/env/axi4_scoreboard.sv(219) @ 3895000: uvm_test_top.env.scb [axi4_scoreboard] [REF_MEM_WRITE] Addr=0x03127297 Data=0xa0
# UVM_INFO ../src/env/axi4_scoreboard.sv(219) @ 3895000: uvm_test_top.env.scb [axi4_scoreboard] [REF_MEM_WRITE] Addr=0x03127298 Data=0x4c
# UVM_INFO ../src/env/axi4_scoreboard.sv(219) @ 3895000: uvm_test_top.env.scb [axi4_scoreboard] [REF_MEM_WRITE] Addr=0x0312729b Data=0x6d
# UVM_INFO ../src/env/axi4_scoreboard.sv(219) @ 3895000: uvm_test_top.env.scb [axi4_scoreboard] [REF_MEM_WRITE] Addr=0x0312729f Data=0x67
# UVM_INFO ../src/env/axi4_scoreboard.sv(219) @ 3895000: uvm_test_top.env.scb [axi4_scoreboard] [REF_MEM_WRITE] Addr=0x031272a1 Data=0xf0
# UVM_INFO ../src/env/axi4_scoreboard.sv(219) @ 3895000: uvm_test_top.env.scb [axi4_scoreboard] [REF_MEM_WRITE] Addr=0x031272a3 Data=0xe5
# UVM_INFO ../src/env/axi4_scoreboard.sv(219) @ 3895000: uvm_test_top.env.scb [axi4_scoreboard] [REF_MEM_WRITE] Addr=0x031272a6 Data=0x1e
# UVM_INFO ../src/env/axi4_scoreboard.sv(219) @ 3895000: uvm_test_top.env.scb [axi4_scoreboard] [REF_MEM_WRITE] Addr=0x031272a8 Data=0xeb
# UVM_INFO ../src/env/axi4_scoreboard.sv(219) @ 3895000: uvm_test_top.env.scb [axi4_scoreboard] [REF_MEM_WRITE] Addr=0x031272a9 Data=0x5d
# UVM_INFO ../src/env/axi4_scoreboard.sv(219) @ 3895000: uvm_test_top.env.scb [axi4_scoreboard] [REF_MEM_WRITE] Addr=0x031272ab Data=0xcf
# UVM_INFO ../src/env/axi4_scoreboard.sv(219) @ 3895000: uvm_test_top.env.scb [axi4_scoreboard] [REF_MEM_WRITE] Addr=0x031272ac Data=0x60
# UVM_INFO ../src/env/axi4_scoreboard.sv(219) @ 3895000: uvm_test_top.env.scb [axi4_scoreboard] [REF_MEM_WRITE] Addr=0x031272ad Data=0x6f
# UVM_INFO ../src/env/axi4_scoreboard.sv(219) @ 3895000: uvm_test_top.env.scb [axi4_scoreboard] [REF_MEM_WRITE] Addr=0x031272b2 Data=0x42
# UVM_INFO ../src/env/axi4_scoreboard.sv(219) @ 3895000: uvm_test_top.env.scb [axi4_scoreboard] [REF_MEM_WRITE] Addr=0x031272b3 Data=0x10
# UVM_INFO ../src/env/axi4_scoreboard.sv(219) @ 3895000: uvm_test_top.env.scb [axi4_scoreboard] [REF_MEM_WRITE] Addr=0x031272b6 Data=0x4a
# UVM_INFO ../src/env/axi4_scoreboard.sv(219) @ 3895000: uvm_test_top.env.scb [axi4_scoreboard] [REF_MEM_WRITE] Addr=0x031272b7 Data=0xa1
# UVM_INFO ../src/env/axi4_scoreboard.sv(219) @ 3895000: uvm_test_top.env.scb [axi4_scoreboard] [REF_MEM_WRITE] Addr=0x031272b8 Data=0xb5
# UVM_INFO ../src/env/axi4_scoreboard.sv(219) @ 3895000: uvm_test_top.env.scb [axi4_scoreboard] [REF_MEM_WRITE] Addr=0x031272b9 Data=0x0a
# UVM_INFO ../src/env/axi4_scoreboard.sv(219) @ 3895000: uvm_test_top.env.scb [axi4_scoreboard] [REF_MEM_WRITE] Addr=0x031272bd Data=0x9b
# UVM_INFO ../src/env/axi4_scoreboard.sv(219) @ 3895000: uvm_test_top.env.scb [axi4_scoreboard] [REF_MEM_WRITE] Addr=0x031272bf Data=0xe3
# UVM_INFO ../src/env/axi4_scoreboard.sv(219) @ 3895000: uvm_test_top.env.scb [axi4_scoreboard] [REF_MEM_WRITE] Addr=0x031272c3 Data=0x8e
# UVM_INFO ../src/env/axi4_scoreboard.sv(219) @ 3895000: uvm_test_top.env.scb [axi4_scoreboard] [REF_MEM_WRITE] Addr=0x031272c4 Data=0xc7
# UVM_INFO ../src/env/axi4_scoreboard.sv(219) @ 3895000: uvm_test_top.env.scb [axi4_scoreboard] [REF_MEM_WRITE] Addr=0x031272c6 Data=0xbb
# UVM_INFO ../src/env/axi4_scoreboard.sv(219) @ 3895000: uvm_test_top.env.scb [axi4_scoreboard] [REF_MEM_WRITE] Addr=0x031272c7 Data=0xa6
# UVM_INFO ../src/env/axi4_scoreboard.sv(219) @ 3895000: uvm_test_top.env.scb [axi4_scoreboard] [REF_MEM_WRITE] Addr=0x031272c8 Data=0xdf
# UVM_INFO ../src/env/axi4_scoreboard.sv(219) @ 3895000: uvm_test_top.env.scb [axi4_scoreboard] [REF_MEM_WRITE] Addr=0x031272cb Data=0xcf
# UVM_INFO ../src/env/axi4_scoreboard.sv(219) @ 3895000: uvm_test_top.env.scb [axi4_scoreboard] [REF_MEM_WRITE] Addr=0x031272cf Data=0xe9
# UVM_INFO ../src/env/axi4_scoreboard.sv(219) @ 3895000: uvm_test_top.env.scb [axi4_scoreboard] [REF_MEM_WRITE] Addr=0x031272d0 Data=0x50
# UVM_INFO ../src/env/axi4_scoreboard.sv(219) @ 3895000: uvm_test_top.env.scb [axi4_scoreboard] [REF_MEM_WRITE] Addr=0x031272d1 Data=0x86
# UVM_INFO ../src/env/axi4_scoreboard.sv(219) @ 3895000: uvm_test_top.env.scb [axi4_scoreboard] [REF_MEM_WRITE] Addr=0x031272d2 Data=0x87
# UVM_INFO ../src/env/axi4_scoreboard.sv(219) @ 3895000: uvm_test_top.env.scb [axi4_scoreboard] [REF_MEM_WRITE] Addr=0x031272da Data=0x54
# UVM_INFO ../src/env/axi4_scoreboard.sv(219) @ 3895000: uvm_test_top.env.scb [axi4_scoreboard] [REF_MEM_WRITE] Addr=0x031272db Data=0xc3
# UVM_INFO ../src/env/axi4_scoreboard.sv(219) @ 3895000: uvm_test_top.env.scb [axi4_scoreboard] [REF_MEM_WRITE] Addr=0x031272dd Data=0x4b
# UVM_INFO ../src/env/axi4_scoreboard.sv(219) @ 3895000: uvm_test_top.env.scb [axi4_scoreboard] [REF_MEM_WRITE] Addr=0x031272de Data=0x1a
# UVM_INFO ../src/env/axi4_scoreboard.sv(219) @ 3895000: uvm_test_top.env.scb [axi4_scoreboard] [REF_MEM_WRITE] Addr=0x031272e3 Data=0x8b
# UVM_INFO ../src/env/axi4_scoreboard.sv(219) @ 3895000: uvm_test_top.env.scb [axi4_scoreboard] [REF_MEM_WRITE] Addr=0x031272e5 Data=0x12
# UVM_INFO ../src/env/axi4_scoreboard.sv(219) @ 3895000: uvm_test_top.env.scb [axi4_scoreboard] [REF_MEM_WRITE] Addr=0x031272e9 Data=0x6c
# UVM_INFO ../src/env/axi4_scoreboard.sv(219) @ 3895000: uvm_test_top.env.scb [axi4_scoreboard] [REF_MEM_WRITE] Addr=0x031272ea Data=0x7c
# UVM_INFO ../src/env/axi4_scoreboard.sv(219) @ 3895000: uvm_test_top.env.scb [axi4_scoreboard] [REF_MEM_WRITE] Addr=0x031272eb Data=0x7d
# UVM_INFO ../src/env/axi4_scoreboard.sv(219) @ 3895000: uvm_test_top.env.scb [axi4_scoreboard] [REF_MEM_WRITE] Addr=0x031272ed Data=0xa5
# UVM_INFO ../src/env/axi4_scoreboard.sv(219) @ 3895000: uvm_test_top.env.scb [axi4_scoreboard] [REF_MEM_WRITE] Addr=0x031272ee Data=0xba
# UVM_INFO ../src/env/axi4_scoreboard.sv(219) @ 3895000: uvm_test_top.env.scb [axi4_scoreboard] [REF_MEM_WRITE] Addr=0x031272ef Data=0x9c
# UVM_INFO ../src/env/axi4_scoreboard.sv(219) @ 3895000: uvm_test_top.env.scb [axi4_scoreboard] [REF_MEM_WRITE] Addr=0x031272f0 Data=0xe4
# UVM_INFO ../src/env/axi4_scoreboard.sv(219) @ 3895000: uvm_test_top.env.scb [axi4_scoreboard] [REF_MEM_WRITE] Addr=0x031272f3 Data=0x93
# UVM_INFO ../src/env/axi4_scoreboard.sv(219) @ 3895000: uvm_test_top.env.scb [axi4_scoreboard] [REF_MEM_WRITE] Addr=0x031272f4 Data=0x0c
# UVM_INFO ../src/env/axi4_scoreboard.sv(219) @ 3895000: uvm_test_top.env.scb [axi4_scoreboard] [REF_MEM_WRITE] Addr=0x031272f8 Data=0xfb
# UVM_INFO ../src/env/axi4_scoreboard.sv(219) @ 3895000: uvm_test_top.env.scb [axi4_scoreboard] [REF_MEM_WRITE] Addr=0x031272f9 Data=0x4b
# UVM_INFO ../src/env/axi4_scoreboard.sv(219) @ 3895000: uvm_test_top.env.scb [axi4_scoreboard] [REF_MEM_WRITE] Addr=0x031272fe Data=0x4e
# UVM_INFO ../src/env/axi4_scoreboard.sv(219) @ 3895000: uvm_test_top.env.scb [axi4_scoreboard] [REF_MEM_WRITE] Addr=0x031272ff Data=0x2d
# UVM_INFO ../src/env/axi4_scoreboard.sv(219) @ 3895000: uvm_test_top.env.scb [axi4_scoreboard] [REF_MEM_WRITE] Addr=0x03127301 Data=0x6f
# UVM_INFO ../src/env/axi4_scoreboard.sv(219) @ 3895000: uvm_test_top.env.scb [axi4_scoreboard] [REF_MEM_WRITE] Addr=0x03127302 Data=0xc5
# UVM_INFO ../src/env/axi4_scoreboard.sv(219) @ 3895000: uvm_test_top.env.scb [axi4_scoreboard] [REF_MEM_WRITE] Addr=0x03127305 Data=0x78
# UVM_INFO ../src/env/axi4_scoreboard.sv(219) @ 3895000: uvm_test_top.env.scb [axi4_scoreboard] [REF_MEM_WRITE] Addr=0x03127306 Data=0xcb
# UVM_INFO ../src/env/axi4_scoreboard.sv(219) @ 3895000: uvm_test_top.env.scb [axi4_scoreboard] [REF_MEM_WRITE] Addr=0x03127308 Data=0x61
# UVM_INFO ../src/env/axi4_scoreboard.sv(219) @ 3895000: uvm_test_top.env.scb [axi4_scoreboard] [REF_MEM_WRITE] Addr=0x03127309 Data=0xa0
# UVM_INFO ../src/env/axi4_scoreboard.sv(219) @ 3895000: uvm_test_top.env.scb [axi4_scoreboard] [REF_MEM_WRITE] Addr=0x0312730d Data=0xcf
# UVM_INFO ../src/env/axi4_scoreboard.sv(219) @ 3895000: uvm_test_top.env.scb [axi4_scoreboard] [REF_MEM_WRITE] Addr=0x0312730e Data=0x63
# UVM_INFO ../src/env/axi4_scoreboard.sv(219) @ 3895000: uvm_test_top.env.scb [axi4_scoreboard] [REF_MEM_WRITE] Addr=0x03127310 Data=0x95
# UVM_INFO ../src/env/axi4_scoreboard.sv(219) @ 3895000: uvm_test_top.env.scb [axi4_scoreboard] [REF_MEM_WRITE] Addr=0x03127311 Data=0x2b
# UVM_INFO ../src/env/axi4_scoreboard.sv(219) @ 3895000: uvm_test_top.env.scb [axi4_scoreboard] [REF_MEM_WRITE] Addr=0x03127312 Data=0x2a
# UVM_INFO ../src/env/axi4_scoreboard.sv(219) @ 3895000: uvm_test_top.env.scb [axi4_scoreboard] [REF_MEM_WRITE] Addr=0x03127313 Data=0x17
# UVM_INFO ../src/env/axi4_scoreboard.sv(219) @ 3895000: uvm_test_top.env.scb [axi4_scoreboard] [REF_MEM_WRITE] Addr=0x03127316 Data=0x2b
# UVM_INFO ../src/env/axi4_scoreboard.sv(219) @ 3895000: uvm_test_top.env.scb [axi4_scoreboard] [REF_MEM_WRITE] Addr=0x0312731a Data=0x29
# UVM_INFO ../src/env/axi4_scoreboard.sv(219) @ 3895000: uvm_test_top.env.scb [axi4_scoreboard] [REF_MEM_WRITE] Addr=0x0312731b Data=0xb6
# UVM_INFO ../src/env/axi4_scoreboard.sv(219) @ 3895000: uvm_test_top.env.scb [axi4_scoreboard] [REF_MEM_WRITE] Addr=0x0312731d Data=0x44
# UVM_INFO ../src/env/axi4_scoreboard.sv(219) @ 3895000: uvm_test_top.env.scb [axi4_scoreboard] [REF_MEM_WRITE] Addr=0x0312731e Data=0xc4
# UVM_INFO ../src/env/axi4_scoreboard.sv(219) @ 3895000: uvm_test_top.env.scb [axi4_scoreboard] [REF_MEM_WRITE] Addr=0x03127321 Data=0xc9
# UVM_INFO ../src/env/axi4_scoreboard.sv(219) @ 3895000: uvm_test_top.env.scb [axi4_scoreboard] [REF_MEM_WRITE] Addr=0x03127324 Data=0xa7
# UVM_INFO ../src/env/axi4_scoreboard.sv(219) @ 3895000: uvm_test_top.env.scb [axi4_scoreboard] [REF_MEM_WRITE] Addr=0x03127325 Data=0xc8
# UVM_INFO ../src/env/axi4_scoreboard.sv(219) @ 3895000: uvm_test_top.env.scb [axi4_scoreboard] [REF_MEM_WRITE] Addr=0x03127327 Data=0xe9
# UVM_INFO ../src/env/axi4_scoreboard.sv(219) @ 3895000: uvm_test_top.env.scb [axi4_scoreboard] [REF_MEM_WRITE] Addr=0x03127330 Data=0x54
# UVM_INFO ../src/env/axi4_scoreboard.sv(219) @ 3895000: uvm_test_top.env.scb [axi4_scoreboard] [REF_MEM_WRITE] Addr=0x03127331 Data=0xc6
# UVM_INFO ../src/env/axi4_scoreboard.sv(219) @ 3895000: uvm_test_top.env.scb [axi4_scoreboard] [REF_MEM_WRITE] Addr=0x03127334 Data=0x4e
# UVM_INFO ../src/env/axi4_scoreboard.sv(219) @ 3895000: uvm_test_top.env.scb [axi4_scoreboard] [REF_MEM_WRITE] Addr=0x03127335 Data=0x3b
# UVM_INFO ../src/env/axi4_scoreboard.sv(219) @ 3895000: uvm_test_top.env.scb [axi4_scoreboard] [REF_MEM_WRITE] Addr=0x03127336 Data=0x4b
# UVM_INFO ../src/env/axi4_scoreboard.sv(219) @ 3895000: uvm_test_top.env.scb [axi4_scoreboard] [REF_MEM_WRITE] Addr=0x03127338 Data=0x69
# UVM_INFO ../src/env/axi4_scoreboard.sv(219) @ 3895000: uvm_test_top.env.scb [axi4_scoreboard] [REF_MEM_WRITE] Addr=0x0312733b Data=0x5b
# UVM_INFO ../src/env/axi4_scoreboard.sv(219) @ 3895000: uvm_test_top.env.scb [axi4_scoreboard] [REF_MEM_WRITE] Addr=0x0312733c Data=0x80
# UVM_INFO ../src/env/axi4_scoreboard.sv(219) @ 3895000: uvm_test_top.env.scb [axi4_scoreboard] [REF_MEM_WRITE] Addr=0x0312733f Data=0x61
# UVM_INFO ../src/env/axi4_scoreboard.sv(219) @ 3895000: uvm_test_top.env.scb [axi4_scoreboard] [REF_MEM_WRITE] Addr=0x03127340 Data=0xf4
# UVM_INFO ../src/env/axi4_scoreboard.sv(219) @ 3895000: uvm_test_top.env.scb [axi4_scoreboard] [REF_MEM_WRITE] Addr=0x03127341 Data=0x3a
# UVM_INFO ../src/env/axi4_scoreboard.sv(219) @ 3895000: uvm_test_top.env.scb [axi4_scoreboard] [REF_MEM_WRITE] Addr=0x03127342 Data=0xbf
# UVM_INFO ../src/env/axi4_scoreboard.sv(219) @ 3895000: uvm_test_top.env.scb [axi4_scoreboard] [REF_MEM_WRITE] Addr=0x03127343 Data=0x06
# UVM_INFO ../src/env/axi4_scoreboard.sv(219) @ 3895000: uvm_test_top.env.scb [axi4_scoreboard] [REF_MEM_WRITE] Addr=0x03127345 Data=0xa5
# UVM_INFO ../src/env/axi4_scoreboard.sv(219) @ 3895000: uvm_test_top.env.scb [axi4_scoreboard] [REF_MEM_WRITE] Addr=0x03127346 Data=0xd6
# UVM_INFO ../src/env/axi4_scoreboard.sv(219) @ 3895000: uvm_test_top.env.scb [axi4_scoreboard] [REF_MEM_WRITE] Addr=0x03127347 Data=0xe6
# UVM_INFO ../src/env/axi4_scoreboard.sv(219) @ 3895000: uvm_test_top.env.scb [axi4_scoreboard] [REF_MEM_WRITE] Addr=0x03127348 Data=0x84
# UVM_INFO ../src/env/axi4_scoreboard.sv(219) @ 3895000: uvm_test_top.env.scb [axi4_scoreboard] [REF_MEM_WRITE] Addr=0x03127349 Data=0xe6
# UVM_INFO ../src/env/axi4_scoreboard.sv(219) @ 3895000: uvm_test_top.env.scb [axi4_scoreboard] [REF_MEM_WRITE] Addr=0x0312734b Data=0x26
# UVM_INFO ../src/env/axi4_scoreboard.sv(219) @ 3895000: uvm_test_top.env.scb [axi4_scoreboard] [REF_MEM_WRITE] Addr=0x03127351 Data=0x64
# UVM_INFO ../src/env/axi4_scoreboard.sv(219) @ 3895000: uvm_test_top.env.scb [axi4_scoreboard] [REF_MEM_WRITE] Addr=0x03127353 Data=0x80
# UVM_INFO ../src/env/axi4_scoreboard.sv(219) @ 3895000: uvm_test_top.env.scb [axi4_scoreboard] [REF_MEM_WRITE] Addr=0x03127354 Data=0x63
# UVM_INFO ../src/env/axi4_scoreboard.sv(219) @ 3895000: uvm_test_top.env.scb [axi4_scoreboard] [REF_MEM_WRITE] Addr=0x03127355 Data=0x0e
# UVM_INFO ../src/env/axi4_scoreboard.sv(219) @ 3895000: uvm_test_top.env.scb [axi4_scoreboard] [REF_MEM_WRITE] Addr=0x03127356 Data=0x45
# UVM_INFO ../src/env/axi4_scoreboard.sv(219) @ 3895000: uvm_test_top.env.scb [axi4_scoreboard] [REF_MEM_WRITE] Addr=0x0312735d Data=0x58
# UVM_INFO ../src/env/axi4_scoreboard.sv(219) @ 3895000: uvm_test_top.env.scb [axi4_scoreboard] [REF_MEM_WRITE] Addr=0x03127360 Data=0xf1
# UVM_INFO ../src/env/axi4_scoreboard.sv(219) @ 3895000: uvm_test_top.env.scb [axi4_scoreboard] [REF_MEM_WRITE] Addr=0x03127363 Data=0xb0
# UVM_INFO ../src/env/axi4_scoreboard.sv(219) @ 3895000: uvm_test_top.env.scb [axi4_scoreboard] [REF_MEM_WRITE] Addr=0x03127366 Data=0x80
# UVM_INFO ../src/env/axi4_scoreboard.sv(219) @ 3895000: uvm_test_top.env.scb [axi4_scoreboard] [REF_MEM_WRITE] Addr=0x03127367 Data=0x94
# UVM_INFO ../src/env/axi4_scoreboard.sv(219) @ 3895000: uvm_test_top.env.scb [axi4_scoreboard] [REF_MEM_WRITE] Addr=0x03127368 Data=0x5c
# UVM_INFO ../src/env/axi4_scoreboard.sv(219) @ 3895000: uvm_test_top.env.scb [axi4_scoreboard] [REF_MEM_WRITE] Addr=0x03127369 Data=0xe3
# UVM_INFO ../src/env/axi4_scoreboard.sv(219) @ 3895000: uvm_test_top.env.scb [axi4_scoreboard] [REF_MEM_WRITE] Addr=0x0312736c Data=0xfb
# UVM_INFO ../src/env/axi4_scoreboard.sv(219) @ 3895000: uvm_test_top.env.scb [axi4_scoreboard] [REF_MEM_WRITE] Addr=0x03127371 Data=0xca
# UVM_INFO ../src/env/axi4_scoreboard.sv(219) @ 3895000: uvm_test_top.env.scb [axi4_scoreboard] [REF_MEM_WRITE] Addr=0x03127373 Data=0x45
# UVM_INFO ../src/env/axi4_scoreboard.sv(219) @ 3895000: uvm_test_top.env.scb [axi4_scoreboard] [REF_MEM_WRITE] Addr=0x03127376 Data=0x05
# UVM_INFO ../src/env/axi4_scoreboard.sv(219) @ 3895000: uvm_test_top.env.scb [axi4_scoreboard] [REF_MEM_WRITE] Addr=0x03127377 Data=0x80
# UVM_INFO ../src/env/axi4_scoreboard.sv(219) @ 3895000: uvm_test_top.env.scb [axi4_scoreboard] [REF_MEM_WRITE] Addr=0x03127379 Data=0x66
# UVM_INFO ../src/env/axi4_scoreboard.sv(219) @ 3895000: uvm_test_top.env.scb [axi4_scoreboard] [REF_MEM_WRITE] Addr=0x0312737b Data=0xc8
# UVM_INFO ../src/env/axi4_scoreboard.sv(219) @ 3895000: uvm_test_top.env.scb [axi4_scoreboard] [REF_MEM_WRITE] Addr=0x0312737c Data=0xad
# UVM_INFO ../src/env/axi4_scoreboard.sv(219) @ 3895000: uvm_test_top.env.scb [axi4_scoreboard] [REF_MEM_WRITE] Addr=0x0312737e Data=0x90
# UVM_INFO ../src/env/axi4_scoreboard.sv(219) @ 3895000: uvm_test_top.env.scb [axi4_scoreboard] [REF_MEM_WRITE] Addr=0x0312737f Data=0xee
# UVM_INFO ../src/env/axi4_scoreboard.sv(219) @ 3895000: uvm_test_top.env.scb [axi4_scoreboard] [REF_MEM_WRITE] Addr=0x03127380 Data=0x3c
# UVM_INFO ../src/env/axi4_scoreboard.sv(219) @ 3895000: uvm_test_top.env.scb [axi4_scoreboard] [REF_MEM_WRITE] Addr=0x03127384 Data=0xed
# UVM_INFO ../src/env/axi4_scoreboard.sv(219) @ 3895000: uvm_test_top.env.scb [axi4_scoreboard] [REF_MEM_WRITE] Addr=0x03127385 Data=0x7b
# UVM_INFO ../src/env/axi4_scoreboard.sv(219) @ 3895000: uvm_test_top.env.scb [axi4_scoreboard] [REF_MEM_WRITE] Addr=0x03127387 Data=0xdf
# UVM_INFO ../src/env/axi4_scoreboard.sv(219) @ 3895000: uvm_test_top.env.scb [axi4_scoreboard] [REF_MEM_WRITE] Addr=0x03127388 Data=0xc0
# UVM_INFO ../src/env/axi4_scoreboard.sv(219) @ 3895000: uvm_test_top.env.scb [axi4_scoreboard] [REF_MEM_WRITE] Addr=0x0312738b Data=0x79
# UVM_INFO ../src/env/axi4_scoreboard.sv(219) @ 3895000: uvm_test_top.env.scb [axi4_scoreboard] [REF_MEM_WRITE] Addr=0x0312738c Data=0x3d
# UVM_INFO ../src/env/axi4_scoreboard.sv(219) @ 3895000: uvm_test_top.env.scb [axi4_scoreboard] [REF_MEM_WRITE] Addr=0x0312738f Data=0x32
# UVM_INFO ../src/env/axi4_scoreboard.sv(219) @ 3895000: uvm_test_top.env.scb [axi4_scoreboard] [REF_MEM_WRITE] Addr=0x03127392 Data=0x76
# UVM_INFO ../src/env/axi4_scoreboard.sv(219) @ 3895000: uvm_test_top.env.scb [axi4_scoreboard] [REF_MEM_WRITE] Addr=0x03127394 Data=0x58
# UVM_INFO ../src/env/axi4_scoreboard.sv(219) @ 3895000: uvm_test_top.env.scb [axi4_scoreboard] [REF_MEM_WRITE] Addr=0x03127396 Data=0xea
# UVM_INFO ../src/env/axi4_scoreboard.sv(219) @ 3895000: uvm_test_top.env.scb [axi4_scoreboard] [REF_MEM_WRITE] Addr=0x0312739a Data=0x8f
# UVM_INFO ../src/env/axi4_scoreboard.sv(219) @ 3895000: uvm_test_top.env.scb [axi4_scoreboard] [REF_MEM_WRITE] Addr=0x0312739b Data=0x97
# UVM_INFO ../src/env/axi4_scoreboard.sv(219) @ 3895000: uvm_test_top.env.scb [axi4_scoreboard] [REF_MEM_WRITE] Addr=0x0312739c Data=0x64
# UVM_INFO ../src/env/axi4_scoreboard.sv(219) @ 3895000: uvm_test_top.env.scb [axi4_scoreboard] [REF_MEM_WRITE] Addr=0x0312739d Data=0x51
# UVM_INFO ../src/env/axi4_scoreboard.sv(219) @ 3895000: uvm_test_top.env.scb [axi4_scoreboard] [REF_MEM_WRITE] Addr=0x0312739f Data=0x18
# UVM_INFO ../src/env/axi4_scoreboard.sv(219) @ 3895000: uvm_test_top.env.scb [axi4_scoreboard] [REF_MEM_WRITE] Addr=0x031273a0 Data=0x2c
# UVM_INFO ../src/env/axi4_scoreboard.sv(219) @ 3895000: uvm_test_top.env.scb [axi4_scoreboard] [REF_MEM_WRITE] Addr=0x031273a1 Data=0x35
# UVM_INFO ../src/env/axi4_scoreboard.sv(219) @ 3895000: uvm_test_top.env.scb [axi4_scoreboard] [REF_MEM_WRITE] Addr=0x031273a3 Data=0x4c
# UVM_INFO ../src/env/axi4_scoreboard.sv(219) @ 3895000: uvm_test_top.env.scb [axi4_scoreboard] [REF_MEM_WRITE] Addr=0x031273a6 Data=0x33
# UVM_INFO ../src/env/axi4_scoreboard.sv(219) @ 3895000: uvm_test_top.env.scb [axi4_scoreboard] [REF_MEM_WRITE] Addr=0x031273a9 Data=0x9e
# UVM_INFO ../src/env/axi4_scoreboard.sv(219) @ 3895000: uvm_test_top.env.scb [axi4_scoreboard] [REF_MEM_WRITE] Addr=0x031273aa Data=0xd8
# UVM_INFO ../src/env/axi4_scoreboard.sv(219) @ 3895000: uvm_test_top.env.scb [axi4_scoreboard] [REF_MEM_WRITE] Addr=0x031273ad Data=0x60
# UVM_INFO ../src/env/axi4_scoreboard.sv(219) @ 3895000: uvm_test_top.env.scb [axi4_scoreboard] [REF_MEM_WRITE] Addr=0x031273ae Data=0x43
# UVM_INFO ../src/env/axi4_scoreboard.sv(219) @ 3895000: uvm_test_top.env.scb [axi4_scoreboard] [REF_MEM_WRITE] Addr=0x031273af Data=0x47
# UVM_INFO ../src/env/axi4_scoreboard.sv(219) @ 3895000: uvm_test_top.env.scb [axi4_scoreboard] [REF_MEM_WRITE] Addr=0x031273b0 Data=0x90
# UVM_INFO ../src/env/axi4_scoreboard.sv(219) @ 3895000: uvm_test_top.env.scb [axi4_scoreboard] [REF_MEM_WRITE] Addr=0x031273b3 Data=0x6e
# UVM_INFO ../src/env/axi4_scoreboard.sv(219) @ 3895000: uvm_test_top.env.scb [axi4_scoreboard] [REF_MEM_WRITE] Addr=0x031273b4 Data=0x02
# UVM_INFO ../src/env/axi4_scoreboard.sv(219) @ 3895000: uvm_test_top.env.scb [axi4_scoreboard] [REF_MEM_WRITE] Addr=0x031273b5 Data=0xcb
# UVM_INFO ../src/env/axi4_scoreboard.sv(219) @ 3895000: uvm_test_top.env.scb [axi4_scoreboard] [REF_MEM_WRITE] Addr=0x031273b6 Data=0xd9
# UVM_INFO ../src/env/axi4_scoreboard.sv(219) @ 3895000: uvm_test_top.env.scb [axi4_scoreboard] [REF_MEM_WRITE] Addr=0x031273ba Data=0x84
# UVM_INFO ../src/env/axi4_scoreboard.sv(219) @ 3895000: uvm_test_top.env.scb [axi4_scoreboard] [REF_MEM_WRITE] Addr=0x031273bd Data=0x4b
# UVM_INFO ../src/env/axi4_scoreboard.sv(219) @ 3895000: uvm_test_top.env.scb [axi4_scoreboard] [REF_MEM_WRITE] Addr=0x031273bf Data=0x02
# UVM_INFO ../src/env/axi4_scoreboard.sv(219) @ 3895000: uvm_test_top.env.scb [axi4_scoreboard] [REF_MEM_WRITE] Addr=0x031273c2 Data=0x50
# UVM_INFO ../src/env/axi4_scoreboard.sv(219) @ 3895000: uvm_test_top.env.scb [axi4_scoreboard] [REF_MEM_WRITE] Addr=0x031273c3 Data=0x69
# UVM_INFO ../src/env/axi4_scoreboard.sv(219) @ 3895000: uvm_test_top.env.scb [axi4_scoreboard] [REF_MEM_WRITE] Addr=0x031273c4 Data=0x70
# UVM_INFO ../src/env/axi4_scoreboard.sv(219) @ 3895000: uvm_test_top.env.scb [axi4_scoreboard] [REF_MEM_WRITE] Addr=0x031273c7 Data=0x39
# UVM_INFO ../src/env/axi4_scoreboard.sv(219) @ 3895000: uvm_test_top.env.scb [axi4_scoreboard] [REF_MEM_WRITE] Addr=0x031273c8 Data=0x60
# UVM_INFO ../src/env/axi4_scoreboard.sv(219) @ 3895000: uvm_test_top.env.scb [axi4_scoreboard] [REF_MEM_WRITE] Addr=0x031273c9 Data=0x38
# UVM_INFO ../src/env/axi4_scoreboard.sv(219) @ 3895000: uvm_test_top.env.scb [axi4_scoreboard] [REF_MEM_WRITE] Addr=0x031273ca Data=0x61
# UVM_INFO ../src/env/axi4_scoreboard.sv(219) @ 3895000: uvm_test_top.env.scb [axi4_scoreboard] [REF_MEM_WRITE] Addr=0x031273cb Data=0x65
# UVM_INFO ../src/env/axi4_scoreboard.sv(219) @ 3895000: uvm_test_top.env.scb [axi4_scoreboard] [REF_MEM_WRITE] Addr=0x031273cc Data=0xa1
# UVM_INFO ../src/env/axi4_scoreboard.sv(219) @ 3895000: uvm_test_top.env.scb [axi4_scoreboard] [REF_MEM_WRITE] Addr=0x031273cf Data=0xcd
# UVM_INFO ../src/env/axi4_scoreboard.sv(219) @ 3895000: uvm_test_top.env.scb [axi4_scoreboard] [REF_MEM_WRITE] Addr=0x031273d0 Data=0xf6
# UVM_INFO ../src/env/axi4_scoreboard.sv(219) @ 3895000: uvm_test_top.env.scb [axi4_scoreboard] [REF_MEM_WRITE] Addr=0x031273d1 Data=0x62
# UVM_INFO ../src/env/axi4_scoreboard.sv(219) @ 3895000: uvm_test_top.env.scb [axi4_scoreboard] [REF_MEM_WRITE] Addr=0x031273d7 Data=0x10
# UVM_INFO ../src/env/axi4_scoreboard.sv(219) @ 3895000: uvm_test_top.env.scb [axi4_scoreboard] [REF_MEM_WRITE] Addr=0x031273d8 Data=0xc5
# UVM_INFO ../src/env/axi4_scoreboard.sv(219) @ 3895000: uvm_test_top.env.scb [axi4_scoreboard] [REF_MEM_WRITE] Addr=0x031273d9 Data=0x7f
# UVM_INFO ../src/env/axi4_scoreboard.sv(219) @ 3895000: uvm_test_top.env.scb [axi4_scoreboard] [REF_MEM_WRITE] Addr=0x031273da Data=0x64
# UVM_INFO ../src/env/axi4_scoreboard.sv(219) @ 3895000: uvm_test_top.env.scb [axi4_scoreboard] [REF_MEM_WRITE] Addr=0x031273dc Data=0x8d
# UVM_INFO ../src/env/axi4_scoreboard.sv(219) @ 3895000: uvm_test_top.env.scb [axi4_scoreboard] [REF_MEM_WRITE] Addr=0x031273dd Data=0x4b
# UVM_INFO ../src/env/axi4_scoreboard.sv(219) @ 3895000: uvm_test_top.env.scb [axi4_scoreboard] [REF_MEM_WRITE] Addr=0x031273e1 Data=0x65
# UVM_INFO ../src/env/axi4_scoreboard.sv(219) @ 3895000: uvm_test_top.env.scb [axi4_scoreboard] [REF_MEM_WRITE] Addr=0x031273e3 Data=0x74
# UVM_INFO ../src/env/axi4_scoreboard.sv(219) @ 3895000: uvm_test_top.env.scb [axi4_scoreboard] [REF_MEM_WRITE] Addr=0x031273e4 Data=0xe4
# UVM_INFO ../src/env/axi4_scoreboard.sv(219) @ 3895000: uvm_test_top.env.scb [axi4_scoreboard] [REF_MEM_WRITE] Addr=0x031273e5 Data=0x9c
# UVM_INFO ../src/env/axi4_scoreboard.sv(219) @ 3895000: uvm_test_top.env.scb [axi4_scoreboard] [REF_MEM_WRITE] Addr=0x031273e9 Data=0x25
# UVM_INFO ../src/env/axi4_scoreboard.sv(219) @ 3895000: uvm_test_top.env.scb [axi4_scoreboard] [REF_MEM_WRITE] Addr=0x031273eb Data=0x75
# UVM_INFO ../src/env/axi4_scoreboard.sv(219) @ 3895000: uvm_test_top.env.scb [axi4_scoreboard] [REF_MEM_WRITE] Addr=0x031273ed Data=0xa0
# UVM_INFO ../src/env/axi4_scoreboard.sv(219) @ 3895000: uvm_test_top.env.scb [axi4_scoreboard] [REF_MEM_WRITE] Addr=0x031273f3 Data=0xb6
# UVM_INFO ../src/env/axi4_scoreboard.sv(219) @ 3895000: uvm_test_top.env.scb [axi4_scoreboard] [REF_MEM_WRITE] Addr=0x031273f4 Data=0x2a
# UVM_INFO ../src/env/axi4_scoreboard.sv(219) @ 3895000: uvm_test_top.env.scb [axi4_scoreboard] [REF_MEM_WRITE] Addr=0x031273f6 Data=0x90
# UVM_INFO ../src/env/axi4_scoreboard.sv(219) @ 3895000: uvm_test_top.env.scb [axi4_scoreboard] [REF_MEM_WRITE] Addr=0x031273f7 Data=0xa6
# UVM_INFO ../src/env/axi4_scoreboard.sv(219) @ 3895000: uvm_test_top.env.scb [axi4_scoreboard] [REF_MEM_WRITE] Addr=0x031273f8 Data=0x01
# UVM_INFO ../src/env/axi4_scoreboard.sv(219) @ 3895000: uvm_test_top.env.scb [axi4_scoreboard] [REF_MEM_WRITE] Addr=0x031273f9 Data=0x08
# UVM_INFO ../src/env/axi4_scoreboard.sv(219) @ 3895000: uvm_test_top.env.scb [axi4_scoreboard] [REF_MEM_WRITE] Addr=0x031273fa Data=0xad
# UVM_INFO ../src/env/axi4_scoreboard.sv(219) @ 3895000: uvm_test_top.env.scb [axi4_scoreboard] [REF_MEM_WRITE] Addr=0x031273fb Data=0x51
# UVM_INFO ../src/env/axi4_scoreboard.sv(219) @ 3895000: uvm_test_top.env.scb [axi4_scoreboard] [REF_MEM_WRITE] Addr=0x031273fc Data=0x4a
# UVM_INFO ../src/env/axi4_scoreboard.sv(219) @ 3895000: uvm_test_top.env.scb [axi4_scoreboard] [REF_MEM_WRITE] Addr=0x031273ff Data=0x0a
# UVM_INFO ../src/env/axi4_scoreboard.sv(219) @ 3895000: uvm_test_top.env.scb [axi4_scoreboard] [REF_MEM_WRITE] Addr=0x03127401 Data=0x2a
# UVM_INFO ../src/env/axi4_scoreboard.sv(219) @ 3895000: uvm_test_top.env.scb [axi4_scoreboard] [REF_MEM_WRITE] Addr=0x03127403 Data=0xa0
# UVM_INFO ../src/env/axi4_scoreboard.sv(219) @ 3895000: uvm_test_top.env.scb [axi4_scoreboard] [REF_MEM_WRITE] Addr=0x03127404 Data=0x93
# UVM_INFO ../src/env/axi4_scoreboard.sv(219) @ 3895000: uvm_test_top.env.scb [axi4_scoreboard] [REF_MEM_WRITE] Addr=0x03127405 Data=0xb1
# UVM_INFO ../src/env/axi4_scoreboard.sv(219) @ 3895000: uvm_test_top.env.scb [axi4_scoreboard] [REF_MEM_WRITE] Addr=0x03127407 Data=0xb9
# UVM_INFO ../src/env/axi4_scoreboard.sv(219) @ 3895000: uvm_test_top.env.scb [axi4_scoreboard] [REF_MEM_WRITE] Addr=0x03127408 Data=0xa3
# UVM_INFO ../src/env/axi4_scoreboard.sv(219) @ 3895000: uvm_test_top.env.scb [axi4_scoreboard] [REF_MEM_WRITE] Addr=0x03127409 Data=0x67
# UVM_INFO ../src/env/axi4_scoreboard.sv(219) @ 3895000: uvm_test_top.env.scb [axi4_scoreboard] [REF_MEM_WRITE] Addr=0x0312740a Data=0xfc
# UVM_INFO ../src/env/axi4_scoreboard.sv(219) @ 3895000: uvm_test_top.env.scb [axi4_scoreboard] [REF_MEM_WRITE] Addr=0x0312740b Data=0xdb
# UVM_INFO ../src/env/axi4_scoreboard.sv(219) @ 3895000: uvm_test_top.env.scb [axi4_scoreboard] [REF_MEM_WRITE] Addr=0x0312740c Data=0xee
# UVM_INFO ../src/env/axi4_scoreboard.sv(219) @ 3895000: uvm_test_top.env.scb [axi4_scoreboard] [REF_MEM_WRITE] Addr=0x03127410 Data=0x7b
# UVM_INFO ../src/env/axi4_scoreboard.sv(219) @ 3895000: uvm_test_top.env.scb [axi4_scoreboard] [REF_MEM_WRITE] Addr=0x03127411 Data=0xb0
# UVM_INFO ../src/env/axi4_scoreboard.sv(219) @ 3895000: uvm_test_top.env.scb [axi4_scoreboard] [REF_MEM_WRITE] Addr=0x03127419 Data=0x72
# UVM_INFO ../src/env/axi4_scoreboard.sv(219) @ 3895000: uvm_test_top.env.scb [axi4_scoreboard] [REF_MEM_WRITE] Addr=0x0312741b Data=0xc6
# UVM_INFO ../src/env/axi4_scoreboard.sv(219) @ 3895000: uvm_test_top.env.scb [axi4_scoreboard] [REF_MEM_WRITE] Addr=0x0312741c Data=0x20
# UVM_INFO ../src/env/axi4_scoreboard.sv(219) @ 3895000: uvm_test_top.env.scb [axi4_scoreboard] [REF_MEM_WRITE] Addr=0x0312741f Data=0x18
# UVM_INFO ../src/env/axi4_scoreboard.sv(219) @ 3895000: uvm_test_top.env.scb [axi4_scoreboard] [REF_MEM_WRITE] Addr=0x03127420 Data=0x9e
# UVM_INFO ../src/env/axi4_scoreboard.sv(219) @ 3895000: uvm_test_top.env.scb [axi4_scoreboard] [REF_MEM_WRITE] Addr=0x03127421 Data=0x48
# UVM_INFO ../src/env/axi4_scoreboard.sv(219) @ 3895000: uvm_test_top.env.scb [axi4_scoreboard] [REF_MEM_WRITE] Addr=0x03127423 Data=0x34
# UVM_INFO ../src/env/axi4_scoreboard.sv(219) @ 3895000: uvm_test_top.env.scb [axi4_scoreboard] [REF_MEM_WRITE] Addr=0x03127424 Data=0x57
# UVM_INFO ../src/env/axi4_scoreboard.sv(219) @ 3895000: uvm_test_top.env.scb [axi4_scoreboard] [REF_MEM_WRITE] Addr=0x03127426 Data=0x81
# UVM_INFO ../src/env/axi4_scoreboard.sv(219) @ 3895000: uvm_test_top.env.scb [axi4_scoreboard] [REF_MEM_WRITE] Addr=0x03127427 Data=0x49
# UVM_INFO ../src/env/axi4_scoreboard.sv(219) @ 3895000: uvm_test_top.env.scb [axi4_scoreboard] [REF_MEM_WRITE] Addr=0x03127428 Data=0xed
# UVM_INFO ../src/env/axi4_scoreboard.sv(219) @ 3895000: uvm_test_top.env.scb [axi4_scoreboard] [REF_MEM_WRITE] Addr=0x0312742a Data=0xfb
# UVM_INFO ../src/env/axi4_scoreboard.sv(219) @ 3895000: uvm_test_top.env.scb [axi4_scoreboard] [REF_MEM_WRITE] Addr=0x0312742f Data=0x95
# UVM_INFO ../src/env/axi4_scoreboard.sv(219) @ 3895000: uvm_test_top.env.scb [axi4_scoreboard] [REF_MEM_WRITE] Addr=0x03127430 Data=0x58
# UVM_INFO ../src/env/axi4_scoreboard.sv(219) @ 3895000: uvm_test_top.env.scb [axi4_scoreboard] [REF_MEM_WRITE] Addr=0x0312743a Data=0xe0
# UVM_INFO ../src/env/axi4_scoreboard.sv(219) @ 3895000: uvm_test_top.env.scb [axi4_scoreboard] [REF_MEM_WRITE] Addr=0x0312743c Data=0x6b
# UVM_INFO ../src/env/axi4_scoreboard.sv(219) @ 3895000: uvm_test_top.env.scb [axi4_scoreboard] [REF_MEM_WRITE] Addr=0x0312743e Data=0x57
# UVM_INFO ../src/env/axi4_scoreboard.sv(219) @ 3895000: uvm_test_top.env.scb [axi4_scoreboard] [REF_MEM_WRITE] Addr=0x03127440 Data=0xa5
# UVM_INFO ../src/env/axi4_scoreboard.sv(219) @ 3895000: uvm_test_top.env.scb [axi4_scoreboard] [REF_MEM_WRITE] Addr=0x03127441 Data=0xec
# UVM_INFO ../src/env/axi4_scoreboard.sv(219) @ 3895000: uvm_test_top.env.scb [axi4_scoreboard] [REF_MEM_WRITE] Addr=0x03127443 Data=0x4f
# UVM_INFO ../src/env/axi4_scoreboard.sv(219) @ 3895000: uvm_test_top.env.scb [axi4_scoreboard] [REF_MEM_WRITE] Addr=0x03127447 Data=0xa6
# UVM_INFO ../src/env/axi4_scoreboard.sv(219) @ 3895000: uvm_test_top.env.scb [axi4_scoreboard] [REF_MEM_WRITE] Addr=0x0312744b Data=0xfc
# UVM_INFO ../src/env/axi4_scoreboard.sv(219) @ 3895000: uvm_test_top.env.scb [axi4_scoreboard] [REF_MEM_WRITE] Addr=0x0312744f Data=0x11
# UVM_INFO ../src/env/axi4_scoreboard.sv(219) @ 3895000: uvm_test_top.env.scb [axi4_scoreboard] [REF_MEM_WRITE] Addr=0x03127450 Data=0xa3
# UVM_INFO ../src/env/axi4_scoreboard.sv(219) @ 3895000: uvm_test_top.env.scb [axi4_scoreboard] [REF_MEM_WRITE] Addr=0x03127451 Data=0x8a
# UVM_INFO ../src/env/axi4_scoreboard.sv(219) @ 3895000: uvm_test_top.env.scb [axi4_scoreboard] [REF_MEM_WRITE] Addr=0x03127453 Data=0x6d
# UVM_INFO ../src/env/axi4_scoreboard.sv(219) @ 3895000: uvm_test_top.env.scb [axi4_scoreboard] [REF_MEM_WRITE] Addr=0x03127455 Data=0xcf
# UVM_INFO ../src/env/axi4_scoreboard.sv(219) @ 3895000: uvm_test_top.env.scb [axi4_scoreboard] [REF_MEM_WRITE] Addr=0x03127459 Data=0x38
# UVM_INFO ../src/env/axi4_scoreboard.sv(219) @ 3895000: uvm_test_top.env.scb [axi4_scoreboard] [REF_MEM_WRITE] Addr=0x0312745c Data=0x07
# UVM_INFO ../src/env/axi4_scoreboard.sv(219) @ 3895000: uvm_test_top.env.scb [axi4_scoreboard] [REF_MEM_WRITE] Addr=0x0312745e Data=0x84
# UVM_INFO ../src/env/axi4_scoreboard.sv(219) @ 3895000: uvm_test_top.env.scb [axi4_scoreboard] [REF_MEM_WRITE] Addr=0x0312745f Data=0x96
# UVM_INFO ../src/env/axi4_scoreboard.sv(219) @ 3895000: uvm_test_top.env.scb [axi4_scoreboard] [REF_MEM_WRITE] Addr=0x03127463 Data=0xd4
# UVM_INFO ../src/env/axi4_scoreboard.sv(219) @ 3895000: uvm_test_top.env.scb [axi4_scoreboard] [REF_MEM_WRITE] Addr=0x03127467 Data=0xd1
# UVM_INFO ../src/env/axi4_scoreboard.sv(219) @ 3895000: uvm_test_top.env.scb [axi4_scoreboard] [REF_MEM_WRITE] Addr=0x03127468 Data=0xac
# UVM_INFO ../src/env/axi4_scoreboard.sv(219) @ 3895000: uvm_test_top.env.scb [axi4_scoreboard] [REF_MEM_WRITE] Addr=0x0312746b Data=0x88
# UVM_INFO ../src/env/axi4_scoreboard.sv(219) @ 3895000: uvm_test_top.env.scb [axi4_scoreboard] [REF_MEM_WRITE] Addr=0x03127471 Data=0xd5
# UVM_INFO ../src/env/axi4_scoreboard.sv(219) @ 3895000: uvm_test_top.env.scb [axi4_scoreboard] [REF_MEM_WRITE] Addr=0x03127473 Data=0x82
# UVM_INFO ../src/env/axi4_scoreboard.sv(219) @ 3895000: uvm_test_top.env.scb [axi4_scoreboard] [REF_MEM_WRITE] Addr=0x03127474 Data=0x9e
# UVM_INFO ../src/env/axi4_scoreboard.sv(219) @ 3895000: uvm_test_top.env.scb [axi4_scoreboard] [REF_MEM_WRITE] Addr=0x03127475 Data=0x14
# UVM_INFO ../src/env/axi4_scoreboard.sv(219) @ 3895000: uvm_test_top.env.scb [axi4_scoreboard] [REF_MEM_WRITE] Addr=0x03127477 Data=0x23
# UVM_INFO ../src/env/axi4_scoreboard.sv(219) @ 3895000: uvm_test_top.env.scb [axi4_scoreboard] [REF_MEM_WRITE] Addr=0x0312747a Data=0xa6
# UVM_INFO ../src/env/axi4_scoreboard.sv(219) @ 3895000: uvm_test_top.env.scb [axi4_scoreboard] [REF_MEM_WRITE] Addr=0x0312747b Data=0x78
# UVM_INFO ../src/env/axi4_scoreboard.sv(219) @ 3895000: uvm_test_top.env.scb [axi4_scoreboard] [REF_MEM_WRITE] Addr=0x0312747d Data=0xba
# UVM_INFO ../src/env/axi4_scoreboard.sv(219) @ 3895000: uvm_test_top.env.scb [axi4_scoreboard] [REF_MEM_WRITE] Addr=0x03127484 Data=0x99
# UVM_INFO ../src/env/axi4_scoreboard.sv(219) @ 3895000: uvm_test_top.env.scb [axi4_scoreboard] [REF_MEM_WRITE] Addr=0x03127485 Data=0x67
# UVM_INFO ../src/env/axi4_scoreboard.sv(219) @ 3895000: uvm_test_top.env.scb [axi4_scoreboard] [REF_MEM_WRITE] Addr=0x03127488 Data=0x10
# UVM_INFO ../src/env/axi4_scoreboard.sv(219) @ 3895000: uvm_test_top.env.scb [axi4_scoreboard] [REF_MEM_WRITE] Addr=0x0312748a Data=0x84
# UVM_INFO ../src/env/axi4_scoreboard.sv(219) @ 3895000: uvm_test_top.env.scb [axi4_scoreboard] [REF_MEM_WRITE] Addr=0x0312748b Data=0x6d
# UVM_INFO ../src/env/axi4_scoreboard.sv(219) @ 3895000: uvm_test_top.env.scb [axi4_scoreboard] [REF_MEM_WRITE] Addr=0x0312748e Data=0x6b
# UVM_INFO ../src/env/axi4_scoreboard.sv(219) @ 3895000: uvm_test_top.env.scb [axi4_scoreboard] [REF_MEM_WRITE] Addr=0x03127492 Data=0xbc
# UVM_INFO ../src/env/axi4_scoreboard.sv(219) @ 3895000: uvm_test_top.env.scb [axi4_scoreboard] [REF_MEM_WRITE] Addr=0x03127498 Data=0xeb
# UVM_INFO ../src/env/axi4_scoreboard.sv(219) @ 3895000: uvm_test_top.env.scb [axi4_scoreboard] [REF_MEM_WRITE] Addr=0x03127499 Data=0x8f
# UVM_INFO ../src/env/axi4_scoreboard.sv(219) @ 3895000: uvm_test_top.env.scb [axi4_scoreboard] [REF_MEM_WRITE] Addr=0x0312749a Data=0x6f
# UVM_INFO ../src/env/axi4_scoreboard.sv(219) @ 3895000: uvm_test_top.env.scb [axi4_scoreboard] [REF_MEM_WRITE] Addr=0x0312749d Data=0x73
# UVM_INFO ../src/env/axi4_scoreboard.sv(219) @ 3895000: uvm_test_top.env.scb [axi4_scoreboard] [REF_MEM_WRITE] Addr=0x0312749e Data=0x89
# UVM_INFO ../src/env/axi4_scoreboard.sv(219) @ 3895000: uvm_test_top.env.scb [axi4_scoreboard] [REF_MEM_WRITE] Addr=0x0312749f Data=0x25
# UVM_INFO ../src/env/axi4_scoreboard.sv(219) @ 3895000: uvm_test_top.env.scb [axi4_scoreboard] [REF_MEM_WRITE] Addr=0x031274a1 Data=0xb5
# UVM_INFO ../src/env/axi4_scoreboard.sv(219) @ 3895000: uvm_test_top.env.scb [axi4_scoreboard] [REF_MEM_WRITE] Addr=0x031274a4 Data=0x76
# UVM_INFO ../src/env/axi4_scoreboard.sv(219) @ 3895000: uvm_test_top.env.scb [axi4_scoreboard] [REF_MEM_WRITE] Addr=0x031274a6 Data=0xf8
# UVM_INFO ../src/env/axi4_scoreboard.sv(219) @ 3895000: uvm_test_top.env.scb [axi4_scoreboard] [REF_MEM_WRITE] Addr=0x031274a7 Data=0x88
# UVM_INFO ../src/env/axi4_scoreboard.sv(219) @ 3895000: uvm_test_top.env.scb [axi4_scoreboard] [REF_MEM_WRITE] Addr=0x031274a8 Data=0x02
# UVM_INFO ../src/env/axi4_scoreboard.sv(219) @ 3895000: uvm_test_top.env.scb [axi4_scoreboard] [REF_MEM_WRITE] Addr=0x031274a9 Data=0x0e
# UVM_INFO ../src/env/axi4_scoreboard.sv(219) @ 3895000: uvm_test_top.env.scb [axi4_scoreboard] [REF_MEM_WRITE] Addr=0x031274ab Data=0xfb
# UVM_INFO ../src/env/axi4_scoreboard.sv(219) @ 3895000: uvm_test_top.env.scb [axi4_scoreboard] [REF_MEM_WRITE] Addr=0x031274af Data=0xc3
# UVM_INFO ../src/env/axi4_scoreboard.sv(219) @ 3895000: uvm_test_top.env.scb [axi4_scoreboard] [REF_MEM_WRITE] Addr=0x031274b1 Data=0x1c
# UVM_INFO ../src/env/axi4_scoreboard.sv(219) @ 3895000: uvm_test_top.env.scb [axi4_scoreboard] [REF_MEM_WRITE] Addr=0x031274b5 Data=0x93
# UVM_INFO ../src/env/axi4_scoreboard.sv(219) @ 3895000: uvm_test_top.env.scb [axi4_scoreboard] [REF_MEM_WRITE] Addr=0x031274b6 Data=0x93
# UVM_INFO ../src/env/axi4_scoreboard.sv(219) @ 3895000: uvm_test_top.env.scb [axi4_scoreboard] [REF_MEM_WRITE] Addr=0x031274b7 Data=0x59
# UVM_INFO ../src/env/axi4_scoreboard.sv(219) @ 3895000: uvm_test_top.env.scb [axi4_scoreboard] [REF_MEM_WRITE] Addr=0x031274b8 Data=0x76
# UVM_INFO ../src/env/axi4_scoreboard.sv(219) @ 3895000: uvm_test_top.env.scb [axi4_scoreboard] [REF_MEM_WRITE] Addr=0x031274b9 Data=0xaa
# UVM_INFO ../src/env/axi4_scoreboard.sv(219) @ 3895000: uvm_test_top.env.scb [axi4_scoreboard] [REF_MEM_WRITE] Addr=0x031274ba Data=0xc6
# UVM_INFO ../src/env/axi4_scoreboard.sv(219) @ 3895000: uvm_test_top.env.scb [axi4_scoreboard] [REF_MEM_WRITE] Addr=0x031274bb Data=0x90
# UVM_INFO ../src/env/axi4_scoreboard.sv(219) @ 3895000: uvm_test_top.env.scb [axi4_scoreboard] [REF_MEM_WRITE] Addr=0x031274bc Data=0x46
# UVM_INFO ../src/env/axi4_scoreboard.sv(219) @ 3895000: uvm_test_top.env.scb [axi4_scoreboard] [REF_MEM_WRITE] Addr=0x031274bd Data=0x85
# UVM_INFO ../src/env/axi4_scoreboard.sv(219) @ 3895000: uvm_test_top.env.scb [axi4_scoreboard] [REF_MEM_WRITE] Addr=0x031274c0 Data=0x80
# UVM_INFO ../src/env/axi4_scoreboard.sv(219) @ 3895000: uvm_test_top.env.scb [axi4_scoreboard] [REF_MEM_WRITE] Addr=0x031274c2 Data=0x10
# UVM_INFO ../src/env/axi4_scoreboard.sv(219) @ 3895000: uvm_test_top.env.scb [axi4_scoreboard] [REF_MEM_WRITE] Addr=0x031274c5 Data=0x30
# UVM_INFO ../src/env/axi4_scoreboard.sv(219) @ 3895000: uvm_test_top.env.scb [axi4_scoreboard] [REF_MEM_WRITE] Addr=0x031274c8 Data=0x4e
# UVM_INFO ../src/env/axi4_scoreboard.sv(219) @ 3895000: uvm_test_top.env.scb [axi4_scoreboard] [REF_MEM_WRITE] Addr=0x031274c9 Data=0x80
# UVM_INFO ../src/env/axi4_scoreboard.sv(219) @ 3895000: uvm_test_top.env.scb [axi4_scoreboard] [REF_MEM_WRITE] Addr=0x031274ca Data=0x8b
# UVM_INFO ../src/env/axi4_scoreboard.sv(219) @ 3895000: uvm_test_top.env.scb [axi4_scoreboard] [REF_MEM_WRITE] Addr=0x031274cb Data=0x61
# UVM_INFO ../src/env/axi4_scoreboard.sv(219) @ 3895000: uvm_test_top.env.scb [axi4_scoreboard] [REF_MEM_WRITE] Addr=0x031274ce Data=0x63
# UVM_INFO ../src/env/axi4_scoreboard.sv(219) @ 3895000: uvm_test_top.env.scb [axi4_scoreboard] [REF_MEM_WRITE] Addr=0x031274d1 Data=0x22
# UVM_INFO ../src/env/axi4_scoreboard.sv(219) @ 3895000: uvm_test_top.env.scb [axi4_scoreboard] [REF_MEM_WRITE] Addr=0x031274d2 Data=0x97
# UVM_INFO ../src/env/axi4_scoreboard.sv(219) @ 3895000: uvm_test_top.env.scb [axi4_scoreboard] [REF_MEM_WRITE] Addr=0x031274d3 Data=0x4d
# UVM_INFO ../src/env/axi4_scoreboard.sv(219) @ 3895000: uvm_test_top.env.scb [axi4_scoreboard] [REF_MEM_WRITE] Addr=0x031274d5 Data=0x04
# UVM_INFO ../src/env/axi4_scoreboard.sv(219) @ 3895000: uvm_test_top.env.scb [axi4_scoreboard] [REF_MEM_WRITE] Addr=0x031274d7 Data=0x40
# UVM_INFO ../src/env/axi4_scoreboard.sv(219) @ 3895000: uvm_test_top.env.scb [axi4_scoreboard] [REF_MEM_WRITE] Addr=0x031274d8 Data=0x96
# UVM_INFO ../src/env/axi4_scoreboard.sv(219) @ 3895000: uvm_test_top.env.scb [axi4_scoreboard] [REF_MEM_WRITE] Addr=0x031274d9 Data=0x94
# UVM_INFO ../src/env/axi4_scoreboard.sv(219) @ 3895000: uvm_test_top.env.scb [axi4_scoreboard] [REF_MEM_WRITE] Addr=0x031274da Data=0x46
# UVM_INFO ../src/env/axi4_scoreboard.sv(219) @ 3895000: uvm_test_top.env.scb [axi4_scoreboard] [REF_MEM_WRITE] Addr=0x031274db Data=0x0c
# UVM_INFO ../src/env/axi4_scoreboard.sv(219) @ 3895000: uvm_test_top.env.scb [axi4_scoreboard] [REF_MEM_WRITE] Addr=0x031274dc Data=0xf2
# UVM_INFO ../src/env/axi4_scoreboard.sv(219) @ 3895000: uvm_test_top.env.scb [axi4_scoreboard] [REF_MEM_WRITE] Addr=0x031274de Data=0xbf
# UVM_INFO ../src/env/axi4_scoreboard.sv(219) @ 3895000: uvm_test_top.env.scb [axi4_scoreboard] [REF_MEM_WRITE] Addr=0x031274df Data=0xcc
# UVM_INFO ../src/env/axi4_scoreboard.sv(219) @ 3895000: uvm_test_top.env.scb [axi4_scoreboard] [REF_MEM_WRITE] Addr=0x031274e0 Data=0xb8
# UVM_INFO ../src/env/axi4_scoreboard.sv(219) @ 3895000: uvm_test_top.env.scb [axi4_scoreboard] [REF_MEM_WRITE] Addr=0x031274e3 Data=0x65
# UVM_INFO ../src/env/axi4_scoreboard.sv(219) @ 3895000: uvm_test_top.env.scb [axi4_scoreboard] [REF_MEM_WRITE] Addr=0x031274e4 Data=0x3e
# UVM_INFO ../src/env/axi4_scoreboard.sv(219) @ 3895000: uvm_test_top.env.scb [axi4_scoreboard] [REF_MEM_WRITE] Addr=0x031274e6 Data=0xd7
# UVM_INFO ../src/env/axi4_scoreboard.sv(219) @ 3895000: uvm_test_top.env.scb [axi4_scoreboard] [REF_MEM_WRITE] Addr=0x031274e8 Data=0x91
# UVM_INFO ../src/env/axi4_scoreboard.sv(219) @ 3895000: uvm_test_top.env.scb [axi4_scoreboard] [REF_MEM_WRITE] Addr=0x031274e9 Data=0x2a
# UVM_INFO ../src/env/axi4_scoreboard.sv(219) @ 3895000: uvm_test_top.env.scb [axi4_scoreboard] [REF_MEM_WRITE] Addr=0x031274eb Data=0x3e
# UVM_INFO ../src/env/axi4_scoreboard.sv(219) @ 3895000: uvm_test_top.env.scb [axi4_scoreboard] [REF_MEM_WRITE] Addr=0x031274ed Data=0x26
# UVM_INFO ../src/env/axi4_scoreboard.sv(219) @ 3895000: uvm_test_top.env.scb [axi4_scoreboard] [REF_MEM_WRITE] Addr=0x031274ef Data=0x6a
# UVM_INFO ../src/env/axi4_scoreboard.sv(219) @ 3895000: uvm_test_top.env.scb [axi4_scoreboard] [REF_MEM_WRITE] Addr=0x031274f1 Data=0xb1
# UVM_INFO ../src/env/axi4_scoreboard.sv(219) @ 3895000: uvm_test_top.env.scb [axi4_scoreboard] [REF_MEM_WRITE] Addr=0x031274f7 Data=0x7e
# UVM_INFO ../src/env/axi4_scoreboard.sv(219) @ 3895000: uvm_test_top.env.scb [axi4_scoreboard] [REF_MEM_WRITE] Addr=0x031274f8 Data=0x73
# UVM_INFO ../src/env/axi4_scoreboard.sv(219) @ 3895000: uvm_test_top.env.scb [axi4_scoreboard] [REF_MEM_WRITE] Addr=0x031274f9 Data=0x3c
# UVM_INFO ../src/env/axi4_scoreboard.sv(219) @ 3895000: uvm_test_top.env.scb [axi4_scoreboard] [REF_MEM_WRITE] Addr=0x031274fa Data=0x9c
# UVM_INFO ../src/env/axi4_scoreboard.sv(219) @ 3895000: uvm_test_top.env.scb [axi4_scoreboard] [REF_MEM_WRITE] Addr=0x031274fb Data=0xea
# UVM_INFO ../src/env/axi4_scoreboard.sv(219) @ 3895000: uvm_test_top.env.scb [axi4_scoreboard] [REF_MEM_WRITE] Addr=0x031274fc Data=0x40
# UVM_INFO ../src/env/axi4_scoreboard.sv(219) @ 3895000: uvm_test_top.env.scb [axi4_scoreboard] [REF_MEM_WRITE] Addr=0x031274fd Data=0x33
# UVM_INFO ../src/env/axi4_scoreboard.sv(219) @ 3895000: uvm_test_top.env.scb [axi4_scoreboard] [REF_MEM_WRITE] Addr=0x03127500 Data=0x2d
# UVM_INFO ../src/env/axi4_scoreboard.sv(219) @ 3895000: uvm_test_top.env.scb [axi4_scoreboard] [REF_MEM_WRITE] Addr=0x03127501 Data=0xff
# UVM_INFO ../src/env/axi4_scoreboard.sv(219) @ 3895000: uvm_test_top.env.scb [axi4_scoreboard] [REF_MEM_WRITE] Addr=0x03127502 Data=0xc5
# UVM_INFO ../src/env/axi4_scoreboard.sv(219) @ 3895000: uvm_test_top.env.scb [axi4_scoreboard] [REF_MEM_WRITE] Addr=0x03127503 Data=0x29
# UVM_INFO ../src/env/axi4_scoreboard.sv(219) @ 3895000: uvm_test_top.env.scb [axi4_scoreboard] [REF_MEM_WRITE] Addr=0x03127505 Data=0xe8
# UVM_INFO ../src/env/axi4_scoreboard.sv(219) @ 3895000: uvm_test_top.env.scb [axi4_scoreboard] [REF_MEM_WRITE] Addr=0x03127506 Data=0x1a
# UVM_INFO ../src/env/axi4_scoreboard.sv(219) @ 3895000: uvm_test_top.env.scb [axi4_scoreboard] [REF_MEM_WRITE] Addr=0x03127507 Data=0xb1
# UVM_INFO ../src/env/axi4_scoreboard.sv(219) @ 3895000: uvm_test_top.env.scb [axi4_scoreboard] [REF_MEM_WRITE] Addr=0x03127508 Data=0x21
# UVM_INFO ../src/env/axi4_scoreboard.sv(219) @ 3895000: uvm_test_top.env.scb [axi4_scoreboard] [REF_MEM_WRITE] Addr=0x03127509 Data=0xa9
# UVM_INFO ../src/env/axi4_scoreboard.sv(219) @ 3895000: uvm_test_top.env.scb [axi4_scoreboard] [REF_MEM_WRITE] Addr=0x0312750a Data=0xfe
# UVM_INFO ../src/env/axi4_scoreboard.sv(219) @ 3895000: uvm_test_top.env.scb [axi4_scoreboard] [REF_MEM_WRITE] Addr=0x0312750b Data=0xd5
# UVM_INFO ../src/env/axi4_scoreboard.sv(219) @ 3895000: uvm_test_top.env.scb [axi4_scoreboard] [REF_MEM_WRITE] Addr=0x03127513 Data=0x41
# UVM_INFO ../src/env/axi4_scoreboard.sv(219) @ 3895000: uvm_test_top.env.scb [axi4_scoreboard] [REF_MEM_WRITE] Addr=0x03127515 Data=0xb2
# UVM_INFO ../src/env/axi4_scoreboard.sv(219) @ 3895000: uvm_test_top.env.scb [axi4_scoreboard] [REF_MEM_WRITE] Addr=0x03127517 Data=0xf4
# UVM_INFO ../src/env/axi4_scoreboard.sv(219) @ 3895000: uvm_test_top.env.scb [axi4_scoreboard] [REF_MEM_WRITE] Addr=0x03127519 Data=0x66
# UVM_INFO ../src/env/axi4_scoreboard.sv(219) @ 3895000: uvm_test_top.env.scb [axi4_scoreboard] [REF_MEM_WRITE] Addr=0x0312751b Data=0x86
# UVM_INFO ../src/env/axi4_scoreboard.sv(219) @ 3895000: uvm_test_top.env.scb [axi4_scoreboard] [REF_MEM_WRITE] Addr=0x0312751c Data=0xaa
# UVM_INFO ../src/env/axi4_scoreboard.sv(219) @ 3895000: uvm_test_top.env.scb [axi4_scoreboard] [REF_MEM_WRITE] Addr=0x0312751e Data=0x45
# UVM_INFO ../src/env/axi4_scoreboard.sv(219) @ 3895000: uvm_test_top.env.scb [axi4_scoreboard] [REF_MEM_WRITE] Addr=0x0312751f Data=0xbb
# UVM_INFO ../src/env/axi4_scoreboard.sv(219) @ 3895000: uvm_test_top.env.scb [axi4_scoreboard] [REF_MEM_WRITE] Addr=0x03127521 Data=0xaa
# UVM_INFO ../src/env/axi4_scoreboard.sv(219) @ 3895000: uvm_test_top.env.scb [axi4_scoreboard] [REF_MEM_WRITE] Addr=0x03127522 Data=0x85
# UVM_INFO ../src/env/axi4_scoreboard.sv(219) @ 3895000: uvm_test_top.env.scb [axi4_scoreboard] [REF_MEM_WRITE] Addr=0x03127525 Data=0xed
# UVM_INFO ../src/env/axi4_scoreboard.sv(219) @ 3895000: uvm_test_top.env.scb [axi4_scoreboard] [REF_MEM_WRITE] Addr=0x03127526 Data=0x3b
# UVM_INFO ../src/env/axi4_scoreboard.sv(219) @ 3895000: uvm_test_top.env.scb [axi4_scoreboard] [REF_MEM_WRITE] Addr=0x03127529 Data=0x2c
# UVM_INFO ../src/env/axi4_scoreboard.sv(219) @ 3895000: uvm_test_top.env.scb [axi4_scoreboard] [REF_MEM_WRITE] Addr=0x0312752a Data=0x73
# UVM_INFO ../src/env/axi4_scoreboard.sv(219) @ 3895000: uvm_test_top.env.scb [axi4_scoreboard] [REF_MEM_WRITE] Addr=0x0312752c Data=0x2e
# UVM_INFO ../src/env/axi4_scoreboard.sv(219) @ 3895000: uvm_test_top.env.scb [axi4_scoreboard] [REF_MEM_WRITE] Addr=0x03127531 Data=0xd9
# UVM_INFO ../src/env/axi4_scoreboard.sv(219) @ 3895000: uvm_test_top.env.scb [axi4_scoreboard] [REF_MEM_WRITE] Addr=0x03127532 Data=0x8e
# UVM_INFO ../src/env/axi4_scoreboard.sv(219) @ 3895000: uvm_test_top.env.scb [axi4_scoreboard] [REF_MEM_WRITE] Addr=0x03127533 Data=0x43
# UVM_INFO ../src/env/axi4_scoreboard.sv(219) @ 3895000: uvm_test_top.env.scb [axi4_scoreboard] [REF_MEM_WRITE] Addr=0x03127534 Data=0xef
# UVM_INFO ../src/env/axi4_scoreboard.sv(219) @ 3895000: uvm_test_top.env.scb [axi4_scoreboard] [REF_MEM_WRITE] Addr=0x03127535 Data=0xcc
# UVM_INFO ../src/env/axi4_scoreboard.sv(219) @ 3895000: uvm_test_top.env.scb [axi4_scoreboard] [REF_MEM_WRITE] Addr=0x03127537 Data=0xcb
# UVM_INFO ../src/env/axi4_scoreboard.sv(219) @ 3895000: uvm_test_top.env.scb [axi4_scoreboard] [REF_MEM_WRITE] Addr=0x03127538 Data=0x0b
# UVM_INFO ../src/env/axi4_scoreboard.sv(219) @ 3895000: uvm_test_top.env.scb [axi4_scoreboard] [REF_MEM_WRITE] Addr=0x03127539 Data=0xa3
# UVM_INFO ../src/env/axi4_scoreboard.sv(219) @ 3895000: uvm_test_top.env.scb [axi4_scoreboard] [REF_MEM_WRITE] Addr=0x0312753a Data=0xd9
# UVM_INFO ../src/env/axi4_scoreboard.sv(219) @ 3895000: uvm_test_top.env.scb [axi4_scoreboard] [REF_MEM_WRITE] Addr=0x0312753d Data=0xf5
# UVM_INFO ../src/env/axi4_scoreboard.sv(219) @ 3895000: uvm_test_top.env.scb [axi4_scoreboard] [REF_MEM_WRITE] Addr=0x0312753e Data=0xc3
# UVM_INFO ../src/env/axi4_scoreboard.sv(219) @ 3895000: uvm_test_top.env.scb [axi4_scoreboard] [REF_MEM_WRITE] Addr=0x03127540 Data=0x26
# UVM_INFO ../src/env/axi4_scoreboard.sv(219) @ 3895000: uvm_test_top.env.scb [axi4_scoreboard] [REF_MEM_WRITE] Addr=0x03127544 Data=0x41
# UVM_INFO ../src/env/axi4_scoreboard.sv(219) @ 3895000: uvm_test_top.env.scb [axi4_scoreboard] [REF_MEM_WRITE] Addr=0x03127546 Data=0x6c
# UVM_INFO ../src/env/axi4_scoreboard.sv(219) @ 3895000: uvm_test_top.env.scb [axi4_scoreboard] [REF_MEM_WRITE] Addr=0x03127548 Data=0x9d
# UVM_INFO ../src/env/axi4_scoreboard.sv(219) @ 3895000: uvm_test_top.env.scb [axi4_scoreboard] [REF_MEM_WRITE] Addr=0x0312754a Data=0xd2
# UVM_INFO ../src/env/axi4_scoreboard.sv(219) @ 3895000: uvm_test_top.env.scb [axi4_scoreboard] [REF_MEM_WRITE] Addr=0x0312754b Data=0x7b
# UVM_INFO ../src/env/axi4_scoreboard.sv(219) @ 3895000: uvm_test_top.env.scb [axi4_scoreboard] [REF_MEM_WRITE] Addr=0x0312754d Data=0x17
# UVM_INFO ../src/env/axi4_scoreboard.sv(219) @ 3895000: uvm_test_top.env.scb [axi4_scoreboard] [REF_MEM_WRITE] Addr=0x0312754e Data=0x87
# UVM_INFO ../src/env/axi4_scoreboard.sv(219) @ 3895000: uvm_test_top.env.scb [axi4_scoreboard] [REF_MEM_WRITE] Addr=0x0312754f Data=0x7a
# UVM_INFO ../src/env/axi4_scoreboard.sv(219) @ 3895000: uvm_test_top.env.scb [axi4_scoreboard] [REF_MEM_WRITE] Addr=0x03127550 Data=0xd9
# UVM_INFO ../src/env/axi4_scoreboard.sv(219) @ 3895000: uvm_test_top.env.scb [axi4_scoreboard] [REF_MEM_WRITE] Addr=0x03127551 Data=0xd0
# UVM_INFO ../src/env/axi4_scoreboard.sv(219) @ 3895000: uvm_test_top.env.scb [axi4_scoreboard] [REF_MEM_WRITE] Addr=0x03127553 Data=0xf8
# UVM_INFO ../src/mst/axi4_master_driver.sv(348) @ 6015000: uvm_test_top.env.master_agent.drv [axi4_master_driver] Master driver received all R beats for ID=0x4
# UVM_INFO ../src/slv/axi4_slave_driver.sv(501) @ 6015000: uvm_test_top.env.slave_agent.drv [axi4_slave_driver] Read complete: ID=0x4 ADDR=0xa4e0b883 RESP=AXI4_RESP_OKAY  179 beats sent
# UVM_INFO ../src/slv/axi4_slave_monitor.sv(287) @ 6015000: uvm_test_top.env.slave_agent.mon [axi4_slave_monitor] Read data sent: ID=0x4 ADDR=0xa4e0b883 179 beats
# UVM_INFO ../src/env/axi4_scoreboard.sv(108) @ 6015000: uvm_test_top.env.scb [axi4_scoreboard] Slave AXI4_READ received: ID=0x4 ADDR=0xa4e0b883 LEN=178
# UVM_INFO ../src/mst/axi4_master_monitor.sv(314) @ 6015000: uvm_test_top.env.master_agent.mon [axi4_master_monitor] Read complete: ID=0x4 ADDR=0xa4e0b883 179 beats
# UVM_INFO ../src/env/axi4_scoreboard.sv(87) @ 6015000: uvm_test_top.env.scb [axi4_scoreboard] Master AXI4_READ received: ID=0x4 ADDR=0xa4e0b883 LEN=178
# UVM_INFO ../src/env/axi4_scoreboard.sv(291) @ 6015000: uvm_test_top.env.scb [axi4_scoreboard] [READ] MATCH #3: ID=0x4 ADDR=0xa4e0b883 LEN=178
# UVM_INFO ../src/mst/axi4_master_monitor.sv(184) @ 8585000: uvm_test_top.env.master_agent.mon [axi4_master_monitor] W data assembled: ID=0x4 ADDR=0x89821fe4 236 beats
# UVM_INFO ../src/slv/axi4_slave_monitor.sv(167) @ 8585000: uvm_test_top.env.slave_agent.mon [axi4_slave_monitor] W data assembled: ID=0x4 ADDR=0x89821fe4 236 beats
# UVM_INFO ../src/mst/axi4_master_driver.sv(289) @ 8615000: uvm_test_top.env.master_agent.drv [axi4_master_driver] Master driver received B response: ID=0x4 RESP=AXI4_RESP_OKAY
# UVM_INFO ../src/slv/axi4_slave_driver.sv(348) @ 8615000: uvm_test_top.env.slave_agent.drv [axi4_slave_driver] Write complete: ID=0x4 RESP=AXI4_RESP_OKAY
# UVM_INFO ../src/slv/axi4_slave_monitor.sv(189) @ 8615000: uvm_test_top.env.slave_agent.mon [axi4_slave_monitor] Write response sent: ID=0x4 ADDR=0x89821fe4 RESP=AXI4_RESP_OKAY
# UVM_INFO ../src/env/axi4_scoreboard.sv(108) @ 8615000: uvm_test_top.env.scb [axi4_scoreboard] Slave AXI4_WRITE received: ID=0x4 ADDR=0x89821fe4 LEN=235
# UVM_INFO ../src/mst/axi4_master_monitor.sv(210) @ 8615000: uvm_test_top.env.master_agent.mon [axi4_master_monitor] Write complete: ID=0x4 ADDR=0x89821fe4 RESP=AXI4_RESP_OKAY
# UVM_INFO ../src/env/axi4_scoreboard.sv(87) @ 8615000: uvm_test_top.env.scb [axi4_scoreboard] Master AXI4_WRITE received: ID=0x4 ADDR=0x89821fe4 LEN=235
# UVM_INFO ../src/env/axi4_scoreboard.sv(291) @ 8615000: uvm_test_top.env.scb [axi4_scoreboard] [WRITE] MATCH #4: ID=0x4 ADDR=0x89821fe4 LEN=235
# UVM_INFO ../src/env/axi4_scoreboard.sv(219) @ 8615000: uvm_test_top.env.scb [axi4_scoreboard] [REF_MEM_WRITE] Addr=0x89821fe4 Data=0xa8
# UVM_INFO ../src/env/axi4_scoreboard.sv(219) @ 8615000: uvm_test_top.env.scb [axi4_scoreboard] [REF_MEM_WRITE] Addr=0x89821fe5 Data=0x9f
# UVM_INFO ../src/env/axi4_scoreboard.sv(219) @ 8615000: uvm_test_top.env.scb [axi4_scoreboard] [REF_MEM_WRITE] Addr=0x89821fe6 Data=0x69
# UVM_INFO ../src/env/axi4_scoreboard.sv(219) @ 8615000: uvm_test_top.env.scb [axi4_scoreboard] [REF_MEM_WRITE] Addr=0x89821fe7 Data=0x8b
# UVM_INFO ../src/env/axi4_scoreboard.sv(219) @ 8615000: uvm_test_top.env.scb [axi4_scoreboard] [REF_MEM_WRITE] Addr=0x89821fe4 Data=0xf9
# UVM_INFO ../src/env/axi4_scoreboard.sv(219) @ 8615000: uvm_test_top.env.scb [axi4_scoreboard] [REF_MEM_WRITE] Addr=0x89821fe5 Data=0x04
# UVM_INFO ../src/env/axi4_scoreboard.sv(219) @ 8615000: uvm_test_top.env.scb [axi4_scoreboard] [REF_MEM_WRITE] Addr=0x89821fe7 Data=0xbb
# UVM_INFO ../src/env/axi4_scoreboard.sv(219) @ 8615000: uvm_test_top.env.scb [axi4_scoreboard] [REF_MEM_WRITE] Addr=0x89821fe9 Data=0xc1
# UVM_INFO ../src/env/axi4_scoreboard.sv(219) @ 8615000: uvm_test_top.env.scb [axi4_scoreboard] [REF_MEM_WRITE] Addr=0x89821fea Data=0xf3
# UVM_INFO ../src/env/axi4_scoreboard.sv(219) @ 8615000: uvm_test_top.env.scb [axi4_scoreboard] [REF_MEM_WRITE] Addr=0x89821feb Data=0xd7
# UVM_INFO ../src/env/axi4_scoreboard.sv(219) @ 8615000: uvm_test_top.env.scb [axi4_scoreboard] [REF_MEM_WRITE] Addr=0x89821fea Data=0x24
# UVM_INFO ../src/env/axi4_scoreboard.sv(219) @ 8615000: uvm_test_top.env.scb [axi4_scoreboard] [REF_MEM_WRITE] Addr=0x89821fed Data=0x44
# UVM_INFO ../src/env/axi4_scoreboard.sv(219) @ 8615000: uvm_test_top.env.scb [axi4_scoreboard] [REF_MEM_WRITE] Addr=0x89821fec Data=0x2c
# UVM_INFO ../src/env/axi4_scoreboard.sv(219) @ 8615000: uvm_test_top.env.scb [axi4_scoreboard] [REF_MEM_WRITE] Addr=0x89821fee Data=0x10
# UVM_INFO ../src/env/axi4_scoreboard.sv(219) @ 8615000: uvm_test_top.env.scb [axi4_scoreboard] [REF_MEM_WRITE] Addr=0x89821ff3 Data=0xd6
# UVM_INFO ../src/env/axi4_scoreboard.sv(219) @ 8615000: uvm_test_top.env.scb [axi4_scoreboard] [REF_MEM_WRITE] Addr=0x89821ff5 Data=0xd7
# UVM_INFO ../src/env/axi4_scoreboard.sv(219) @ 8615000: uvm_test_top.env.scb [axi4_scoreboard] [REF_MEM_WRITE] Addr=0x89821ff6 Data=0x4e
# UVM_INFO ../src/env/axi4_scoreboard.sv(219) @ 8615000: uvm_test_top.env.scb [axi4_scoreboard] [REF_MEM_WRITE] Addr=0x89821ff7 Data=0x0e
# UVM_INFO ../src/env/axi4_scoreboard.sv(219) @ 8615000: uvm_test_top.env.scb [axi4_scoreboard] [REF_MEM_WRITE] Addr=0x89821ff7 Data=0xb5
# UVM_INFO ../src/env/axi4_scoreboard.sv(219) @ 8615000: uvm_test_top.env.scb [axi4_scoreboard] [REF_MEM_WRITE] Addr=0x89821ff8 Data=0x70
# UVM_INFO ../src/env/axi4_scoreboard.sv(219) @ 8615000: uvm_test_top.env.scb [axi4_scoreboard] [REF_MEM_WRITE] Addr=0x89821ff9 Data=0xae
# UVM_INFO ../src/env/axi4_scoreboard.sv(219) @ 8615000: uvm_test_top.env.scb [axi4_scoreboard] [REF_MEM_WRITE] Addr=0x89821ffa Data=0x11
# UVM_INFO ../src/env/axi4_scoreboard.sv(219) @ 8615000: uvm_test_top.env.scb [axi4_scoreboard] [REF_MEM_WRITE] Addr=0x89821ffb Data=0x22
# UVM_INFO ../src/env/axi4_scoreboard.sv(219) @ 8615000: uvm_test_top.env.scb [axi4_scoreboard] [REF_MEM_WRITE] Addr=0x89821ffc Data=0xf5
# UVM_INFO ../src/env/axi4_scoreboard.sv(219) @ 8615000: uvm_test_top.env.scb [axi4_scoreboard] [REF_MEM_WRITE] Addr=0x89821ffe Data=0xbe
# UVM_INFO ../src/env/axi4_scoreboard.sv(219) @ 8615000: uvm_test_top.env.scb [axi4_scoreboard] [REF_MEM_WRITE] Addr=0x89821ffc Data=0xe3
# UVM_INFO ../src/env/axi4_scoreboard.sv(219) @ 8615000: uvm_test_top.env.scb [axi4_scoreboard] [REF_MEM_WRITE] Addr=0x89821ffd Data=0x9d
# UVM_INFO ../src/env/axi4_scoreboard.sv(219) @ 8615000: uvm_test_top.env.scb [axi4_scoreboard] [REF_MEM_WRITE] Addr=0x89821ffe Data=0x96
# UVM_INFO ../src/env/axi4_scoreboard.sv(219) @ 8615000: uvm_test_top.env.scb [axi4_scoreboard] [REF_MEM_WRITE] Addr=0x89821fff Data=0x2d
# UVM_INFO ../src/env/axi4_scoreboard.sv(219) @ 8615000: uvm_test_top.env.scb [axi4_scoreboard] [REF_MEM_WRITE] Addr=0x89822000 Data=0x2b
# UVM_INFO ../src/env/axi4_scoreboard.sv(219) @ 8615000: uvm_test_top.env.scb [axi4_scoreboard] [REF_MEM_WRITE] Addr=0x89822003 Data=0x28
# UVM_INFO ../src/env/axi4_scoreboard.sv(219) @ 8615000: uvm_test_top.env.scb [axi4_scoreboard] [REF_MEM_WRITE] Addr=0x89822001 Data=0xf6
# UVM_INFO ../src/env/axi4_scoreboard.sv(219) @ 8615000: uvm_test_top.env.scb [axi4_scoreboard] [REF_MEM_WRITE] Addr=0x89822004 Data=0x8d
# UVM_INFO ../src/env/axi4_scoreboard.sv(219) @ 8615000: uvm_test_top.env.scb [axi4_scoreboard] [REF_MEM_WRITE] Addr=0x89822006 Data=0x17
# UVM_INFO ../src/env/axi4_scoreboard.sv(219) @ 8615000: uvm_test_top.env.scb [axi4_scoreboard] [REF_MEM_WRITE] Addr=0x89822008 Data=0xa5
# UVM_INFO ../src/env/axi4_scoreboard.sv(219) @ 8615000: uvm_test_top.env.scb [axi4_scoreboard] [REF_MEM_WRITE] Addr=0x89822008 Data=0x56
# UVM_INFO ../src/env/axi4_scoreboard.sv(219) @ 8615000: uvm_test_top.env.scb [axi4_scoreboard] [REF_MEM_WRITE] Addr=0x89822009 Data=0x17
# UVM_INFO ../src/env/axi4_scoreboard.sv(219) @ 8615000: uvm_test_top.env.scb [axi4_scoreboard] [REF_MEM_WRITE] Addr=0x8982200a Data=0xb2
# UVM_INFO ../src/env/axi4_scoreboard.sv(219) @ 8615000: uvm_test_top.env.scb [axi4_scoreboard] [REF_MEM_WRITE] Addr=0x8982200c Data=0x8d
# UVM_INFO ../src/env/axi4_scoreboard.sv(219) @ 8615000: uvm_test_top.env.scb [axi4_scoreboard] [REF_MEM_WRITE] Addr=0x8982200e Data=0x05
# UVM_INFO ../src/env/axi4_scoreboard.sv(219) @ 8615000: uvm_test_top.env.scb [axi4_scoreboard] [REF_MEM_WRITE] Addr=0x8982200f Data=0x86
# UVM_INFO ../src/env/axi4_scoreboard.sv(219) @ 8615000: uvm_test_top.env.scb [axi4_scoreboard] [REF_MEM_WRITE] Addr=0x8982200c Data=0xcd
# UVM_INFO ../src/env/axi4_scoreboard.sv(219) @ 8615000: uvm_test_top.env.scb [axi4_scoreboard] [REF_MEM_WRITE] Addr=0x8982200e Data=0x3e
# UVM_INFO ../src/env/axi4_scoreboard.sv(219) @ 8615000: uvm_test_top.env.scb [axi4_scoreboard] [REF_MEM_WRITE] Addr=0x89822010 Data=0xa0
# UVM_INFO ../src/env/axi4_scoreboard.sv(219) @ 8615000: uvm_test_top.env.scb [axi4_scoreboard] [REF_MEM_WRITE] Addr=0x89822012 Data=0x1d
# UVM_INFO ../src/env/axi4_scoreboard.sv(219) @ 8615000: uvm_test_top.env.scb [axi4_scoreboard] [REF_MEM_WRITE] Addr=0x89822013 Data=0x0a
# UVM_INFO ../src/env/axi4_scoreboard.sv(219) @ 8615000: uvm_test_top.env.scb [axi4_scoreboard] [REF_MEM_WRITE] Addr=0x89822014 Data=0xa1
# UVM_INFO ../src/env/axi4_scoreboard.sv(219) @ 8615000: uvm_test_top.env.scb [axi4_scoreboard] [REF_MEM_WRITE] Addr=0x89822016 Data=0x11
# UVM_INFO ../src/env/axi4_scoreboard.sv(219) @ 8615000: uvm_test_top.env.scb [axi4_scoreboard] [REF_MEM_WRITE] Addr=0x89822014 Data=0xe6
# UVM_INFO ../src/env/axi4_scoreboard.sv(219) @ 8615000: uvm_test_top.env.scb [axi4_scoreboard] [REF_MEM_WRITE] Addr=0x89822015 Data=0x10
# UVM_INFO ../src/env/axi4_scoreboard.sv(219) @ 8615000: uvm_test_top.env.scb [axi4_scoreboard] [REF_MEM_WRITE] Addr=0x89822019 Data=0xff
# UVM_INFO ../src/env/axi4_scoreboard.sv(219) @ 8615000: uvm_test_top.env.scb [axi4_scoreboard] [REF_MEM_WRITE] Addr=0x89822018 Data=0x16
# UVM_INFO ../src/env/axi4_scoreboard.sv(219) @ 8615000: uvm_test_top.env.scb [axi4_scoreboard] [REF_MEM_WRITE] Addr=0x89822019 Data=0xe4
# UVM_INFO ../src/env/axi4_scoreboard.sv(219) @ 8615000: uvm_test_top.env.scb [axi4_scoreboard] [REF_MEM_WRITE] Addr=0x8982201a Data=0xc9
# UVM_INFO ../src/env/axi4_scoreboard.sv(219) @ 8615000: uvm_test_top.env.scb [axi4_scoreboard] [REF_MEM_WRITE] Addr=0x8982201b Data=0x36
# UVM_INFO ../src/env/axi4_scoreboard.sv(219) @ 8615000: uvm_test_top.env.scb [axi4_scoreboard] [REF_MEM_WRITE] Addr=0x8982201d Data=0x96
# UVM_INFO ../src/env/axi4_scoreboard.sv(219) @ 8615000: uvm_test_top.env.scb [axi4_scoreboard] [REF_MEM_WRITE] Addr=0x8982201e Data=0xa7
# UVM_INFO ../src/env/axi4_scoreboard.sv(219) @ 8615000: uvm_test_top.env.scb [axi4_scoreboard] [REF_MEM_WRITE] Addr=0x8982201d Data=0x79
# UVM_INFO ../src/env/axi4_scoreboard.sv(219) @ 8615000: uvm_test_top.env.scb [axi4_scoreboard] [REF_MEM_WRITE] Addr=0x8982201e Data=0x33
# UVM_INFO ../src/env/axi4_scoreboard.sv(219) @ 8615000: uvm_test_top.env.scb [axi4_scoreboard] [REF_MEM_WRITE] Addr=0x89822021 Data=0x32
# UVM_INFO ../src/env/axi4_scoreboard.sv(219) @ 8615000: uvm_test_top.env.scb [axi4_scoreboard] [REF_MEM_WRITE] Addr=0x89822023 Data=0x99
# UVM_INFO ../src/env/axi4_scoreboard.sv(219) @ 8615000: uvm_test_top.env.scb [axi4_scoreboard] [REF_MEM_WRITE] Addr=0x89822020 Data=0xad
# UVM_INFO ../src/env/axi4_scoreboard.sv(219) @ 8615000: uvm_test_top.env.scb [axi4_scoreboard] [REF_MEM_WRITE] Addr=0x89822021 Data=0x98
# UVM_INFO ../src/env/axi4_scoreboard.sv(219) @ 8615000: uvm_test_top.env.scb [axi4_scoreboard] [REF_MEM_WRITE] Addr=0x89822022 Data=0xda
# UVM_INFO ../src/env/axi4_scoreboard.sv(219) @ 8615000: uvm_test_top.env.scb [axi4_scoreboard] [REF_MEM_WRITE] Addr=0x89822023 Data=0x88
# UVM_INFO ../src/env/axi4_scoreboard.sv(219) @ 8615000: uvm_test_top.env.scb [axi4_scoreboard] [REF_MEM_WRITE] Addr=0x89822024 Data=0xef
# UVM_INFO ../src/env/axi4_scoreboard.sv(219) @ 8615000: uvm_test_top.env.scb [axi4_scoreboard] [REF_MEM_WRITE] Addr=0x89822027 Data=0xff
# UVM_INFO ../src/env/axi4_scoreboard.sv(219) @ 8615000: uvm_test_top.env.scb [axi4_scoreboard] [REF_MEM_WRITE] Addr=0x89822026 Data=0x97
# UVM_INFO ../src/env/axi4_scoreboard.sv(219) @ 8615000: uvm_test_top.env.scb [axi4_scoreboard] [REF_MEM_WRITE] Addr=0x89822029 Data=0xa6
# UVM_INFO ../src/env/axi4_scoreboard.sv(219) @ 8615000: uvm_test_top.env.scb [axi4_scoreboard] [REF_MEM_WRITE] Addr=0x8982202a Data=0x22
# UVM_INFO ../src/env/axi4_scoreboard.sv(219) @ 8615000: uvm_test_top.env.scb [axi4_scoreboard] [REF_MEM_WRITE] Addr=0x8982202b Data=0x68
# UVM_INFO ../src/env/axi4_scoreboard.sv(219) @ 8615000: uvm_test_top.env.scb [axi4_scoreboard] [REF_MEM_WRITE] Addr=0x89822029 Data=0xcf
# UVM_INFO ../src/env/axi4_scoreboard.sv(219) @ 8615000: uvm_test_top.env.scb [axi4_scoreboard] [REF_MEM_WRITE] Addr=0x8982202b Data=0x8a
# UVM_INFO ../src/env/axi4_scoreboard.sv(219) @ 8615000: uvm_test_top.env.scb [axi4_scoreboard] [REF_MEM_WRITE] Addr=0x8982202c Data=0x9e
# UVM_INFO ../src/env/axi4_scoreboard.sv(219) @ 8615000: uvm_test_top.env.scb [axi4_scoreboard] [REF_MEM_WRITE] Addr=0x8982202f Data=0x63
# UVM_INFO ../src/env/axi4_scoreboard.sv(219) @ 8615000: uvm_test_top.env.scb [axi4_scoreboard] [REF_MEM_WRITE] Addr=0x8982202d Data=0x8a
# UVM_INFO ../src/env/axi4_scoreboard.sv(219) @ 8615000: uvm_test_top.env.scb [axi4_scoreboard] [REF_MEM_WRITE] Addr=0x8982202e Data=0x75
# UVM_INFO ../src/env/axi4_scoreboard.sv(219) @ 8615000: uvm_test_top.env.scb [axi4_scoreboard] [REF_MEM_WRITE] Addr=0x8982202f Data=0x9e
# UVM_INFO ../src/env/axi4_scoreboard.sv(219) @ 8615000: uvm_test_top.env.scb [axi4_scoreboard] [REF_MEM_WRITE] Addr=0x89822031 Data=0x19
# UVM_INFO ../src/env/axi4_scoreboard.sv(219) @ 8615000: uvm_test_top.env.scb [axi4_scoreboard] [REF_MEM_WRITE] Addr=0x89822032 Data=0xc6
# UVM_INFO ../src/env/axi4_scoreboard.sv(219) @ 8615000: uvm_test_top.env.scb [axi4_scoreboard] [REF_MEM_WRITE] Addr=0x89822033 Data=0x6a
# UVM_INFO ../src/env/axi4_scoreboard.sv(219) @ 8615000: uvm_test_top.env.scb [axi4_scoreboard] [REF_MEM_WRITE] Addr=0x89822031 Data=0xf9
# UVM_INFO ../src/env/axi4_scoreboard.sv(219) @ 8615000: uvm_test_top.env.scb [axi4_scoreboard] [REF_MEM_WRITE] Addr=0x89822032 Data=0x85
# UVM_INFO ../src/env/axi4_scoreboard.sv(219) @ 8615000: uvm_test_top.env.scb [axi4_scoreboard] [REF_MEM_WRITE] Addr=0x89822033 Data=0x90
# UVM_INFO ../src/env/axi4_scoreboard.sv(219) @ 8615000: uvm_test_top.env.scb [axi4_scoreboard] [REF_MEM_WRITE] Addr=0x89822034 Data=0x0e
# UVM_INFO ../src/env/axi4_scoreboard.sv(219) @ 8615000: uvm_test_top.env.scb [axi4_scoreboard] [REF_MEM_WRITE] Addr=0x89822035 Data=0xf1
# UVM_INFO ../src/env/axi4_scoreboard.sv(219) @ 8615000: uvm_test_top.env.scb [axi4_scoreboard] [REF_MEM_WRITE] Addr=0x89822034 Data=0x90
# UVM_INFO ../src/env/axi4_scoreboard.sv(219) @ 8615000: uvm_test_top.env.scb [axi4_scoreboard] [REF_MEM_WRITE] Addr=0x89822037 Data=0x4a
# UVM_INFO ../src/env/axi4_scoreboard.sv(219) @ 8615000: uvm_test_top.env.scb [axi4_scoreboard] [REF_MEM_WRITE] Addr=0x89822038 Data=0xc4
# UVM_INFO ../src/env/axi4_scoreboard.sv(219) @ 8615000: uvm_test_top.env.scb [axi4_scoreboard] [REF_MEM_WRITE] Addr=0x89822039 Data=0xd9
# UVM_INFO ../src/env/axi4_scoreboard.sv(219) @ 8615000: uvm_test_top.env.scb [axi4_scoreboard] [REF_MEM_WRITE] Addr=0x89822038 Data=0x4c
# UVM_INFO ../src/env/axi4_scoreboard.sv(219) @ 8615000: uvm_test_top.env.scb [axi4_scoreboard] [REF_MEM_WRITE] Addr=0x8982203a Data=0xe9
# UVM_INFO ../src/env/axi4_scoreboard.sv(219) @ 8615000: uvm_test_top.env.scb [axi4_scoreboard] [REF_MEM_WRITE] Addr=0x8982203b Data=0xe4
# UVM_INFO ../src/env/axi4_scoreboard.sv(219) @ 8615000: uvm_test_top.env.scb [axi4_scoreboard] [REF_MEM_WRITE] Addr=0x8982203d Data=0x22
# UVM_INFO ../src/env/axi4_scoreboard.sv(219) @ 8615000: uvm_test_top.env.scb [axi4_scoreboard] [REF_MEM_WRITE] Addr=0x8982203e Data=0xce
# UVM_INFO ../src/env/axi4_scoreboard.sv(219) @ 8615000: uvm_test_top.env.scb [axi4_scoreboard] [REF_MEM_WRITE] Addr=0x8982203d Data=0x17
# UVM_INFO ../src/env/axi4_scoreboard.sv(219) @ 8615000: uvm_test_top.env.scb [axi4_scoreboard] [REF_MEM_WRITE] Addr=0x8982203e Data=0xd6
# UVM_INFO ../src/env/axi4_scoreboard.sv(219) @ 8615000: uvm_test_top.env.scb [axi4_scoreboard] [REF_MEM_WRITE] Addr=0x8982203f Data=0x03
# UVM_INFO ../src/env/axi4_scoreboard.sv(219) @ 8615000: uvm_test_top.env.scb [axi4_scoreboard] [REF_MEM_WRITE] Addr=0x89822040 Data=0x13
# UVM_INFO ../src/env/axi4_scoreboard.sv(219) @ 8615000: uvm_test_top.env.scb [axi4_scoreboard] [REF_MEM_WRITE] Addr=0x89822042 Data=0x55
# UVM_INFO ../src/env/axi4_scoreboard.sv(219) @ 8615000: uvm_test_top.env.scb [axi4_scoreboard] [REF_MEM_WRITE] Addr=0x89822043 Data=0xd2
# UVM_INFO ../src/env/axi4_scoreboard.sv(219) @ 8615000: uvm_test_top.env.scb [axi4_scoreboard] [REF_MEM_WRITE] Addr=0x89822044 Data=0xae
# UVM_INFO ../src/env/axi4_scoreboard.sv(219) @ 8615000: uvm_test_top.env.scb [axi4_scoreboard] [REF_MEM_WRITE] Addr=0x89822047 Data=0x02
# UVM_INFO ../src/env/axi4_scoreboard.sv(219) @ 8615000: uvm_test_top.env.scb [axi4_scoreboard] [REF_MEM_WRITE] Addr=0x89822044 Data=0x8b
# UVM_INFO ../src/env/axi4_scoreboard.sv(219) @ 8615000: uvm_test_top.env.scb [axi4_scoreboard] [REF_MEM_WRITE] Addr=0x89822045 Data=0xcc
# UVM_INFO ../src/env/axi4_scoreboard.sv(219) @ 8615000: uvm_test_top.env.scb [axi4_scoreboard] [REF_MEM_WRITE] Addr=0x89822046 Data=0x3e
# UVM_INFO ../src/env/axi4_scoreboard.sv(219) @ 8615000: uvm_test_top.env.scb [axi4_scoreboard] [REF_MEM_WRITE] Addr=0x89822048 Data=0xa5
# UVM_INFO ../src/env/axi4_scoreboard.sv(219) @ 8615000: uvm_test_top.env.scb [axi4_scoreboard] [REF_MEM_WRITE] Addr=0x89822049 Data=0xe3
# UVM_INFO ../src/env/axi4_scoreboard.sv(219) @ 8615000: uvm_test_top.env.scb [axi4_scoreboard] [REF_MEM_WRITE] Addr=0x8982204b Data=0x36
# UVM_INFO ../src/env/axi4_scoreboard.sv(219) @ 8615000: uvm_test_top.env.scb [axi4_scoreboard] [REF_MEM_WRITE] Addr=0x89822048 Data=0xbe
# UVM_INFO ../src/env/axi4_scoreboard.sv(219) @ 8615000: uvm_test_top.env.scb [axi4_scoreboard] [REF_MEM_WRITE] Addr=0x89822049 Data=0xaf
# UVM_INFO ../src/env/axi4_scoreboard.sv(219) @ 8615000: uvm_test_top.env.scb [axi4_scoreboard] [REF_MEM_WRITE] Addr=0x8982204a Data=0xd3
# UVM_INFO ../src/env/axi4_scoreboard.sv(219) @ 8615000: uvm_test_top.env.scb [axi4_scoreboard] [REF_MEM_WRITE] Addr=0x8982204b Data=0x0d
# UVM_INFO ../src/env/axi4_scoreboard.sv(219) @ 8615000: uvm_test_top.env.scb [axi4_scoreboard] [REF_MEM_WRITE] Addr=0x8982204e Data=0x46
# UVM_INFO ../src/env/axi4_scoreboard.sv(219) @ 8615000: uvm_test_top.env.scb [axi4_scoreboard] [REF_MEM_WRITE] Addr=0x8982204f Data=0xb7
# UVM_INFO ../src/env/axi4_scoreboard.sv(219) @ 8615000: uvm_test_top.env.scb [axi4_scoreboard] [REF_MEM_WRITE] Addr=0x8982204f Data=0x48
# UVM_INFO ../src/env/axi4_scoreboard.sv(219) @ 8615000: uvm_test_top.env.scb [axi4_scoreboard] [REF_MEM_WRITE] Addr=0x89822051 Data=0xa8
# UVM_INFO ../src/env/axi4_scoreboard.sv(219) @ 8615000: uvm_test_top.env.scb [axi4_scoreboard] [REF_MEM_WRITE] Addr=0x89822052 Data=0x34
# UVM_INFO ../src/env/axi4_scoreboard.sv(219) @ 8615000: uvm_test_top.env.scb [axi4_scoreboard] [REF_MEM_WRITE] Addr=0x89822051 Data=0x4b
