# vsim -c -coverage -sv_seed 91202753 "+UVM_TESTNAME=axi4_burst_sweep_test" "+UVM_VERBOSITY=UVM_HIGH" "+DUMP_VCD" -l ./report/logs/axi4_burst_sweep_test_run_5_seed_91202753.log -do "coverage save -onexit ./report/coverage/axi4_burst_sweep_test_run_5_seed_91202753.ucdb; run -all; quit -f" opt_tb_top 
# Start time: 09:38:58 on Jun 11,2026
# //  Questa Sim-64
# //  Version 10.6b linux_x86_64 May 25 2017
# //
# //  Copyright 1991-2017 Mentor Graphics Corporation
# //  All Rights Reserved.
# //
# //  QuestaSim and its associated documentation contain trade
# //  secrets and commercial or financial information that are the property of
# //  Mentor Graphics Corporation and are privileged, confidential,
# //  and exempt from disclosure under the Freedom of Information Act,
# //  5 U.S.C. Section 552. Furthermore, this information
# //  is prohibited from disclosure under the Trade Secrets Act,
# //  18 U.S.C. Section 1905.
# //
# Loading sv_std.std
# Loading work.axi4_if(fast)
# Loading mtiUvm.uvm_pkg
# Loading work.axi4_pkg(fast)
# Loading work.axi4_test_pkg(fast)
# Loading work.tb_top(fast)
# Loading work.axi4_if(fast)
# Loading work.axi4_sva(fast)
# Loading mtiUvm.questa_uvm_pkg(fast)
# Loading /cadtools/mentor/Questa_10.6b/questasim/uvm-1.1d/linux_x86_64/uvm_dpi.so
# coverage save -onexit ./report/coverage/axi4_burst_sweep_test_run_5_seed_91202753.ucdb
#  run -all
# ----------------------------------------------------------------
# UVM-1.1d
# (C) 2007-2013 Mentor Graphics Corporation
# (C) 2007-2013 Cadence Design Systems, Inc.
# (C) 2006-2013 Synopsys, Inc.
# (C) 2011-2013 Cypress Semiconductor Corp.
# ----------------------------------------------------------------
# 
#   ***********       IMPORTANT RELEASE NOTES         ************
# 
#   You are using a version of the UVM library that has been compiled
#   with `UVM_NO_DEPRECATED undefined.
#   See http://www.eda.org/svdb/view.php?id=3313 for more details.
# 
#   You are using a version of the UVM library that has been compiled
#   with `UVM_OBJECT_MUST_HAVE_CONSTRUCTOR undefined.
#   See http://www.eda.org/svdb/view.php?id=3770 for more details.
# 
#       (Specify +UVM_NO_RELNOTES to turn off this notice)
# 
# UVM_INFO verilog_src/questa_uvm_pkg-1.2/src/questa_uvm_pkg.sv(215) @ 0: reporter [Questa UVM] QUESTA_UVM-1.2.3
# UVM_INFO verilog_src/questa_uvm_pkg-1.2/src/questa_uvm_pkg.sv(217) @ 0: reporter [Questa UVM]  questa_uvm::init(+struct)
# UVM_INFO ../src/tb_top.sv(128) @ 0: reporter [TB_TOP] Virtual interface set in config_db
# UVM_INFO @ 0: reporter [RNTST] Running test axi4_burst_sweep_test...
# UVM_INFO ../src/tb_top.sv(142) @ 0: reporter [TB_TOP] Waveform VCD dumping enabled (axi4_vip.vcd)
# UVM_INFO ../src/env/axi4_vip_env.sv(83) @ 0: uvm_test_top.env [axi4_vip_env] slave_vif not set - reusing master_vif (passthrough mode)
# UVM_INFO ../src/env/axi4_vip_env.sv(93) @ 0: uvm_test_top.env [axi4_vip_env] Scoreboard created
# UVM_INFO ../src/env/axi4_vip_env.sv(100) @ 0: uvm_test_top.env [axi4_vip_env] Coverage collectors created
# UVM_INFO ../src/mst/axi4_master_agent.sv(69) @ 0: uvm_test_top.env.master_agent [axi4_master_agent] ACTIVE mode - driver + sequencer created
# UVM_INFO ../src/slv/axi4_slave_agent.sv(82) @ 0: uvm_test_top.env.slave_agent [axi4_slave_agent] ACTIVE mode — ready_delay=[0:0] resp_delay=[0:0]
# UVM_INFO ../src/env/axi4_vip_env.sv(116) @ 0: uvm_test_top.env [axi4_vip_env] Scoreboard connected: master_mon.ap -> scb, slave_mon.ap -> scb
# UVM_INFO ../src/env/axi4_vip_env.sv(124) @ 0: uvm_test_top.env [axi4_vip_env] Coverage connected: master_mon.ap -> master_cov, slave_mon.ap -> slave_cov
# UVM_INFO @ 0: reporter [UVMTOP] UVM testbench topology:
# ---------------------------------------------------------------
# Name                       Type                     Size  Value
# ---------------------------------------------------------------
# uvm_test_top               axi4_burst_sweep_test    -     @473 
#   env                      axi4_vip_env             -     @488 
#     master_agent           axi4_master_agent        -     @503 
#       drv                  axi4_master_driver       -     @567 
#         rsp_port           uvm_analysis_port        -     @582 
#         seq_item_port      uvm_seq_item_pull_port   -     @574 
#       mon                  axi4_master_monitor      -     @559 
#         ap                 uvm_analysis_port        -     @700 
#       sqr                  axi4_master_sequencer    -     @590 
#         rsp_export         uvm_analysis_export      -     @597 
#         seq_item_export    uvm_seq_item_pull_imp    -     @691 
#         arbitration_queue  array                    0     -    
#         lock_queue         array                    0     -    
#         num_last_reqs      integral                 32    'd1  
#         num_last_rsps      integral                 32    'd1  
#     master_cov             axi4_coverage            -     @524 
#       analysis_imp         uvm_analysis_imp         -     @531 
#     scb                    axi4_scoreboard          -     @517 
#       master_export        uvm_analysis_imp_master  -     @714 
#       slave_export         uvm_analysis_imp_slave   -     @722 
#     slave_agent            axi4_slave_agent         -     @510 
#       drv                  axi4_slave_driver        -     @753 
#         rsp_port           uvm_analysis_port        -     @768 
#         seq_item_port      uvm_seq_item_pull_port   -     @760 
#       mon                  axi4_slave_monitor       -     @735 
#         ap                 uvm_analysis_port        -     @892 
#       sqr                  axi4_slave_sequencer     -     @776 
#         rsp_export         uvm_analysis_export      -     @783 
#         seq_item_export    uvm_seq_item_pull_imp    -     @877 
#         arbitration_queue  array                    0     -    
#         lock_queue         array                    0     -    
#         num_last_reqs      integral                 32    'd1  
#         num_last_rsps      integral                 32    'd1  
#     slave_cov              axi4_coverage            -     @539 
#       analysis_imp         uvm_analysis_imp         -     @546 
# ---------------------------------------------------------------
# 
# UVM_INFO verilog_src/questa_uvm_pkg-1.2/src/questa_uvm_pkg.sv(277) @ 0: reporter [Questa UVM] End Of Elaboration
# UVM_INFO ../src/test/axi4_burst_sweep_test.sv(24) @ 0: uvm_test_top [axi4_burst_sweep_test] Starting burst parameters sweep test (including error injection)
# UVM_INFO ../src/seq/axi4_burst_sweep_seq.sv(35) @ 0: uvm_test_top.env.master_agent.sqr@@sweep_seq [axi4_burst_sweep_seq] Starting burst type, size, and length sweep sequence
# UVM_INFO ../src/tb_top.sv(49) @ 95000: reporter [TOP_TB] Reset de-asserted
# UVM_INFO ../src/slv/axi4_slave_driver.sv(122) @ 95000: uvm_test_top.env.slave_agent.drv [axi4_slave_driver] Reset deasserted - slave driver active
# UVM_INFO ../src/mst/axi4_master_driver.sv(64) @ 95000: uvm_test_top.env.master_agent.drv [axi4_master_driver] Reset deasserted - master driver active
# UVM_INFO ../src/mst/axi4_master_monitor.sv(77) @ 95000: uvm_test_top.env.master_agent.mon [axi4_master_monitor] Reset deasserted - monitor active
# UVM_INFO ../src/slv/axi4_slave_monitor.sv(71) @ 95000: uvm_test_top.env.slave_agent.mon [axi4_slave_monitor] Reset deasserted - monitor active
# UVM_INFO ../src/mst/axi4_master_driver.sv(73) @ 95000: uvm_test_top.env.master_agent.drv [axi4_master_driver] Driving AXI4_WRITE  ID=0xc  ADDR=0x216dcaec  LEN=0
# UVM_INFO ../src/mst/axi4_master_driver.sv(73) @ 95000: uvm_test_top.env.master_agent.drv [axi4_master_driver] Driving AXI4_READ  ID=0x4  ADDR=0x774294b6  LEN=0
# UVM_INFO ../src/mst/axi4_master_driver.sv(73) @ 95000: uvm_test_top.env.master_agent.drv [axi4_master_driver] Driving AXI4_WRITE  ID=0x7  ADDR=0xb143b833  LEN=0
# UVM_INFO ../src/mst/axi4_master_driver.sv(73) @ 95000: uvm_test_top.env.master_agent.drv [axi4_master_driver] Driving AXI4_READ  ID=0x8  ADDR=0xb5abf423  LEN=0
# UVM_INFO ../src/mst/axi4_master_driver.sv(73) @ 95000: uvm_test_top.env.master_agent.drv [axi4_master_driver] Driving AXI4_WRITE  ID=0x8  ADDR=0x074a8da9  LEN=0
# UVM_INFO ../src/mst/axi4_master_driver.sv(73) @ 95000: uvm_test_top.env.master_agent.drv [axi4_master_driver] Driving AXI4_READ  ID=0xd  ADDR=0x5b0d2dea  LEN=0
# UVM_INFO ../src/mst/axi4_master_driver.sv(73) @ 95000: uvm_test_top.env.master_agent.drv [axi4_master_driver] Driving AXI4_WRITE  ID=0x2  ADDR=0xcf75f50d  LEN=1
# UVM_INFO ../src/mst/axi4_master_driver.sv(73) @ 95000: uvm_test_top.env.master_agent.drv [axi4_master_driver] Driving AXI4_READ  ID=0x3  ADDR=0xa5d3fed0  LEN=1
# UVM_INFO ../src/mst/axi4_master_driver.sv(73) @ 95000: uvm_test_top.env.master_agent.drv [axi4_master_driver] Driving AXI4_WRITE  ID=0xe  ADDR=0x533f4b04  LEN=1
# UVM_INFO ../src/mst/axi4_master_driver.sv(73) @ 95000: uvm_test_top.env.master_agent.drv [axi4_master_driver] Driving AXI4_READ  ID=0xf  ADDR=0x46c2f0f3  LEN=1
# UVM_INFO ../src/mst/axi4_master_driver.sv(73) @ 95000: uvm_test_top.env.master_agent.drv [axi4_master_driver] Driving AXI4_WRITE  ID=0x6  ADDR=0xcd0d4e17  LEN=1
# UVM_INFO ../src/mst/axi4_master_driver.sv(73) @ 95000: uvm_test_top.env.master_agent.drv [axi4_master_driver] Driving AXI4_READ  ID=0xb  ADDR=0x16e3e9e5  LEN=1
# UVM_INFO ../src/mst/axi4_master_driver.sv(73) @ 95000: uvm_test_top.env.master_agent.drv [axi4_master_driver] Driving AXI4_WRITE  ID=0xb  ADDR=0x7a4bb310  LEN=3
# UVM_INFO ../src/mst/axi4_master_driver.sv(73) @ 95000: uvm_test_top.env.master_agent.drv [axi4_master_driver] Driving AXI4_READ  ID=0x9  ADDR=0xad922434  LEN=3
# UVM_INFO ../src/mst/axi4_master_driver.sv(73) @ 95000: uvm_test_top.env.master_agent.drv [axi4_master_driver] Driving AXI4_WRITE  ID=0xa  ADDR=0xaf93cba2  LEN=3
# UVM_INFO ../src/mst/axi4_master_driver.sv(73) @ 95000: uvm_test_top.env.master_agent.drv [axi4_master_driver] Driving AXI4_READ  ID=0xd  ADDR=0xb2cb1671  LEN=3
# UVM_INFO ../src/mst/axi4_master_driver.sv(73) @ 95000: uvm_test_top.env.master_agent.drv [axi4_master_driver] Driving AXI4_WRITE  ID=0x4  ADDR=0x8af1d801  LEN=3
# UVM_INFO ../src/mst/axi4_master_driver.sv(73) @ 95000: uvm_test_top.env.master_agent.drv [axi4_master_driver] Driving AXI4_READ  ID=0x9  ADDR=0x6121f5dc  LEN=3
# UVM_INFO ../src/mst/axi4_master_driver.sv(73) @ 95000: uvm_test_top.env.master_agent.drv [axi4_master_driver] Driving AXI4_WRITE  ID=0xc  ADDR=0x93749960  LEN=7
# UVM_INFO ../src/mst/axi4_master_driver.sv(73) @ 95000: uvm_test_top.env.master_agent.drv [axi4_master_driver] Driving AXI4_READ  ID=0x5  ADDR=0x19cfb96d  LEN=7
# UVM_INFO ../src/mst/axi4_master_driver.sv(73) @ 95000: uvm_test_top.env.master_agent.drv [axi4_master_driver] Driving AXI4_WRITE  ID=0x7  ADDR=0x0cd03490  LEN=7
# UVM_INFO ../src/mst/axi4_master_driver.sv(73) @ 95000: uvm_test_top.env.master_agent.drv [axi4_master_driver] Driving AXI4_READ  ID=0xb  ADDR=0x6a793322  LEN=7
# UVM_INFO ../src/mst/axi4_master_driver.sv(73) @ 95000: uvm_test_top.env.master_agent.drv [axi4_master_driver] Driving AXI4_WRITE  ID=0x2  ADDR=0xb703940a  LEN=7
# UVM_INFO ../src/mst/axi4_master_driver.sv(73) @ 95000: uvm_test_top.env.master_agent.drv [axi4_master_driver] Driving AXI4_READ  ID=0xa  ADDR=0xb3f4adf2  LEN=7
# UVM_INFO ../src/mst/axi4_master_driver.sv(73) @ 95000: uvm_test_top.env.master_agent.drv [axi4_master_driver] Driving AXI4_WRITE  ID=0x4  ADDR=0x9b5d7977  LEN=15
# UVM_INFO ../src/mst/axi4_master_driver.sv(73) @ 95000: uvm_test_top.env.master_agent.drv [axi4_master_driver] Driving AXI4_READ  ID=0x3  ADDR=0xcf9d30bb  LEN=15
# UVM_INFO ../src/mst/axi4_master_driver.sv(73) @ 95000: uvm_test_top.env.master_agent.drv [axi4_master_driver] Driving AXI4_WRITE  ID=0xe  ADDR=0xa20051df  LEN=15
# UVM_INFO ../src/mst/axi4_master_driver.sv(73) @ 95000: uvm_test_top.env.master_agent.drv [axi4_master_driver] Driving AXI4_READ  ID=0x0  ADDR=0x2dc861ac  LEN=15
# UVM_INFO ../src/mst/axi4_master_driver.sv(73) @ 95000: uvm_test_top.env.master_agent.drv [axi4_master_driver] Driving AXI4_WRITE  ID=0x9  ADDR=0x6a3a0188  LEN=15
# UVM_INFO ../src/mst/axi4_master_driver.sv(73) @ 95000: uvm_test_top.env.master_agent.drv [axi4_master_driver] Driving AXI4_READ  ID=0xd  ADDR=0xc8d46dc5  LEN=15
# UVM_INFO ../src/mst/axi4_master_driver.sv(73) @ 95000: uvm_test_top.env.master_agent.drv [axi4_master_driver] Driving AXI4_WRITE  ID=0xb  ADDR=0x2e27b0eb  LEN=1
# UVM_INFO ../src/mst/axi4_master_driver.sv(73) @ 95000: uvm_test_top.env.master_agent.drv [axi4_master_driver] Driving AXI4_READ  ID=0x5  ADDR=0x81e69d82  LEN=1
# UVM_INFO ../src/mst/axi4_master_driver.sv(73) @ 95000: uvm_test_top.env.master_agent.drv [axi4_master_driver] Driving AXI4_WRITE  ID=0x0  ADDR=0xcf04c184  LEN=1
# UVM_INFO ../src/mst/axi4_master_driver.sv(73) @ 95000: uvm_test_top.env.master_agent.drv [axi4_master_driver] Driving AXI4_READ  ID=0x7  ADDR=0x9a8c3022  LEN=1
# UVM_INFO ../src/mst/axi4_master_driver.sv(73) @ 95000: uvm_test_top.env.master_agent.drv [axi4_master_driver] Driving AXI4_WRITE  ID=0x5  ADDR=0xb66af178  LEN=1
# UVM_INFO ../src/mst/axi4_master_driver.sv(73) @ 95000: uvm_test_top.env.master_agent.drv [axi4_master_driver] Driving AXI4_READ  ID=0xd  ADDR=0xc3d89a24  LEN=1
# UVM_INFO ../src/mst/axi4_master_driver.sv(73) @ 95000: uvm_test_top.env.master_agent.drv [axi4_master_driver] Driving AXI4_WRITE  ID=0x8  ADDR=0xdab0fc06  LEN=3
# UVM_INFO ../src/mst/axi4_master_driver.sv(73) @ 95000: uvm_test_top.env.master_agent.drv [axi4_master_driver] Driving AXI4_READ  ID=0x2  ADDR=0xc4e6577b  LEN=3
# UVM_INFO ../src/mst/axi4_master_driver.sv(73) @ 95000: uvm_test_top.env.master_agent.drv [axi4_master_driver] Driving AXI4_WRITE  ID=0xe  ADDR=0x0e475f2e  LEN=3
# UVM_INFO ../src/mst/axi4_master_driver.sv(73) @ 95000: uvm_test_top.env.master_agent.drv [axi4_master_driver] Driving AXI4_READ  ID=0x2  ADDR=0xa057a844  LEN=3
# UVM_INFO ../src/mst/axi4_master_driver.sv(73) @ 95000: uvm_test_top.env.master_agent.drv [axi4_master_driver] Driving AXI4_WRITE  ID=0x1  ADDR=0xc7e29aa0  LEN=3
# UVM_INFO ../src/mst/axi4_master_driver.sv(73) @ 95000: uvm_test_top.env.master_agent.drv [axi4_master_driver] Driving AXI4_READ  ID=0x3  ADDR=0x1e2ce980  LEN=3
# UVM_INFO ../src/mst/axi4_master_driver.sv(73) @ 95000: uvm_test_top.env.master_agent.drv [axi4_master_driver] Driving AXI4_WRITE  ID=0x5  ADDR=0xd02ebbe0  LEN=7
# UVM_INFO ../src/mst/axi4_master_driver.sv(73) @ 95000: uvm_test_top.env.master_agent.drv [axi4_master_driver] Driving AXI4_READ  ID=0xf  ADDR=0xac2e6439  LEN=7
# UVM_INFO ../src/mst/axi4_master_driver.sv(73) @ 95000: uvm_test_top.env.master_agent.drv [axi4_master_driver] Driving AXI4_WRITE  ID=0x1  ADDR=0x989be37e  LEN=7
# UVM_INFO ../src/mst/axi4_master_driver.sv(73) @ 95000: uvm_test_top.env.master_agent.drv [axi4_master_driver] Driving AXI4_READ  ID=0x0  ADDR=0xa40e9172  LEN=7
# UVM_INFO ../src/mst/axi4_master_driver.sv(73) @ 95000: uvm_test_top.env.master_agent.drv [axi4_master_driver] Driving AXI4_WRITE  ID=0x6  ADDR=0x8a2d43a4  LEN=7
# UVM_INFO ../src/mst/axi4_master_driver.sv(73) @ 95000: uvm_test_top.env.master_agent.drv [axi4_master_driver] Driving AXI4_READ  ID=0x7  ADDR=0x51e19914  LEN=7
# UVM_INFO ../src/mst/axi4_master_driver.sv(73) @ 95000: uvm_test_top.env.master_agent.drv [axi4_master_driver] Driving AXI4_WRITE  ID=0x3  ADDR=0xd4496f65  LEN=15
# UVM_INFO ../src/mst/axi4_master_driver.sv(73) @ 95000: uvm_test_top.env.master_agent.drv [axi4_master_driver] Driving AXI4_READ  ID=0xf  ADDR=0x00827512  LEN=15
# UVM_INFO ../src/mst/axi4_master_driver.sv(73) @ 95000: uvm_test_top.env.master_agent.drv [axi4_master_driver] Driving AXI4_WRITE  ID=0x8  ADDR=0x72856e9a  LEN=15
# UVM_INFO ../src/mst/axi4_master_driver.sv(73) @ 95000: uvm_test_top.env.master_agent.drv [axi4_master_driver] Driving AXI4_READ  ID=0x3  ADDR=0xb825a1ba  LEN=15
# UVM_INFO ../src/mst/axi4_master_driver.sv(73) @ 95000: uvm_test_top.env.master_agent.drv [axi4_master_driver] Driving AXI4_WRITE  ID=0xb  ADDR=0x0d616c54  LEN=15
# UVM_INFO ../src/mst/axi4_master_driver.sv(73) @ 95000: uvm_test_top.env.master_agent.drv [axi4_master_driver] Driving AXI4_READ  ID=0x0  ADDR=0xc6fe1ac8  LEN=15
# UVM_INFO ../src/mst/axi4_master_driver.sv(73) @ 95000: uvm_test_top.env.master_agent.drv [axi4_master_driver] Driving AXI4_WRITE  ID=0x4  ADDR=0xd08b51b0  LEN=0
# UVM_INFO ../src/mst/axi4_master_driver.sv(73) @ 95000: uvm_test_top.env.master_agent.drv [axi4_master_driver] Driving AXI4_READ  ID=0xe  ADDR=0x0d3249a6  LEN=0
# UVM_INFO ../src/mst/axi4_master_driver.sv(73) @ 95000: uvm_test_top.env.master_agent.drv [axi4_master_driver] Driving AXI4_WRITE  ID=0xa  ADDR=0xb2db526d  LEN=0
# UVM_INFO ../src/mst/axi4_master_driver.sv(73) @ 95000: uvm_test_top.env.master_agent.drv [axi4_master_driver] Driving AXI4_READ  ID=0x9  ADDR=0xa8738917  LEN=0
# UVM_INFO ../src/mst/axi4_master_driver.sv(73) @ 95000: uvm_test_top.env.master_agent.drv [axi4_master_driver] Driving AXI4_WRITE  ID=0x7  ADDR=0x5b3dbd06  LEN=0
# UVM_INFO ../src/mst/axi4_master_driver.sv(73) @ 95000: uvm_test_top.env.master_agent.drv [axi4_master_driver] Driving AXI4_READ  ID=0xf  ADDR=0xa0333a56  LEN=0
# UVM_INFO ../src/mst/axi4_master_driver.sv(73) @ 95000: uvm_test_top.env.master_agent.drv [axi4_master_driver] Driving AXI4_WRITE  ID=0x8  ADDR=0xd2281638  LEN=2
# UVM_INFO ../src/mst/axi4_master_driver.sv(73) @ 95000: uvm_test_top.env.master_agent.drv [axi4_master_driver] Driving AXI4_READ  ID=0xe  ADDR=0x34872653  LEN=2
# UVM_INFO ../src/mst/axi4_master_driver.sv(73) @ 95000: uvm_test_top.env.master_agent.drv [axi4_master_driver] Driving AXI4_WRITE  ID=0xe  ADDR=0xc4e56bb4  LEN=2
# UVM_INFO ../src/mst/axi4_master_driver.sv(73) @ 95000: uvm_test_top.env.master_agent.drv [axi4_master_driver] Driving AXI4_READ  ID=0xb  ADDR=0xa94e6710  LEN=2
# UVM_INFO ../src/mst/axi4_master_driver.sv(73) @ 95000: uvm_test_top.env.master_agent.drv [axi4_master_driver] Driving AXI4_WRITE  ID=0xa  ADDR=0x7689e774  LEN=2
# UVM_INFO ../src/mst/axi4_master_driver.sv(73) @ 95000: uvm_test_top.env.master_agent.drv [axi4_master_driver] Driving AXI4_READ  ID=0x6  ADDR=0x6c8e1900  LEN=2
# UVM_INFO ../src/mst/axi4_master_driver.sv(73) @ 95000: uvm_test_top.env.master_agent.drv [axi4_master_driver] Driving AXI4_WRITE  ID=0x8  ADDR=0xc30feb22  LEN=10
# UVM_INFO ../src/mst/axi4_master_driver.sv(73) @ 95000: uvm_test_top.env.master_agent.drv [axi4_master_driver] Driving AXI4_READ  ID=0x5  ADDR=0x68d28c75  LEN=10
# UVM_INFO ../src/mst/axi4_master_driver.sv(73) @ 95000: uvm_test_top.env.master_agent.drv [axi4_master_driver] Driving AXI4_WRITE  ID=0x8  ADDR=0x7357a614  LEN=10
# UVM_INFO ../src/mst/axi4_master_driver.sv(73) @ 95000: uvm_test_top.env.master_agent.drv [axi4_master_driver] Driving AXI4_READ  ID=0xe  ADDR=0xace496b1  LEN=10
# UVM_INFO ../src/mst/axi4_master_driver.sv(73) @ 95000: uvm_test_top.env.master_agent.drv [axi4_master_driver] Driving AXI4_WRITE  ID=0xe  ADDR=0x8cfaacf2  LEN=10
# UVM_INFO ../src/mst/axi4_master_driver.sv(73) @ 95000: uvm_test_top.env.master_agent.drv [axi4_master_driver] Driving AXI4_READ  ID=0x4  ADDR=0x4106c6ba  LEN=10
# UVM_INFO ../src/mst/axi4_master_driver.sv(73) @ 95000: uvm_test_top.env.master_agent.drv [axi4_master_driver] Driving AXI4_WRITE  ID=0x9  ADDR=0xc01c7f08  LEN=32
# UVM_INFO ../src/mst/axi4_master_driver.sv(73) @ 95000: uvm_test_top.env.master_agent.drv [axi4_master_driver] Driving AXI4_READ  ID=0xf  ADDR=0xc25b9ce9  LEN=32
# UVM_INFO ../src/mst/axi4_master_driver.sv(73) @ 95000: uvm_test_top.env.master_agent.drv [axi4_master_driver] Driving AXI4_WRITE  ID=0xf  ADDR=0xc6f0bcfc  LEN=32
# UVM_INFO ../src/mst/axi4_master_driver.sv(73) @ 95000: uvm_test_top.env.master_agent.drv [axi4_master_driver] Driving AXI4_READ  ID=0xc  ADDR=0xd6f2807b  LEN=32
# UVM_INFO ../src/mst/axi4_master_driver.sv(73) @ 95000: uvm_test_top.env.master_agent.drv [axi4_master_driver] Driving AXI4_WRITE  ID=0xf  ADDR=0x3c06c97d  LEN=32
# UVM_INFO ../src/mst/axi4_master_driver.sv(73) @ 95000: uvm_test_top.env.master_agent.drv [axi4_master_driver] Driving AXI4_READ  ID=0x5  ADDR=0x9d9c9c60  LEN=32
# UVM_INFO ../src/mst/axi4_master_driver.sv(73) @ 95000: uvm_test_top.env.master_agent.drv [axi4_master_driver] Driving AXI4_WRITE  ID=0x4  ADDR=0x70553206  LEN=100
# UVM_INFO ../src/mst/axi4_master_driver.sv(73) @ 95000: uvm_test_top.env.master_agent.drv [axi4_master_driver] Driving AXI4_READ  ID=0xc  ADDR=0x68e833a1  LEN=100
# UVM_INFO ../src/mst/axi4_master_driver.sv(73) @ 95000: uvm_test_top.env.master_agent.drv [axi4_master_driver] Driving AXI4_WRITE  ID=0xe  ADDR=0x8c8d4242  LEN=100
# UVM_INFO ../src/mst/axi4_master_driver.sv(73) @ 95000: uvm_test_top.env.master_agent.drv [axi4_master_driver] Driving AXI4_READ  ID=0x3  ADDR=0x483cbd15  LEN=100
# UVM_INFO ../src/mst/axi4_master_driver.sv(73) @ 95000: uvm_test_top.env.master_agent.drv [axi4_master_driver] Driving AXI4_WRITE  ID=0x4  ADDR=0x223017b7  LEN=100
# UVM_INFO ../src/mst/axi4_master_driver.sv(73) @ 95000: uvm_test_top.env.master_agent.drv [axi4_master_driver] Driving AXI4_READ  ID=0x6  ADDR=0xdebd3121  LEN=100
# UVM_INFO ../src/mst/axi4_master_driver.sv(73) @ 95000: uvm_test_top.env.master_agent.drv [axi4_master_driver] Driving AXI4_WRITE  ID=0x1  ADDR=0x7b5777d0  LEN=255
# UVM_INFO ../src/mst/axi4_master_driver.sv(73) @ 95000: uvm_test_top.env.master_agent.drv [axi4_master_driver] Driving AXI4_READ  ID=0x7  ADDR=0xbd222b66  LEN=255
# UVM_INFO ../src/mst/axi4_master_driver.sv(73) @ 95000: uvm_test_top.env.master_agent.drv [axi4_master_driver] Driving AXI4_WRITE  ID=0x7  ADDR=0x1b8e1faa  LEN=255
# UVM_INFO ../src/mst/axi4_master_driver.sv(73) @ 95000: uvm_test_top.env.master_agent.drv [axi4_master_driver] Driving AXI4_READ  ID=0x5  ADDR=0x5ac72d0c  LEN=255
# UVM_INFO ../src/mst/axi4_master_driver.sv(73) @ 95000: uvm_test_top.env.master_agent.drv [axi4_master_driver] Driving AXI4_WRITE  ID=0x8  ADDR=0xb94935f5  LEN=255
# UVM_INFO ../src/mst/axi4_master_driver.sv(73) @ 95000: uvm_test_top.env.master_agent.drv [axi4_master_driver] Driving AXI4_READ  ID=0x5  ADDR=0xaf5670a3  LEN=255
# UVM_INFO ../src/mst/axi4_master_driver.sv(73) @ 95000: uvm_test_top.env.master_agent.drv [axi4_master_driver] Driving AXI4_WRITE  ID=0x1  ADDR=0xe0000000  LEN=0
# UVM_INFO ../src/mst/axi4_master_driver.sv(73) @ 95000: uvm_test_top.env.master_agent.drv [axi4_master_driver] Driving AXI4_READ  ID=0x3  ADDR=0xe0000000  LEN=0
# UVM_INFO ../src/mst/axi4_master_driver.sv(73) @ 95000: uvm_test_top.env.master_agent.drv [axi4_master_driver] Driving AXI4_WRITE  ID=0xe  ADDR=0xf0000000  LEN=0
# UVM_INFO ../src/mst/axi4_master_driver.sv(73) @ 95000: uvm_test_top.env.master_agent.drv [axi4_master_driver] Driving AXI4_READ  ID=0xf  ADDR=0xf0000000  LEN=0
# UVM_INFO ../src/seq/axi4_burst_sweep_seq.sv(170) @ 95000: uvm_test_top.env.master_agent.sqr@@sweep_seq [axi4_burst_sweep_seq] Burst sweep sequence complete: sent 94 transactions
# UVM_INFO ../src/slv/axi4_slave_driver.sv(358) @ 115000: uvm_test_top.env.slave_agent.drv [axi4_slave_driver] AR received: ID=0x4 ADDR=0x774294b6 LEN=0 LOCK=AXI4_LOCK_NORMAL
# UVM_INFO ../src/slv/axi4_slave_driver.sv(212) @ 115000: uvm_test_top.env.slave_agent.drv [axi4_slave_driver] AW received: ID=0xc ADDR=0x216dcaec LEN=0 LOCK=AXI4_LOCK_EXCLUSIVE
# UVM_INFO ../src/slv/axi4_slave_monitor.sv(224) @ 115000: uvm_test_top.env.slave_agent.mon [axi4_slave_monitor] AR received: ID=0x4 ADDR=0x774294b6 LEN=0
# UVM_INFO ../src/slv/axi4_slave_monitor.sv(116) @ 115000: uvm_test_top.env.slave_agent.mon [axi4_slave_monitor] AW received: ID=0xc ADDR=0x216dcaec LEN=0
# UVM_INFO ../src/mst/axi4_master_monitor.sv(246) @ 115000: uvm_test_top.env.master_agent.mon [axi4_master_monitor] AR observed: ID=0x4 ADDR=0x774294b6 LEN=0
# UVM_INFO ../src/mst/axi4_master_monitor.sv(124) @ 115000: uvm_test_top.env.master_agent.mon [axi4_master_monitor] AW observed: ID=0xc ADDR=0x216dcaec LEN=0
# UVM_INFO ../src/mst/axi4_master_driver.sv(348) @ 135000: uvm_test_top.env.master_agent.drv [axi4_master_driver] Master driver received all R beats for ID=0x4
# UVM_INFO ../src/slv/axi4_slave_driver.sv(464) @ 135000: uvm_test_top.env.slave_agent.drv [axi4_slave_driver] Read complete: ID=0x4 ADDR=0x774294b6 RESP=AXI4_RESP_OKAY  1 beats sent
# UVM_INFO ../src/slv/axi4_slave_monitor.sv(287) @ 135000: uvm_test_top.env.slave_agent.mon [axi4_slave_monitor] Read data sent: ID=0x4 ADDR=0x774294b6 1 beats
# UVM_INFO ../src/env/axi4_scoreboard.sv(108) @ 135000: uvm_test_top.env.scb [axi4_scoreboard] Slave AXI4_READ received: ID=0x4 ADDR=0x774294b6 LEN=0
# UVM_INFO ../src/mst/axi4_master_monitor.sv(314) @ 135000: uvm_test_top.env.master_agent.mon [axi4_master_monitor] Read complete: ID=0x4 ADDR=0x774294b6 1 beats
# UVM_INFO ../src/env/axi4_scoreboard.sv(87) @ 135000: uvm_test_top.env.scb [axi4_scoreboard] Master AXI4_READ received: ID=0x4 ADDR=0x774294b6 LEN=0
# UVM_INFO ../src/env/axi4_scoreboard.sv(291) @ 135000: uvm_test_top.env.scb [axi4_scoreboard] [READ] MATCH #1: ID=0x4 ADDR=0x774294b6 LEN=0
# UVM_INFO ../src/slv/axi4_slave_monitor.sv(167) @ 135000: uvm_test_top.env.slave_agent.mon [axi4_slave_monitor] W data assembled: ID=0xc ADDR=0x216dcaec 1 beats
# UVM_INFO ../src/mst/axi4_master_monitor.sv(184) @ 135000: uvm_test_top.env.master_agent.mon [axi4_master_monitor] W data assembled: ID=0xc ADDR=0x216dcaec 1 beats
# UVM_INFO ../src/slv/axi4_slave_driver.sv(212) @ 145000: uvm_test_top.env.slave_agent.drv [axi4_slave_driver] AW received: ID=0x7 ADDR=0xb143b833 LEN=0 LOCK=AXI4_LOCK_NORMAL
# UVM_INFO ../src/slv/axi4_slave_driver.sv(358) @ 145000: uvm_test_top.env.slave_agent.drv [axi4_slave_driver] AR received: ID=0x8 ADDR=0xb5abf423 LEN=0 LOCK=AXI4_LOCK_EXCLUSIVE
# UVM_INFO ../src/mst/axi4_master_monitor.sv(124) @ 145000: uvm_test_top.env.master_agent.mon [axi4_master_monitor] AW observed: ID=0x7 ADDR=0xb143b833 LEN=0
# UVM_INFO ../src/mst/axi4_master_monitor.sv(246) @ 145000: uvm_test_top.env.master_agent.mon [axi4_master_monitor] AR observed: ID=0x8 ADDR=0xb5abf423 LEN=0
# UVM_INFO ../src/slv/axi4_slave_monitor.sv(116) @ 145000: uvm_test_top.env.slave_agent.mon [axi4_slave_monitor] AW received: ID=0x7 ADDR=0xb143b833 LEN=0
# UVM_INFO ../src/slv/axi4_slave_monitor.sv(224) @ 145000: uvm_test_top.env.slave_agent.mon [axi4_slave_monitor] AR received: ID=0x8 ADDR=0xb5abf423 LEN=0
# UVM_INFO ../src/slv/axi4_slave_monitor.sv(167) @ 155000: uvm_test_top.env.slave_agent.mon [axi4_slave_monitor] W data assembled: ID=0x7 ADDR=0xb143b833 1 beats
# UVM_INFO ../src/mst/axi4_master_monitor.sv(184) @ 155000: uvm_test_top.env.master_agent.mon [axi4_master_monitor] W data assembled: ID=0x7 ADDR=0xb143b833 1 beats
# UVM_INFO ../src/mst/axi4_master_driver.sv(289) @ 165000: uvm_test_top.env.master_agent.drv [axi4_master_driver] Master driver received B response: ID=0xc RESP=AXI4_RESP_OKAY
# UVM_INFO ../src/mst/axi4_master_driver.sv(348) @ 165000: uvm_test_top.env.master_agent.drv [axi4_master_driver] Master driver received all R beats for ID=0x8
# UVM_INFO ../src/slv/axi4_slave_driver.sv(464) @ 165000: uvm_test_top.env.slave_agent.drv [axi4_slave_driver] Read complete: ID=0x8 ADDR=0xb5abf423 RESP=AXI4_RESP_EXOKAY  1 beats sent
# UVM_INFO ../src/slv/axi4_slave_driver.sv(320) @ 165000: uvm_test_top.env.slave_agent.drv [axi4_slave_driver] Write complete: ID=0xc RESP=AXI4_RESP_OKAY
# UVM_INFO ../src/mst/axi4_master_monitor.sv(210) @ 165000: uvm_test_top.env.master_agent.mon [axi4_master_monitor] Write complete: ID=0xc ADDR=0x216dcaec RESP=AXI4_RESP_OKAY
# UVM_INFO ../src/env/axi4_scoreboard.sv(87) @ 165000: uvm_test_top.env.scb [axi4_scoreboard] Master AXI4_WRITE received: ID=0xc ADDR=0x216dcaec LEN=0
# UVM_INFO ../src/mst/axi4_master_monitor.sv(314) @ 165000: uvm_test_top.env.master_agent.mon [axi4_master_monitor] Read complete: ID=0x8 ADDR=0xb5abf423 1 beats
# UVM_INFO ../src/env/axi4_scoreboard.sv(87) @ 165000: uvm_test_top.env.scb [axi4_scoreboard] Master AXI4_READ received: ID=0x8 ADDR=0xb5abf423 LEN=0
# UVM_INFO ../src/slv/axi4_slave_monitor.sv(189) @ 165000: uvm_test_top.env.slave_agent.mon [axi4_slave_monitor] Write response sent: ID=0xc ADDR=0x216dcaec RESP=AXI4_RESP_OKAY
# UVM_INFO ../src/env/axi4_scoreboard.sv(108) @ 165000: uvm_test_top.env.scb [axi4_scoreboard] Slave AXI4_WRITE received: ID=0xc ADDR=0x216dcaec LEN=0
# UVM_INFO ../src/env/axi4_scoreboard.sv(291) @ 165000: uvm_test_top.env.scb [axi4_scoreboard] [WRITE] MATCH #2: ID=0xc ADDR=0x216dcaec LEN=0
# UVM_INFO ../src/env/axi4_scoreboard.sv(226) @ 165000: uvm_test_top.env.scb [axi4_scoreboard] [REF_MEM_WRITE_IGNORED] Write ignored for ADDR=0x216dcaec LOCK=AXI4_LOCK_EXCLUSIVE RESP=AXI4_RESP_OKAY
# UVM_INFO ../src/slv/axi4_slave_monitor.sv(287) @ 165000: uvm_test_top.env.slave_agent.mon [axi4_slave_monitor] Read data sent: ID=0x8 ADDR=0xb5abf423 1 beats
# UVM_INFO ../src/env/axi4_scoreboard.sv(108) @ 165000: uvm_test_top.env.scb [axi4_scoreboard] Slave AXI4_READ received: ID=0x8 ADDR=0xb5abf423 LEN=0
# UVM_INFO ../src/env/axi4_scoreboard.sv(291) @ 165000: uvm_test_top.env.scb [axi4_scoreboard] [READ] MATCH #3: ID=0x8 ADDR=0xb5abf423 LEN=0
# UVM_INFO ../src/slv/axi4_slave_driver.sv(358) @ 175000: uvm_test_top.env.slave_agent.drv [axi4_slave_driver] AR received: ID=0xd ADDR=0x5b0d2dea LEN=0 LOCK=AXI4_LOCK_NORMAL
# UVM_INFO ../src/slv/axi4_slave_monitor.sv(224) @ 175000: uvm_test_top.env.slave_agent.mon [axi4_slave_monitor] AR received: ID=0xd ADDR=0x5b0d2dea LEN=0
# UVM_INFO ../src/mst/axi4_master_monitor.sv(246) @ 175000: uvm_test_top.env.master_agent.mon [axi4_master_monitor] AR observed: ID=0xd ADDR=0x5b0d2dea LEN=0
# UVM_INFO ../src/mst/axi4_master_driver.sv(289) @ 185000: uvm_test_top.env.master_agent.drv [axi4_master_driver] Master driver received B response: ID=0x7 RESP=AXI4_RESP_OKAY
# UVM_INFO ../src/slv/axi4_slave_driver.sv(320) @ 185000: uvm_test_top.env.slave_agent.drv [axi4_slave_driver] Write complete: ID=0x7 RESP=AXI4_RESP_OKAY
# UVM_INFO ../src/mst/axi4_master_monitor.sv(210) @ 185000: uvm_test_top.env.master_agent.mon [axi4_master_monitor] Write complete: ID=0x7 ADDR=0xb143b833 RESP=AXI4_RESP_OKAY
# UVM_INFO ../src/env/axi4_scoreboard.sv(87) @ 185000: uvm_test_top.env.scb [axi4_scoreboard] Master AXI4_WRITE received: ID=0x7 ADDR=0xb143b833 LEN=0
# UVM_INFO ../src/slv/axi4_slave_monitor.sv(189) @ 185000: uvm_test_top.env.slave_agent.mon [axi4_slave_monitor] Write response sent: ID=0x7 ADDR=0xb143b833 RESP=AXI4_RESP_OKAY
# UVM_INFO ../src/env/axi4_scoreboard.sv(108) @ 185000: uvm_test_top.env.scb [axi4_scoreboard] Slave AXI4_WRITE received: ID=0x7 ADDR=0xb143b833 LEN=0
# UVM_INFO ../src/env/axi4_scoreboard.sv(291) @ 185000: uvm_test_top.env.scb [axi4_scoreboard] [WRITE] MATCH #4: ID=0x7 ADDR=0xb143b833 LEN=0
# UVM_INFO ../src/env/axi4_scoreboard.sv(219) @ 185000: uvm_test_top.env.scb [axi4_scoreboard] [REF_MEM_WRITE] Addr=0xb143b831 Data=0x68
# UVM_INFO ../src/env/axi4_scoreboard.sv(219) @ 185000: uvm_test_top.env.scb [axi4_scoreboard] [REF_MEM_WRITE] Addr=0xb143b832 Data=0xdd
# UVM_INFO ../src/env/axi4_scoreboard.sv(219) @ 185000: uvm_test_top.env.scb [axi4_scoreboard] [REF_MEM_WRITE] Addr=0xb143b833 Data=0xa3
# UVM_INFO ../src/mst/axi4_master_driver.sv(348) @ 195000: uvm_test_top.env.master_agent.drv [axi4_master_driver] Master driver received all R beats for ID=0xd
# UVM_INFO ../src/slv/axi4_slave_driver.sv(464) @ 195000: uvm_test_top.env.slave_agent.drv [axi4_slave_driver] Read complete: ID=0xd ADDR=0x5b0d2dea RESP=AXI4_RESP_OKAY  1 beats sent
# UVM_INFO ../src/slv/axi4_slave_monitor.sv(287) @ 195000: uvm_test_top.env.slave_agent.mon [axi4_slave_monitor] Read data sent: ID=0xd ADDR=0x5b0d2dea 1 beats
# UVM_INFO ../src/env/axi4_scoreboard.sv(108) @ 195000: uvm_test_top.env.scb [axi4_scoreboard] Slave AXI4_READ received: ID=0xd ADDR=0x5b0d2dea LEN=0
# UVM_INFO ../src/mst/axi4_master_monitor.sv(314) @ 195000: uvm_test_top.env.master_agent.mon [axi4_master_monitor] Read complete: ID=0xd ADDR=0x5b0d2dea 1 beats
# UVM_INFO ../src/env/axi4_scoreboard.sv(87) @ 195000: uvm_test_top.env.scb [axi4_scoreboard] Master AXI4_READ received: ID=0xd ADDR=0x5b0d2dea LEN=0
# UVM_INFO ../src/env/axi4_scoreboard.sv(291) @ 195000: uvm_test_top.env.scb [axi4_scoreboard] [READ] MATCH #5: ID=0xd ADDR=0x5b0d2dea LEN=0
# UVM_INFO ../src/slv/axi4_slave_driver.sv(358) @ 205000: uvm_test_top.env.slave_agent.drv [axi4_slave_driver] AR received: ID=0x3 ADDR=0xa5d3fed0 LEN=1 LOCK=AXI4_LOCK_NORMAL
# UVM_INFO ../src/mst/axi4_master_monitor.sv(246) @ 205000: uvm_test_top.env.master_agent.mon [axi4_master_monitor] AR observed: ID=0x3 ADDR=0xa5d3fed0 LEN=1
# UVM_INFO ../src/slv/axi4_slave_monitor.sv(224) @ 205000: uvm_test_top.env.slave_agent.mon [axi4_slave_monitor] AR received: ID=0x3 ADDR=0xa5d3fed0 LEN=1
# UVM_INFO ../src/slv/axi4_slave_driver.sv(212) @ 225000: uvm_test_top.env.slave_agent.drv [axi4_slave_driver] AW received: ID=0x8 ADDR=0x074a8da9 LEN=0 LOCK=AXI4_LOCK_NORMAL
# UVM_INFO ../src/mst/axi4_master_monitor.sv(124) @ 225000: uvm_test_top.env.master_agent.mon [axi4_master_monitor] AW observed: ID=0x8 ADDR=0x074a8da9 LEN=0
# UVM_INFO ../src/slv/axi4_slave_monitor.sv(116) @ 225000: uvm_test_top.env.slave_agent.mon [axi4_slave_monitor] AW received: ID=0x8 ADDR=0x074a8da9 LEN=0
# UVM_INFO ../src/mst/axi4_master_monitor.sv(184) @ 225000: uvm_test_top.env.master_agent.mon [axi4_master_monitor] W data assembled: ID=0x8 ADDR=0x074a8da9 1 beats
# UVM_INFO ../src/slv/axi4_slave_monitor.sv(167) @ 225000: uvm_test_top.env.slave_agent.mon [axi4_slave_monitor] W data assembled: ID=0x8 ADDR=0x074a8da9 1 beats
# UVM_INFO ../src/slv/axi4_slave_driver.sv(358) @ 235000: uvm_test_top.env.slave_agent.drv [axi4_slave_driver] AR received: ID=0xf ADDR=0x46c2f0f3 LEN=1 LOCK=AXI4_LOCK_NORMAL
# UVM_INFO ../src/slv/axi4_slave_monitor.sv(224) @ 235000: uvm_test_top.env.slave_agent.mon [axi4_slave_monitor] AR received: ID=0xf ADDR=0x46c2f0f3 LEN=1
# UVM_INFO ../src/mst/axi4_master_monitor.sv(246) @ 235000: uvm_test_top.env.master_agent.mon [axi4_master_monitor] AR observed: ID=0xf ADDR=0x46c2f0f3 LEN=1
# UVM_INFO ../src/mst/axi4_master_driver.sv(289) @ 245000: uvm_test_top.env.master_agent.drv [axi4_master_driver] Master driver received B response: ID=0x8 RESP=AXI4_RESP_OKAY
# UVM_INFO ../src/mst/axi4_master_driver.sv(348) @ 245000: uvm_test_top.env.master_agent.drv [axi4_master_driver] Master driver received all R beats for ID=0x3
# UVM_INFO ../src/slv/axi4_slave_driver.sv(464) @ 245000: uvm_test_top.env.slave_agent.drv [axi4_slave_driver] Read complete: ID=0x3 ADDR=0xa5d3fed0 RESP=AXI4_RESP_OKAY  2 beats sent
# UVM_INFO ../src/slv/axi4_slave_driver.sv(320) @ 245000: uvm_test_top.env.slave_agent.drv [axi4_slave_driver] Write complete: ID=0x8 RESP=AXI4_RESP_OKAY
# UVM_INFO ../src/mst/axi4_master_monitor.sv(210) @ 245000: uvm_test_top.env.master_agent.mon [axi4_master_monitor] Write complete: ID=0x8 ADDR=0x074a8da9 RESP=AXI4_RESP_OKAY
# UVM_INFO ../src/env/axi4_scoreboard.sv(87) @ 245000: uvm_test_top.env.scb [axi4_scoreboard] Master AXI4_WRITE received: ID=0x8 ADDR=0x074a8da9 LEN=0
# UVM_INFO ../src/mst/axi4_master_monitor.sv(314) @ 245000: uvm_test_top.env.master_agent.mon [axi4_master_monitor] Read complete: ID=0x3 ADDR=0xa5d3fed0 2 beats
# UVM_INFO ../src/env/axi4_scoreboard.sv(87) @ 245000: uvm_test_top.env.scb [axi4_scoreboard] Master AXI4_READ received: ID=0x3 ADDR=0xa5d3fed0 LEN=1
# UVM_INFO ../src/slv/axi4_slave_monitor.sv(189) @ 245000: uvm_test_top.env.slave_agent.mon [axi4_slave_monitor] Write response sent: ID=0x8 ADDR=0x074a8da9 RESP=AXI4_RESP_OKAY
# UVM_INFO ../src/env/axi4_scoreboard.sv(108) @ 245000: uvm_test_top.env.scb [axi4_scoreboard] Slave AXI4_WRITE received: ID=0x8 ADDR=0x074a8da9 LEN=0
# UVM_INFO ../src/env/axi4_scoreboard.sv(291) @ 245000: uvm_test_top.env.scb [axi4_scoreboard] [WRITE] MATCH #6: ID=0x8 ADDR=0x074a8da9 LEN=0
# UVM_INFO ../src/env/axi4_scoreboard.sv(219) @ 245000: uvm_test_top.env.scb [axi4_scoreboard] [REF_MEM_WRITE] Addr=0x074a8da8 Data=0xd6
# UVM_INFO ../src/slv/axi4_slave_monitor.sv(287) @ 245000: uvm_test_top.env.slave_agent.mon [axi4_slave_monitor] Read data sent: ID=0x3 ADDR=0xa5d3fed0 2 beats
# UVM_INFO ../src/env/axi4_scoreboard.sv(108) @ 245000: uvm_test_top.env.scb [axi4_scoreboard] Slave AXI4_READ received: ID=0x3 ADDR=0xa5d3fed0 LEN=1
# UVM_INFO ../src/env/axi4_scoreboard.sv(291) @ 245000: uvm_test_top.env.scb [axi4_scoreboard] [READ] MATCH #7: ID=0x3 ADDR=0xa5d3fed0 LEN=1
# UVM_INFO ../src/slv/axi4_slave_driver.sv(358) @ 265000: uvm_test_top.env.slave_agent.drv [axi4_slave_driver] AR received: ID=0xb ADDR=0x16e3e9e5 LEN=1 LOCK=AXI4_LOCK_EXCLUSIVE
# UVM_INFO ../src/mst/axi4_master_monitor.sv(246) @ 265000: uvm_test_top.env.master_agent.mon [axi4_master_monitor] AR observed: ID=0xb ADDR=0x16e3e9e5 LEN=1
# UVM_INFO ../src/slv/axi4_slave_monitor.sv(224) @ 265000: uvm_test_top.env.slave_agent.mon [axi4_slave_monitor] AR received: ID=0xb ADDR=0x16e3e9e5 LEN=1
# UVM_INFO ../src/mst/axi4_master_driver.sv(348) @ 285000: uvm_test_top.env.master_agent.drv [axi4_master_driver] Master driver received all R beats for ID=0xf
# UVM_INFO ../src/slv/axi4_slave_driver.sv(464) @ 285000: uvm_test_top.env.slave_agent.drv [axi4_slave_driver] Read complete: ID=0xf ADDR=0x46c2f0f3 RESP=AXI4_RESP_OKAY  2 beats sent
# UVM_INFO ../src/mst/axi4_master_monitor.sv(314) @ 285000: uvm_test_top.env.master_agent.mon [axi4_master_monitor] Read complete: ID=0xf ADDR=0x46c2f0f3 2 beats
# UVM_INFO ../src/env/axi4_scoreboard.sv(87) @ 285000: uvm_test_top.env.scb [axi4_scoreboard] Master AXI4_READ received: ID=0xf ADDR=0x46c2f0f3 LEN=1
# UVM_INFO ../src/slv/axi4_slave_monitor.sv(287) @ 285000: uvm_test_top.env.slave_agent.mon [axi4_slave_monitor] Read data sent: ID=0xf ADDR=0x46c2f0f3 2 beats
# UVM_INFO ../src/env/axi4_scoreboard.sv(108) @ 285000: uvm_test_top.env.scb [axi4_scoreboard] Slave AXI4_READ received: ID=0xf ADDR=0x46c2f0f3 LEN=1
# UVM_INFO ../src/env/axi4_scoreboard.sv(291) @ 285000: uvm_test_top.env.scb [axi4_scoreboard] [READ] MATCH #8: ID=0xf ADDR=0x46c2f0f3 LEN=1
# UVM_INFO ../src/slv/axi4_slave_driver.sv(358) @ 295000: uvm_test_top.env.slave_agent.drv [axi4_slave_driver] AR received: ID=0x9 ADDR=0xad922434 LEN=3 LOCK=AXI4_LOCK_EXCLUSIVE
# UVM_INFO ../src/slv/axi4_slave_driver.sv(212) @ 295000: uvm_test_top.env.slave_agent.drv [axi4_slave_driver] AW received: ID=0x2 ADDR=0xcf75f50d LEN=1 LOCK=AXI4_LOCK_EXCLUSIVE
# UVM_INFO ../src/slv/axi4_slave_monitor.sv(224) @ 295000: uvm_test_top.env.slave_agent.mon [axi4_slave_monitor] AR received: ID=0x9 ADDR=0xad922434 LEN=3
# UVM_INFO ../src/slv/axi4_slave_monitor.sv(116) @ 295000: uvm_test_top.env.slave_agent.mon [axi4_slave_monitor] AW received: ID=0x2 ADDR=0xcf75f50d LEN=1
# UVM_INFO ../src/mst/axi4_master_monitor.sv(246) @ 295000: uvm_test_top.env.master_agent.mon [axi4_master_monitor] AR observed: ID=0x9 ADDR=0xad922434 LEN=3
# UVM_INFO ../src/mst/axi4_master_monitor.sv(124) @ 295000: uvm_test_top.env.master_agent.mon [axi4_master_monitor] AW observed: ID=0x2 ADDR=0xcf75f50d LEN=1
# UVM_INFO ../src/slv/axi4_slave_monitor.sv(167) @ 295000: uvm_test_top.env.slave_agent.mon [axi4_slave_monitor] W data assembled: ID=0x2 ADDR=0xcf75f50d 2 beats
# UVM_INFO ../src/mst/axi4_master_monitor.sv(184) @ 295000: uvm_test_top.env.master_agent.mon [axi4_master_monitor] W data assembled: ID=0x2 ADDR=0xcf75f50d 2 beats
# UVM_INFO ../src/mst/axi4_master_driver.sv(289) @ 315000: uvm_test_top.env.master_agent.drv [axi4_master_driver] Master driver received B response: ID=0x2 RESP=AXI4_RESP_OKAY
# UVM_INFO ../src/slv/axi4_slave_driver.sv(320) @ 315000: uvm_test_top.env.slave_agent.drv [axi4_slave_driver] Write complete: ID=0x2 RESP=AXI4_RESP_OKAY
# UVM_INFO ../src/slv/axi4_slave_monitor.sv(189) @ 315000: uvm_test_top.env.slave_agent.mon [axi4_slave_monitor] Write response sent: ID=0x2 ADDR=0xcf75f50d RESP=AXI4_RESP_OKAY
# UVM_INFO ../src/env/axi4_scoreboard.sv(108) @ 315000: uvm_test_top.env.scb [axi4_scoreboard] Slave AXI4_WRITE received: ID=0x2 ADDR=0xcf75f50d LEN=1
# UVM_INFO ../src/mst/axi4_master_monitor.sv(210) @ 315000: uvm_test_top.env.master_agent.mon [axi4_master_monitor] Write complete: ID=0x2 ADDR=0xcf75f50d RESP=AXI4_RESP_OKAY
# UVM_INFO ../src/env/axi4_scoreboard.sv(87) @ 315000: uvm_test_top.env.scb [axi4_scoreboard] Master AXI4_WRITE received: ID=0x2 ADDR=0xcf75f50d LEN=1
# UVM_INFO ../src/env/axi4_scoreboard.sv(291) @ 315000: uvm_test_top.env.scb [axi4_scoreboard] [WRITE] MATCH #9: ID=0x2 ADDR=0xcf75f50d LEN=1
# UVM_INFO ../src/env/axi4_scoreboard.sv(226) @ 315000: uvm_test_top.env.scb [axi4_scoreboard] [REF_MEM_WRITE_IGNORED] Write ignored for ADDR=0xcf75f50d LOCK=AXI4_LOCK_EXCLUSIVE RESP=AXI4_RESP_OKAY
# UVM_INFO ../src/mst/axi4_master_driver.sv(348) @ 325000: uvm_test_top.env.master_agent.drv [axi4_master_driver] Master driver received all R beats for ID=0xb
# UVM_INFO ../src/slv/axi4_slave_driver.sv(358) @ 325000: uvm_test_top.env.slave_agent.drv [axi4_slave_driver] AR received: ID=0xd ADDR=0xb2cb1671 LEN=3 LOCK=AXI4_LOCK_EXCLUSIVE
# UVM_INFO ../src/slv/axi4_slave_driver.sv(464) @ 325000: uvm_test_top.env.slave_agent.drv [axi4_slave_driver] Read complete: ID=0xb ADDR=0x16e3e9e5 RESP=AXI4_RESP_EXOKAY  2 beats sent
# UVM_INFO ../src/mst/axi4_master_monitor.sv(246) @ 325000: uvm_test_top.env.master_agent.mon [axi4_master_monitor] AR observed: ID=0xd ADDR=0xb2cb1671 LEN=3
# UVM_INFO ../src/mst/axi4_master_monitor.sv(314) @ 325000: uvm_test_top.env.master_agent.mon [axi4_master_monitor] Read complete: ID=0xb ADDR=0x16e3e9e5 2 beats
# UVM_INFO ../src/env/axi4_scoreboard.sv(87) @ 325000: uvm_test_top.env.scb [axi4_scoreboard] Master AXI4_READ received: ID=0xb ADDR=0x16e3e9e5 LEN=1
# UVM_INFO ../src/slv/axi4_slave_monitor.sv(224) @ 325000: uvm_test_top.env.slave_agent.mon [axi4_slave_monitor] AR received: ID=0xd ADDR=0xb2cb1671 LEN=3
# UVM_INFO ../src/slv/axi4_slave_monitor.sv(287) @ 325000: uvm_test_top.env.slave_agent.mon [axi4_slave_monitor] Read data sent: ID=0xb ADDR=0x16e3e9e5 2 beats
# UVM_INFO ../src/env/axi4_scoreboard.sv(108) @ 325000: uvm_test_top.env.scb [axi4_scoreboard] Slave AXI4_READ received: ID=0xb ADDR=0x16e3e9e5 LEN=1
# UVM_INFO ../src/env/axi4_scoreboard.sv(291) @ 325000: uvm_test_top.env.scb [axi4_scoreboard] [READ] MATCH #10: ID=0xb ADDR=0x16e3e9e5 LEN=1
# UVM_INFO ../src/slv/axi4_slave_driver.sv(212) @ 345000: uvm_test_top.env.slave_agent.drv [axi4_slave_driver] AW received: ID=0xe ADDR=0x533f4b04 LEN=1 LOCK=AXI4_LOCK_NORMAL
# UVM_INFO ../src/mst/axi4_master_monitor.sv(124) @ 345000: uvm_test_top.env.master_agent.mon [axi4_master_monitor] AW observed: ID=0xe ADDR=0x533f4b04 LEN=1
# UVM_INFO ../src/slv/axi4_slave_monitor.sv(116) @ 345000: uvm_test_top.env.slave_agent.mon [axi4_slave_monitor] AW received: ID=0xe ADDR=0x533f4b04 LEN=1
# UVM_INFO ../src/mst/axi4_master_monitor.sv(184) @ 345000: uvm_test_top.env.master_agent.mon [axi4_master_monitor] W data assembled: ID=0xe ADDR=0x533f4b04 2 beats
# UVM_INFO ../src/slv/axi4_slave_monitor.sv(167) @ 345000: uvm_test_top.env.slave_agent.mon [axi4_slave_monitor] W data assembled: ID=0xe ADDR=0x533f4b04 2 beats
# UVM_INFO ../src/slv/axi4_slave_driver.sv(358) @ 355000: uvm_test_top.env.slave_agent.drv [axi4_slave_driver] AR received: ID=0x9 ADDR=0x6121f5dc LEN=3 LOCK=AXI4_LOCK_EXCLUSIVE
# UVM_INFO ../src/slv/axi4_slave_monitor.sv(224) @ 355000: uvm_test_top.env.slave_agent.mon [axi4_slave_monitor] AR received: ID=0x9 ADDR=0x6121f5dc LEN=3
# UVM_INFO ../src/mst/axi4_master_monitor.sv(246) @ 355000: uvm_test_top.env.master_agent.mon [axi4_master_monitor] AR observed: ID=0x9 ADDR=0x6121f5dc LEN=3
# UVM_INFO ../src/mst/axi4_master_driver.sv(289) @ 365000: uvm_test_top.env.master_agent.drv [axi4_master_driver] Master driver received B response: ID=0xe RESP=AXI4_RESP_OKAY
# UVM_INFO ../src/slv/axi4_slave_driver.sv(320) @ 365000: uvm_test_top.env.slave_agent.drv [axi4_slave_driver] Write complete: ID=0xe RESP=AXI4_RESP_OKAY
# UVM_INFO ../src/mst/axi4_master_monitor.sv(210) @ 365000: uvm_test_top.env.master_agent.mon [axi4_master_monitor] Write complete: ID=0xe ADDR=0x533f4b04 RESP=AXI4_RESP_OKAY
# UVM_INFO ../src/env/axi4_scoreboard.sv(87) @ 365000: uvm_test_top.env.scb [axi4_scoreboard] Master AXI4_WRITE received: ID=0xe ADDR=0x533f4b04 LEN=1
# UVM_INFO ../src/slv/axi4_slave_monitor.sv(189) @ 365000: uvm_test_top.env.slave_agent.mon [axi4_slave_monitor] Write response sent: ID=0xe ADDR=0x533f4b04 RESP=AXI4_RESP_OKAY
# UVM_INFO ../src/env/axi4_scoreboard.sv(108) @ 365000: uvm_test_top.env.scb [axi4_scoreboard] Slave AXI4_WRITE received: ID=0xe ADDR=0x533f4b04 LEN=1
# UVM_INFO ../src/env/axi4_scoreboard.sv(291) @ 365000: uvm_test_top.env.scb [axi4_scoreboard] [WRITE] MATCH #11: ID=0xe ADDR=0x533f4b04 LEN=1
# UVM_INFO ../src/env/axi4_scoreboard.sv(219) @ 365000: uvm_test_top.env.scb [axi4_scoreboard] [REF_MEM_WRITE] Addr=0x533f4b05 Data=0xa7
# UVM_INFO ../src/env/axi4_scoreboard.sv(219) @ 365000: uvm_test_top.env.scb [axi4_scoreboard] [REF_MEM_WRITE] Addr=0x533f4b06 Data=0x8f
# UVM_INFO ../src/env/axi4_scoreboard.sv(219) @ 365000: uvm_test_top.env.scb [axi4_scoreboard] [REF_MEM_WRITE] Addr=0x533f4b07 Data=0x2b
# UVM_INFO ../src/slv/axi4_slave_driver.sv(358) @ 385000: uvm_test_top.env.slave_agent.drv [axi4_slave_driver] AR received: ID=0x5 ADDR=0x19cfb96d LEN=7 LOCK=AXI4_LOCK_NORMAL
# UVM_INFO ../src/mst/axi4_master_monitor.sv(246) @ 385000: uvm_test_top.env.master_agent.mon [axi4_master_monitor] AR observed: ID=0x5 ADDR=0x19cfb96d LEN=7
# UVM_INFO ../src/slv/axi4_slave_monitor.sv(224) @ 385000: uvm_test_top.env.slave_agent.mon [axi4_slave_monitor] AR received: ID=0x5 ADDR=0x19cfb96d LEN=7
# UVM_INFO ../src/slv/axi4_slave_driver.sv(212) @ 395000: uvm_test_top.env.slave_agent.drv [axi4_slave_driver] AW received: ID=0x6 ADDR=0xcd0d4e17 LEN=1 LOCK=AXI4_LOCK_NORMAL
# UVM_INFO ../src/slv/axi4_slave_monitor.sv(116) @ 395000: uvm_test_top.env.slave_agent.mon [axi4_slave_monitor] AW received: ID=0x6 ADDR=0xcd0d4e17 LEN=1
# UVM_INFO ../src/mst/axi4_master_monitor.sv(124) @ 395000: uvm_test_top.env.master_agent.mon [axi4_master_monitor] AW observed: ID=0x6 ADDR=0xcd0d4e17 LEN=1
# UVM_INFO ../src/slv/axi4_slave_monitor.sv(167) @ 395000: uvm_test_top.env.slave_agent.mon [axi4_slave_monitor] W data assembled: ID=0x6 ADDR=0xcd0d4e17 2 beats
# UVM_INFO ../src/mst/axi4_master_monitor.sv(184) @ 395000: uvm_test_top.env.master_agent.mon [axi4_master_monitor] W data assembled: ID=0x6 ADDR=0xcd0d4e17 2 beats
# UVM_INFO ../src/mst/axi4_master_driver.sv(348) @ 405000: uvm_test_top.env.master_agent.drv [axi4_master_driver] Master driver received all R beats for ID=0x9
# UVM_INFO ../src/slv/axi4_slave_driver.sv(464) @ 405000: uvm_test_top.env.slave_agent.drv [axi4_slave_driver] Read complete: ID=0x9 ADDR=0xad922434 RESP=AXI4_RESP_EXOKAY  4 beats sent
# UVM_INFO ../src/mst/axi4_master_monitor.sv(314) @ 405000: uvm_test_top.env.master_agent.mon [axi4_master_monitor] Read complete: ID=0x9 ADDR=0xad922434 4 beats
# UVM_INFO ../src/env/axi4_scoreboard.sv(87) @ 405000: uvm_test_top.env.scb [axi4_scoreboard] Master AXI4_READ received: ID=0x9 ADDR=0xad922434 LEN=3
# UVM_INFO ../src/slv/axi4_slave_monitor.sv(287) @ 405000: uvm_test_top.env.slave_agent.mon [axi4_slave_monitor] Read data sent: ID=0x9 ADDR=0xad922434 4 beats
# UVM_INFO ../src/env/axi4_scoreboard.sv(108) @ 405000: uvm_test_top.env.scb [axi4_scoreboard] Slave AXI4_READ received: ID=0x9 ADDR=0xad922434 LEN=3
# UVM_INFO ../src/env/axi4_scoreboard.sv(291) @ 405000: uvm_test_top.env.scb [axi4_scoreboard] [READ] MATCH #12: ID=0x9 ADDR=0xad922434 LEN=3
# UVM_INFO ../src/mst/axi4_master_driver.sv(289) @ 415000: uvm_test_top.env.master_agent.drv [axi4_master_driver] Master driver received B response: ID=0x6 RESP=AXI4_RESP_OKAY
# UVM_INFO ../src/slv/axi4_slave_driver.sv(358) @ 415000: uvm_test_top.env.slave_agent.drv [axi4_slave_driver] AR received: ID=0xb ADDR=0x6a793322 LEN=7 LOCK=AXI4_LOCK_EXCLUSIVE
# UVM_INFO ../src/slv/axi4_slave_driver.sv(320) @ 415000: uvm_test_top.env.slave_agent.drv [axi4_slave_driver] Write complete: ID=0x6 RESP=AXI4_RESP_OKAY
# UVM_INFO ../src/slv/axi4_slave_monitor.sv(224) @ 415000: uvm_test_top.env.slave_agent.mon [axi4_slave_monitor] AR received: ID=0xb ADDR=0x6a793322 LEN=7
# UVM_INFO ../src/slv/axi4_slave_monitor.sv(189) @ 415000: uvm_test_top.env.slave_agent.mon [axi4_slave_monitor] Write response sent: ID=0x6 ADDR=0xcd0d4e17 RESP=AXI4_RESP_OKAY
# UVM_INFO ../src/env/axi4_scoreboard.sv(108) @ 415000: uvm_test_top.env.scb [axi4_scoreboard] Slave AXI4_WRITE received: ID=0x6 ADDR=0xcd0d4e17 LEN=1
# UVM_INFO ../src/mst/axi4_master_monitor.sv(246) @ 415000: uvm_test_top.env.master_agent.mon [axi4_master_monitor] AR observed: ID=0xb ADDR=0x6a793322 LEN=7
# UVM_INFO ../src/mst/axi4_master_monitor.sv(210) @ 415000: uvm_test_top.env.master_agent.mon [axi4_master_monitor] Write complete: ID=0x6 ADDR=0xcd0d4e17 RESP=AXI4_RESP_OKAY
# UVM_INFO ../src/env/axi4_scoreboard.sv(87) @ 415000: uvm_test_top.env.scb [axi4_scoreboard] Master AXI4_WRITE received: ID=0x6 ADDR=0xcd0d4e17 LEN=1
# UVM_INFO ../src/env/axi4_scoreboard.sv(291) @ 415000: uvm_test_top.env.scb [axi4_scoreboard] [WRITE] MATCH #13: ID=0x6 ADDR=0xcd0d4e17 LEN=1
# UVM_INFO ../src/env/axi4_scoreboard.sv(219) @ 415000: uvm_test_top.env.scb [axi4_scoreboard] [REF_MEM_WRITE] Addr=0xcd0d4e14 Data=0x9f
# UVM_INFO ../src/env/axi4_scoreboard.sv(219) @ 415000: uvm_test_top.env.scb [axi4_scoreboard] [REF_MEM_WRITE] Addr=0xcd0d4e16 Data=0xfe
# UVM_INFO ../src/env/axi4_scoreboard.sv(219) @ 415000: uvm_test_top.env.scb [axi4_scoreboard] [REF_MEM_WRITE] Addr=0xcd0d4e14 Data=0x92
# UVM_INFO ../src/env/axi4_scoreboard.sv(219) @ 415000: uvm_test_top.env.scb [axi4_scoreboard] [REF_MEM_WRITE] Addr=0xcd0d4e15 Data=0xf8
# UVM_INFO ../src/env/axi4_scoreboard.sv(219) @ 415000: uvm_test_top.env.scb [axi4_scoreboard] [REF_MEM_WRITE] Addr=0xcd0d4e17 Data=0x5d
# UVM_INFO ../src/slv/axi4_slave_driver.sv(212) @ 425000: uvm_test_top.env.slave_agent.drv [axi4_slave_driver] AW received: ID=0xb ADDR=0x7a4bb310 LEN=3 LOCK=AXI4_LOCK_NORMAL
# UVM_INFO ../src/mst/axi4_master_monitor.sv(124) @ 425000: uvm_test_top.env.master_agent.mon [axi4_master_monitor] AW observed: ID=0xb ADDR=0x7a4bb310 LEN=3
# UVM_INFO ../src/slv/axi4_slave_monitor.sv(116) @ 425000: uvm_test_top.env.slave_agent.mon [axi4_slave_monitor] AW received: ID=0xb ADDR=0x7a4bb310 LEN=3
# UVM_INFO ../src/mst/axi4_master_monitor.sv(184) @ 425000: uvm_test_top.env.master_agent.mon [axi4_master_monitor] W data assembled: ID=0xb ADDR=0x7a4bb310 4 beats
# UVM_INFO ../src/slv/axi4_slave_monitor.sv(167) @ 425000: uvm_test_top.env.slave_agent.mon [axi4_slave_monitor] W data assembled: ID=0xb ADDR=0x7a4bb310 4 beats
# UVM_INFO ../src/mst/axi4_master_driver.sv(289) @ 445000: uvm_test_top.env.master_agent.drv [axi4_master_driver] Master driver received B response: ID=0xb RESP=AXI4_RESP_OKAY
# UVM_INFO ../src/slv/axi4_slave_driver.sv(358) @ 445000: uvm_test_top.env.slave_agent.drv [axi4_slave_driver] AR received: ID=0xa ADDR=0xb3f4adf2 LEN=7 LOCK=AXI4_LOCK_NORMAL
# UVM_INFO ../src/slv/axi4_slave_driver.sv(320) @ 445000: uvm_test_top.env.slave_agent.drv [axi4_slave_driver] Write complete: ID=0xb RESP=AXI4_RESP_OKAY
# UVM_INFO ../src/mst/axi4_master_monitor.sv(210) @ 445000: uvm_test_top.env.master_agent.mon [axi4_master_monitor] Write complete: ID=0xb ADDR=0x7a4bb310 RESP=AXI4_RESP_OKAY
# UVM_INFO ../src/env/axi4_scoreboard.sv(87) @ 445000: uvm_test_top.env.scb [axi4_scoreboard] Master AXI4_WRITE received: ID=0xb ADDR=0x7a4bb310 LEN=3
# UVM_INFO ../src/mst/axi4_master_monitor.sv(246) @ 445000: uvm_test_top.env.master_agent.mon [axi4_master_monitor] AR observed: ID=0xa ADDR=0xb3f4adf2 LEN=7
# UVM_INFO ../src/slv/axi4_slave_monitor.sv(189) @ 445000: uvm_test_top.env.slave_agent.mon [axi4_slave_monitor] Write response sent: ID=0xb ADDR=0x7a4bb310 RESP=AXI4_RESP_OKAY
# UVM_INFO ../src/env/axi4_scoreboard.sv(108) @ 445000: uvm_test_top.env.scb [axi4_scoreboard] Slave AXI4_WRITE received: ID=0xb ADDR=0x7a4bb310 LEN=3
# UVM_INFO ../src/env/axi4_scoreboard.sv(291) @ 445000: uvm_test_top.env.scb [axi4_scoreboard] [WRITE] MATCH #14: ID=0xb ADDR=0x7a4bb310 LEN=3
# UVM_INFO ../src/env/axi4_scoreboard.sv(219) @ 445000: uvm_test_top.env.scb [axi4_scoreboard] [REF_MEM_WRITE] Addr=0x7a4bb310 Data=0x06
# UVM_INFO ../src/env/axi4_scoreboard.sv(219) @ 445000: uvm_test_top.env.scb [axi4_scoreboard] [REF_MEM_WRITE] Addr=0x7a4bb311 Data=0x19
# UVM_INFO ../src/env/axi4_scoreboard.sv(219) @ 445000: uvm_test_top.env.scb [axi4_scoreboard] [REF_MEM_WRITE] Addr=0x7a4bb313 Data=0xa3
# UVM_INFO ../src/env/axi4_scoreboard.sv(219) @ 445000: uvm_test_top.env.scb [axi4_scoreboard] [REF_MEM_WRITE] Addr=0x7a4bb311 Data=0x14
# UVM_INFO ../src/env/axi4_scoreboard.sv(219) @ 445000: uvm_test_top.env.scb [axi4_scoreboard] [REF_MEM_WRITE] Addr=0x7a4bb310 Data=0xdf
# UVM_INFO ../src/env/axi4_scoreboard.sv(219) @ 445000: uvm_test_top.env.scb [axi4_scoreboard] [REF_MEM_WRITE] Addr=0x7a4bb312 Data=0xbe
# UVM_INFO ../src/env/axi4_scoreboard.sv(219) @ 445000: uvm_test_top.env.scb [axi4_scoreboard] [REF_MEM_WRITE] Addr=0x7a4bb313 Data=0x48
# UVM_INFO ../src/env/axi4_scoreboard.sv(219) @ 445000: uvm_test_top.env.scb [axi4_scoreboard] [REF_MEM_WRITE] Addr=0x7a4bb310 Data=0xed
# UVM_INFO ../src/env/axi4_scoreboard.sv(219) @ 445000: uvm_test_top.env.scb [axi4_scoreboard] [REF_MEM_WRITE] Addr=0x7a4bb312 Data=0x2b
# UVM_INFO ../src/env/axi4_scoreboard.sv(219) @ 445000: uvm_test_top.env.scb [axi4_scoreboard] [REF_MEM_WRITE] Addr=0x7a4bb313 Data=0x72
# UVM_INFO ../src/slv/axi4_slave_monitor.sv(224) @ 445000: uvm_test_top.env.slave_agent.mon [axi4_slave_monitor] AR received: ID=0xa ADDR=0xb3f4adf2 LEN=7
# UVM_INFO ../src/slv/axi4_slave_driver.sv(358) @ 475000: uvm_test_top.env.slave_agent.drv [axi4_slave_driver] AR received: ID=0x3 ADDR=0xcf9d30bb LEN=15 LOCK=AXI4_LOCK_NORMAL
# UVM_INFO ../src/slv/axi4_slave_monitor.sv(224) @ 475000: uvm_test_top.env.slave_agent.mon [axi4_slave_monitor] AR received: ID=0x3 ADDR=0xcf9d30bb LEN=15
# UVM_INFO ../src/mst/axi4_master_monitor.sv(246) @ 475000: uvm_test_top.env.master_agent.mon [axi4_master_monitor] AR observed: ID=0x3 ADDR=0xcf9d30bb LEN=15
# UVM_INFO ../src/mst/axi4_master_driver.sv(348) @ 485000: uvm_test_top.env.master_agent.drv [axi4_master_driver] Master driver received all R beats for ID=0xd
# UVM_INFO ../src/slv/axi4_slave_driver.sv(464) @ 485000: uvm_test_top.env.slave_agent.drv [axi4_slave_driver] Read complete: ID=0xd ADDR=0xb2cb1671 RESP=AXI4_RESP_EXOKAY  4 beats sent
# UVM_INFO ../src/mst/axi4_master_monitor.sv(314) @ 485000: uvm_test_top.env.master_agent.mon [axi4_master_monitor] Read complete: ID=0xd ADDR=0xb2cb1671 4 beats
# UVM_INFO ../src/env/axi4_scoreboard.sv(87) @ 485000: uvm_test_top.env.scb [axi4_scoreboard] Master AXI4_READ received: ID=0xd ADDR=0xb2cb1671 LEN=3
# UVM_INFO ../src/slv/axi4_slave_monitor.sv(287) @ 485000: uvm_test_top.env.slave_agent.mon [axi4_slave_monitor] Read data sent: ID=0xd ADDR=0xb2cb1671 4 beats
# UVM_INFO ../src/env/axi4_scoreboard.sv(108) @ 485000: uvm_test_top.env.scb [axi4_scoreboard] Slave AXI4_READ received: ID=0xd ADDR=0xb2cb1671 LEN=3
# UVM_INFO ../src/env/axi4_scoreboard.sv(291) @ 485000: uvm_test_top.env.scb [axi4_scoreboard] [READ] MATCH #15: ID=0xd ADDR=0xb2cb1671 LEN=3
# UVM_INFO ../src/slv/axi4_slave_driver.sv(212) @ 495000: uvm_test_top.env.slave_agent.drv [axi4_slave_driver] AW received: ID=0xa ADDR=0xaf93cba2 LEN=3 LOCK=AXI4_LOCK_EXCLUSIVE
# UVM_INFO ../src/slv/axi4_slave_monitor.sv(116) @ 495000: uvm_test_top.env.slave_agent.mon [axi4_slave_monitor] AW received: ID=0xa ADDR=0xaf93cba2 LEN=3
# UVM_INFO ../src/mst/axi4_master_monitor.sv(124) @ 495000: uvm_test_top.env.master_agent.mon [axi4_master_monitor] AW observed: ID=0xa ADDR=0xaf93cba2 LEN=3
# UVM_INFO ../src/slv/axi4_slave_monitor.sv(167) @ 495000: uvm_test_top.env.slave_agent.mon [axi4_slave_monitor] W data assembled: ID=0xa ADDR=0xaf93cba2 4 beats
# UVM_INFO ../src/mst/axi4_master_monitor.sv(184) @ 495000: uvm_test_top.env.master_agent.mon [axi4_master_monitor] W data assembled: ID=0xa ADDR=0xaf93cba2 4 beats
# UVM_INFO ../src/slv/axi4_slave_driver.sv(358) @ 505000: uvm_test_top.env.slave_agent.drv [axi4_slave_driver] AR received: ID=0x0 ADDR=0x2dc861ac LEN=15 LOCK=AXI4_LOCK_EXCLUSIVE
# UVM_INFO ../src/mst/axi4_master_monitor.sv(246) @ 505000: uvm_test_top.env.master_agent.mon [axi4_master_monitor] AR observed: ID=0x0 ADDR=0x2dc861ac LEN=15
# UVM_INFO ../src/slv/axi4_slave_monitor.sv(224) @ 505000: uvm_test_top.env.slave_agent.mon [axi4_slave_monitor] AR received: ID=0x0 ADDR=0x2dc861ac LEN=15
# UVM_INFO ../src/mst/axi4_master_driver.sv(289) @ 515000: uvm_test_top.env.master_agent.drv [axi4_master_driver] Master driver received B response: ID=0xa RESP=AXI4_RESP_OKAY
# UVM_INFO ../src/slv/axi4_slave_driver.sv(320) @ 515000: uvm_test_top.env.slave_agent.drv [axi4_slave_driver] Write complete: ID=0xa RESP=AXI4_RESP_OKAY
# UVM_INFO ../src/slv/axi4_slave_monitor.sv(189) @ 515000: uvm_test_top.env.slave_agent.mon [axi4_slave_monitor] Write response sent: ID=0xa ADDR=0xaf93cba2 RESP=AXI4_RESP_OKAY
# UVM_INFO ../src/env/axi4_scoreboard.sv(108) @ 515000: uvm_test_top.env.scb [axi4_scoreboard] Slave AXI4_WRITE received: ID=0xa ADDR=0xaf93cba2 LEN=3
# UVM_INFO ../src/mst/axi4_master_monitor.sv(210) @ 515000: uvm_test_top.env.master_agent.mon [axi4_master_monitor] Write complete: ID=0xa ADDR=0xaf93cba2 RESP=AXI4_RESP_OKAY
# UVM_INFO ../src/env/axi4_scoreboard.sv(87) @ 515000: uvm_test_top.env.scb [axi4_scoreboard] Master AXI4_WRITE received: ID=0xa ADDR=0xaf93cba2 LEN=3
# UVM_INFO ../src/env/axi4_scoreboard.sv(291) @ 515000: uvm_test_top.env.scb [axi4_scoreboard] [WRITE] MATCH #16: ID=0xa ADDR=0xaf93cba2 LEN=3
# UVM_INFO ../src/env/axi4_scoreboard.sv(226) @ 515000: uvm_test_top.env.scb [axi4_scoreboard] [REF_MEM_WRITE_IGNORED] Write ignored for ADDR=0xaf93cba2 LOCK=AXI4_LOCK_EXCLUSIVE RESP=AXI4_RESP_OKAY
# UVM_INFO ../src/slv/axi4_slave_driver.sv(358) @ 535000: uvm_test_top.env.slave_agent.drv [axi4_slave_driver] AR received: ID=0xd ADDR=0xc8d46dc5 LEN=15 LOCK=AXI4_LOCK_NORMAL
# UVM_INFO ../src/slv/axi4_slave_monitor.sv(224) @ 535000: uvm_test_top.env.slave_agent.mon [axi4_slave_monitor] AR received: ID=0xd ADDR=0xc8d46dc5 LEN=15
# UVM_INFO ../src/mst/axi4_master_monitor.sv(246) @ 535000: uvm_test_top.env.master_agent.mon [axi4_master_monitor] AR observed: ID=0xd ADDR=0xc8d46dc5 LEN=15
# UVM_INFO ../src/slv/axi4_slave_driver.sv(212) @ 565000: uvm_test_top.env.slave_agent.drv [axi4_slave_driver] AW received: ID=0x4 ADDR=0x8af1d801 LEN=3 LOCK=AXI4_LOCK_EXCLUSIVE
# UVM_INFO ../src/slv/axi4_slave_driver.sv(358) @ 565000: uvm_test_top.env.slave_agent.drv [axi4_slave_driver] AR received: ID=0x5 ADDR=0x81e69d82 LEN=1 LOCK=AXI4_LOCK_NORMAL
# UVM_INFO ../src/mst/axi4_master_monitor.sv(124) @ 565000: uvm_test_top.env.master_agent.mon [axi4_master_monitor] AW observed: ID=0x4 ADDR=0x8af1d801 LEN=3
# UVM_INFO ../src/mst/axi4_master_monitor.sv(246) @ 565000: uvm_test_top.env.master_agent.mon [axi4_master_monitor] AR observed: ID=0x5 ADDR=0x81e69d82 LEN=1
# UVM_INFO ../src/slv/axi4_slave_monitor.sv(116) @ 565000: uvm_test_top.env.slave_agent.mon [axi4_slave_monitor] AW received: ID=0x4 ADDR=0x8af1d801 LEN=3
# UVM_INFO ../src/slv/axi4_slave_monitor.sv(224) @ 565000: uvm_test_top.env.slave_agent.mon [axi4_slave_monitor] AR received: ID=0x5 ADDR=0x81e69d82 LEN=1
# UVM_INFO ../src/mst/axi4_master_monitor.sv(184) @ 565000: uvm_test_top.env.master_agent.mon [axi4_master_monitor] W data assembled: ID=0x4 ADDR=0x8af1d801 4 beats
# UVM_INFO ../src/slv/axi4_slave_monitor.sv(167) @ 565000: uvm_test_top.env.slave_agent.mon [axi4_slave_monitor] W data assembled: ID=0x4 ADDR=0x8af1d801 4 beats
# UVM_INFO ../src/mst/axi4_master_driver.sv(289) @ 585000: uvm_test_top.env.master_agent.drv [axi4_master_driver] Master driver received B response: ID=0x4 RESP=AXI4_RESP_OKAY
# UVM_INFO ../src/slv/axi4_slave_driver.sv(320) @ 585000: uvm_test_top.env.slave_agent.drv [axi4_slave_driver] Write complete: ID=0x4 RESP=AXI4_RESP_OKAY
# UVM_INFO ../src/mst/axi4_master_monitor.sv(210) @ 585000: uvm_test_top.env.master_agent.mon [axi4_master_monitor] Write complete: ID=0x4 ADDR=0x8af1d801 RESP=AXI4_RESP_OKAY
# UVM_INFO ../src/env/axi4_scoreboard.sv(87) @ 585000: uvm_test_top.env.scb [axi4_scoreboard] Master AXI4_WRITE received: ID=0x4 ADDR=0x8af1d801 LEN=3
# UVM_INFO ../src/slv/axi4_slave_monitor.sv(189) @ 585000: uvm_test_top.env.slave_agent.mon [axi4_slave_monitor] Write response sent: ID=0x4 ADDR=0x8af1d801 RESP=AXI4_RESP_OKAY
# UVM_INFO ../src/env/axi4_scoreboard.sv(108) @ 585000: uvm_test_top.env.scb [axi4_scoreboard] Slave AXI4_WRITE received: ID=0x4 ADDR=0x8af1d801 LEN=3
# UVM_INFO ../src/env/axi4_scoreboard.sv(291) @ 585000: uvm_test_top.env.scb [axi4_scoreboard] [WRITE] MATCH #17: ID=0x4 ADDR=0x8af1d801 LEN=3
# UVM_INFO ../src/env/axi4_scoreboard.sv(226) @ 585000: uvm_test_top.env.scb [axi4_scoreboard] [REF_MEM_WRITE_IGNORED] Write ignored for ADDR=0x8af1d801 LOCK=AXI4_LOCK_EXCLUSIVE RESP=AXI4_RESP_OKAY
# UVM_INFO ../src/slv/axi4_slave_driver.sv(358) @ 595000: uvm_test_top.env.slave_agent.drv [axi4_slave_driver] AR received: ID=0x7 ADDR=0x9a8c3022 LEN=1 LOCK=AXI4_LOCK_EXCLUSIVE
# UVM_INFO ../src/slv/axi4_slave_driver.sv(212) @ 595000: uvm_test_top.env.slave_agent.drv [axi4_slave_driver] AW received: ID=0xc ADDR=0x93749960 LEN=7 LOCK=AXI4_LOCK_EXCLUSIVE
# UVM_INFO ../src/slv/axi4_slave_monitor.sv(224) @ 595000: uvm_test_top.env.slave_agent.mon [axi4_slave_monitor] AR received: ID=0x7 ADDR=0x9a8c3022 LEN=1
# UVM_INFO ../src/slv/axi4_slave_monitor.sv(116) @ 595000: uvm_test_top.env.slave_agent.mon [axi4_slave_monitor] AW received: ID=0xc ADDR=0x93749960 LEN=7
# UVM_INFO ../src/mst/axi4_master_monitor.sv(246) @ 595000: uvm_test_top.env.master_agent.mon [axi4_master_monitor] AR observed: ID=0x7 ADDR=0x9a8c3022 LEN=1
# UVM_INFO ../src/mst/axi4_master_monitor.sv(124) @ 595000: uvm_test_top.env.master_agent.mon [axi4_master_monitor] AW observed: ID=0xc ADDR=0x93749960 LEN=7
# UVM_INFO ../src/slv/axi4_slave_driver.sv(212) @ 625000: uvm_test_top.env.slave_agent.drv [axi4_slave_driver] AW received: ID=0x7 ADDR=0x0cd03490 LEN=7 LOCK=AXI4_LOCK_NORMAL
# UVM_INFO ../src/slv/axi4_slave_driver.sv(358) @ 625000: uvm_test_top.env.slave_agent.drv [axi4_slave_driver] AR received: ID=0xd ADDR=0xc3d89a24 LEN=1 LOCK=AXI4_LOCK_EXCLUSIVE
# UVM_INFO ../src/mst/axi4_master_monitor.sv(124) @ 625000: uvm_test_top.env.master_agent.mon [axi4_master_monitor] AW observed: ID=0x7 ADDR=0x0cd03490 LEN=7
# UVM_INFO ../src/mst/axi4_master_monitor.sv(246) @ 625000: uvm_test_top.env.master_agent.mon [axi4_master_monitor] AR observed: ID=0xd ADDR=0xc3d89a24 LEN=1
# UVM_INFO ../src/slv/axi4_slave_monitor.sv(116) @ 625000: uvm_test_top.env.slave_agent.mon [axi4_slave_monitor] AW received: ID=0x7 ADDR=0x0cd03490 LEN=7
# UVM_INFO ../src/slv/axi4_slave_monitor.sv(224) @ 625000: uvm_test_top.env.slave_agent.mon [axi4_slave_monitor] AR received: ID=0xd ADDR=0xc3d89a24 LEN=1
# UVM_INFO ../src/mst/axi4_master_driver.sv(348) @ 645000: uvm_test_top.env.master_agent.drv [axi4_master_driver] Master driver received all R beats for ID=0x5
# UVM_INFO ../src/slv/axi4_slave_driver.sv(464) @ 645000: uvm_test_top.env.slave_agent.drv [axi4_slave_driver] Read complete: ID=0x5 ADDR=0x19cfb96d RESP=AXI4_RESP_OKAY  8 beats sent
# UVM_INFO ../src/mst/axi4_master_monitor.sv(314) @ 645000: uvm_test_top.env.master_agent.mon [axi4_master_monitor] Read complete: ID=0x5 ADDR=0x19cfb96d 8 beats
# UVM_INFO ../src/env/axi4_scoreboard.sv(87) @ 645000: uvm_test_top.env.scb [axi4_scoreboard] Master AXI4_READ received: ID=0x5 ADDR=0x19cfb96d LEN=7
# UVM_INFO ../src/slv/axi4_slave_monitor.sv(287) @ 645000: uvm_test_top.env.slave_agent.mon [axi4_slave_monitor] Read data sent: ID=0x5 ADDR=0x19cfb96d 8 beats
# UVM_INFO ../src/env/axi4_scoreboard.sv(108) @ 645000: uvm_test_top.env.scb [axi4_scoreboard] Slave AXI4_READ received: ID=0x5 ADDR=0x19cfb96d LEN=7
# UVM_INFO ../src/env/axi4_scoreboard.sv(291) @ 645000: uvm_test_top.env.scb [axi4_scoreboard] [READ] MATCH #18: ID=0x5 ADDR=0x19cfb96d LEN=7
# UVM_INFO ../src/slv/axi4_slave_driver.sv(358) @ 655000: uvm_test_top.env.slave_agent.drv [axi4_slave_driver] AR received: ID=0x2 ADDR=0xc4e6577b LEN=3 LOCK=AXI4_LOCK_NORMAL
# UVM_INFO ../src/slv/axi4_slave_driver.sv(212) @ 655000: uvm_test_top.env.slave_agent.drv [axi4_slave_driver] AW received: ID=0x2 ADDR=0xb703940a LEN=7 LOCK=AXI4_LOCK_EXCLUSIVE
# UVM_INFO ../src/slv/axi4_slave_monitor.sv(224) @ 655000: uvm_test_top.env.slave_agent.mon [axi4_slave_monitor] AR received: ID=0x2 ADDR=0xc4e6577b LEN=3
# UVM_INFO ../src/slv/axi4_slave_monitor.sv(116) @ 655000: uvm_test_top.env.slave_agent.mon [axi4_slave_monitor] AW received: ID=0x2 ADDR=0xb703940a LEN=7
# UVM_INFO ../src/mst/axi4_master_monitor.sv(246) @ 655000: uvm_test_top.env.master_agent.mon [axi4_master_monitor] AR observed: ID=0x2 ADDR=0xc4e6577b LEN=3
# UVM_INFO ../src/mst/axi4_master_monitor.sv(124) @ 655000: uvm_test_top.env.master_agent.mon [axi4_master_monitor] AW observed: ID=0x2 ADDR=0xb703940a LEN=7
# UVM_INFO ../src/slv/axi4_slave_driver.sv(212) @ 685000: uvm_test_top.env.slave_agent.drv [axi4_slave_driver] AW received: ID=0x4 ADDR=0x9b5d7977 LEN=15 LOCK=AXI4_LOCK_EXCLUSIVE
# UVM_INFO ../src/slv/axi4_slave_driver.sv(358) @ 685000: uvm_test_top.env.slave_agent.drv [axi4_slave_driver] AR received: ID=0x2 ADDR=0xa057a844 LEN=3 LOCK=AXI4_LOCK_NORMAL
# UVM_INFO ../src/mst/axi4_master_monitor.sv(124) @ 685000: uvm_test_top.env.master_agent.mon [axi4_master_monitor] AW observed: ID=0x4 ADDR=0x9b5d7977 LEN=15
# UVM_INFO ../src/mst/axi4_master_monitor.sv(246) @ 685000: uvm_test_top.env.master_agent.mon [axi4_master_monitor] AR observed: ID=0x2 ADDR=0xa057a844 LEN=3
# UVM_INFO ../src/slv/axi4_slave_monitor.sv(116) @ 685000: uvm_test_top.env.slave_agent.mon [axi4_slave_monitor] AW received: ID=0x4 ADDR=0x9b5d7977 LEN=15
# UVM_INFO ../src/slv/axi4_slave_monitor.sv(224) @ 685000: uvm_test_top.env.slave_agent.mon [axi4_slave_monitor] AR received: ID=0x2 ADDR=0xa057a844 LEN=3
# UVM_INFO ../src/slv/axi4_slave_monitor.sv(167) @ 695000: uvm_test_top.env.slave_agent.mon [axi4_slave_monitor] W data assembled: ID=0xc ADDR=0x93749960 8 beats
# UVM_INFO ../src/mst/axi4_master_monitor.sv(184) @ 695000: uvm_test_top.env.master_agent.mon [axi4_master_monitor] W data assembled: ID=0xc ADDR=0x93749960 8 beats
# UVM_INFO ../src/slv/axi4_slave_driver.sv(358) @ 715000: uvm_test_top.env.slave_agent.drv [axi4_slave_driver] AR received: ID=0x3 ADDR=0x1e2ce980 LEN=3 LOCK=AXI4_LOCK_NORMAL
# UVM_INFO ../src/slv/axi4_slave_driver.sv(212) @ 715000: uvm_test_top.env.slave_agent.drv [axi4_slave_driver] AW received: ID=0xe ADDR=0xa20051df LEN=15 LOCK=AXI4_LOCK_EXCLUSIVE
# UVM_INFO ../src/slv/axi4_slave_monitor.sv(224) @ 715000: uvm_test_top.env.slave_agent.mon [axi4_slave_monitor] AR received: ID=0x3 ADDR=0x1e2ce980 LEN=3
# UVM_INFO ../src/slv/axi4_slave_monitor.sv(116) @ 715000: uvm_test_top.env.slave_agent.mon [axi4_slave_monitor] AW received: ID=0xe ADDR=0xa20051df LEN=15
# UVM_INFO ../src/mst/axi4_master_monitor.sv(246) @ 715000: uvm_test_top.env.master_agent.mon [axi4_master_monitor] AR observed: ID=0x3 ADDR=0x1e2ce980 LEN=3
# UVM_INFO ../src/mst/axi4_master_monitor.sv(124) @ 715000: uvm_test_top.env.master_agent.mon [axi4_master_monitor] AW observed: ID=0xe ADDR=0xa20051df LEN=15
# UVM_INFO ../src/mst/axi4_master_driver.sv(289) @ 725000: uvm_test_top.env.master_agent.drv [axi4_master_driver] Master driver received B response: ID=0xc RESP=AXI4_RESP_OKAY
# UVM_INFO ../src/mst/axi4_master_driver.sv(348) @ 725000: uvm_test_top.env.master_agent.drv [axi4_master_driver] Master driver received all R beats for ID=0x9
# UVM_INFO ../src/slv/axi4_slave_driver.sv(464) @ 725000: uvm_test_top.env.slave_agent.drv [axi4_slave_driver] Read complete: ID=0x9 ADDR=0x6121f5dc RESP=AXI4_RESP_EXOKAY  4 beats sent
# UVM_INFO ../src/slv/axi4_slave_driver.sv(320) @ 725000: uvm_test_top.env.slave_agent.drv [axi4_slave_driver] Write complete: ID=0xc RESP=AXI4_RESP_OKAY
# UVM_INFO ../src/mst/axi4_master_monitor.sv(210) @ 725000: uvm_test_top.env.master_agent.mon [axi4_master_monitor] Write complete: ID=0xc ADDR=0x93749960 RESP=AXI4_RESP_OKAY
# UVM_INFO ../src/env/axi4_scoreboard.sv(87) @ 725000: uvm_test_top.env.scb [axi4_scoreboard] Master AXI4_WRITE received: ID=0xc ADDR=0x93749960 LEN=7
# UVM_INFO ../src/mst/axi4_master_monitor.sv(314) @ 725000: uvm_test_top.env.master_agent.mon [axi4_master_monitor] Read complete: ID=0x9 ADDR=0x6121f5dc 4 beats
# UVM_INFO ../src/env/axi4_scoreboard.sv(87) @ 725000: uvm_test_top.env.scb [axi4_scoreboard] Master AXI4_READ received: ID=0x9 ADDR=0x6121f5dc LEN=3
# UVM_INFO ../src/slv/axi4_slave_monitor.sv(189) @ 725000: uvm_test_top.env.slave_agent.mon [axi4_slave_monitor] Write response sent: ID=0xc ADDR=0x93749960 RESP=AXI4_RESP_OKAY
# UVM_INFO ../src/env/axi4_scoreboard.sv(108) @ 725000: uvm_test_top.env.scb [axi4_scoreboard] Slave AXI4_WRITE received: ID=0xc ADDR=0x93749960 LEN=7
# UVM_INFO ../src/env/axi4_scoreboard.sv(291) @ 725000: uvm_test_top.env.scb [axi4_scoreboard] [WRITE] MATCH #19: ID=0xc ADDR=0x93749960 LEN=7
# UVM_INFO ../src/env/axi4_scoreboard.sv(226) @ 725000: uvm_test_top.env.scb [axi4_scoreboard] [REF_MEM_WRITE_IGNORED] Write ignored for ADDR=0x93749960 LOCK=AXI4_LOCK_EXCLUSIVE RESP=AXI4_RESP_OKAY
# UVM_INFO ../src/slv/axi4_slave_monitor.sv(287) @ 725000: uvm_test_top.env.slave_agent.mon [axi4_slave_monitor] Read data sent: ID=0x9 ADDR=0x6121f5dc 4 beats
# UVM_INFO ../src/env/axi4_scoreboard.sv(108) @ 725000: uvm_test_top.env.scb [axi4_scoreboard] Slave AXI4_READ received: ID=0x9 ADDR=0x6121f5dc LEN=3
# UVM_INFO ../src/env/axi4_scoreboard.sv(291) @ 725000: uvm_test_top.env.scb [axi4_scoreboard] [READ] MATCH #20: ID=0x9 ADDR=0x6121f5dc LEN=3
# UVM_INFO ../src/slv/axi4_slave_driver.sv(358) @ 745000: uvm_test_top.env.slave_agent.drv [axi4_slave_driver] AR received: ID=0xf ADDR=0xac2e6439 LEN=7 LOCK=AXI4_LOCK_EXCLUSIVE
# UVM_INFO ../src/mst/axi4_master_monitor.sv(246) @ 745000: uvm_test_top.env.master_agent.mon [axi4_master_monitor] AR observed: ID=0xf ADDR=0xac2e6439 LEN=7
# UVM_INFO ../src/slv/axi4_slave_monitor.sv(224) @ 745000: uvm_test_top.env.slave_agent.mon [axi4_slave_monitor] AR received: ID=0xf ADDR=0xac2e6439 LEN=7
# UVM_INFO ../src/slv/axi4_slave_driver.sv(358) @ 775000: uvm_test_top.env.slave_agent.drv [axi4_slave_driver] AR received: ID=0x0 ADDR=0xa40e9172 LEN=7 LOCK=AXI4_LOCK_NORMAL
# UVM_INFO ../src/slv/axi4_slave_monitor.sv(224) @ 775000: uvm_test_top.env.slave_agent.mon [axi4_slave_monitor] AR received: ID=0x0 ADDR=0xa40e9172 LEN=7
# UVM_INFO ../src/mst/axi4_master_monitor.sv(246) @ 775000: uvm_test_top.env.master_agent.mon [axi4_master_monitor] AR observed: ID=0x0 ADDR=0xa40e9172 LEN=7
# UVM_INFO ../src/slv/axi4_slave_driver.sv(358) @ 805000: uvm_test_top.env.slave_agent.drv [axi4_slave_driver] AR received: ID=0x7 ADDR=0x51e19914 LEN=7 LOCK=AXI4_LOCK_EXCLUSIVE
# UVM_INFO ../src/mst/axi4_master_monitor.sv(246) @ 805000: uvm_test_top.env.master_agent.mon [axi4_master_monitor] AR observed: ID=0x7 ADDR=0x51e19914 LEN=7
# UVM_INFO ../src/slv/axi4_slave_monitor.sv(224) @ 805000: uvm_test_top.env.slave_agent.mon [axi4_slave_monitor] AR received: ID=0x7 ADDR=0x51e19914 LEN=7
# UVM_INFO ../src/slv/axi4_slave_driver.sv(358) @ 835000: uvm_test_top.env.slave_agent.drv [axi4_slave_driver] AR received: ID=0xf ADDR=0x00827512 LEN=15 LOCK=AXI4_LOCK_EXCLUSIVE
# UVM_INFO ../src/slv/axi4_slave_monitor.sv(224) @ 835000: uvm_test_top.env.slave_agent.mon [axi4_slave_monitor] AR received: ID=0xf ADDR=0x00827512 LEN=15
# UVM_INFO ../src/mst/axi4_master_monitor.sv(246) @ 835000: uvm_test_top.env.master_agent.mon [axi4_master_monitor] AR observed: ID=0xf ADDR=0x00827512 LEN=15
# UVM_INFO ../src/slv/axi4_slave_monitor.sv(167) @ 855000: uvm_test_top.env.slave_agent.mon [axi4_slave_monitor] W data assembled: ID=0x7 ADDR=0x0cd03490 8 beats
# UVM_INFO ../src/mst/axi4_master_monitor.sv(184) @ 855000: uvm_test_top.env.master_agent.mon [axi4_master_monitor] W data assembled: ID=0x7 ADDR=0x0cd03490 8 beats
# UVM_INFO ../src/slv/axi4_slave_driver.sv(358) @ 865000: uvm_test_top.env.slave_agent.drv [axi4_slave_driver] AR received: ID=0x3 ADDR=0xb825a1ba LEN=15 LOCK=AXI4_LOCK_NORMAL
# UVM_INFO ../src/mst/axi4_master_monitor.sv(246) @ 865000: uvm_test_top.env.master_agent.mon [axi4_master_monitor] AR observed: ID=0x3 ADDR=0xb825a1ba LEN=15
# UVM_INFO ../src/slv/axi4_slave_monitor.sv(224) @ 865000: uvm_test_top.env.slave_agent.mon [axi4_slave_monitor] AR received: ID=0x3 ADDR=0xb825a1ba LEN=15
# UVM_INFO ../src/mst/axi4_master_driver.sv(289) @ 885000: uvm_test_top.env.master_agent.drv [axi4_master_driver] Master driver received B response: ID=0x7 RESP=AXI4_RESP_OKAY
# UVM_INFO ../src/mst/axi4_master_driver.sv(348) @ 885000: uvm_test_top.env.master_agent.drv [axi4_master_driver] Master driver received all R beats for ID=0xb
# UVM_INFO ../src/slv/axi4_slave_driver.sv(464) @ 885000: uvm_test_top.env.slave_agent.drv [axi4_slave_driver] Read complete: ID=0xb ADDR=0x6a793322 RESP=AXI4_RESP_EXOKAY  8 beats sent
# UVM_INFO ../src/slv/axi4_slave_driver.sv(320) @ 885000: uvm_test_top.env.slave_agent.drv [axi4_slave_driver] Write complete: ID=0x7 RESP=AXI4_RESP_OKAY
# UVM_INFO ../src/mst/axi4_master_monitor.sv(210) @ 885000: uvm_test_top.env.master_agent.mon [axi4_master_monitor] Write complete: ID=0x7 ADDR=0x0cd03490 RESP=AXI4_RESP_OKAY
# UVM_INFO ../src/env/axi4_scoreboard.sv(87) @ 885000: uvm_test_top.env.scb [axi4_scoreboard] Master AXI4_WRITE received: ID=0x7 ADDR=0x0cd03490 LEN=7
# UVM_INFO ../src/mst/axi4_master_monitor.sv(314) @ 885000: uvm_test_top.env.master_agent.mon [axi4_master_monitor] Read complete: ID=0xb ADDR=0x6a793322 8 beats
# UVM_INFO ../src/env/axi4_scoreboard.sv(87) @ 885000: uvm_test_top.env.scb [axi4_scoreboard] Master AXI4_READ received: ID=0xb ADDR=0x6a793322 LEN=7
# UVM_INFO ../src/slv/axi4_slave_monitor.sv(189) @ 885000: uvm_test_top.env.slave_agent.mon [axi4_slave_monitor] Write response sent: ID=0x7 ADDR=0x0cd03490 RESP=AXI4_RESP_OKAY
# UVM_INFO ../src/env/axi4_scoreboard.sv(108) @ 885000: uvm_test_top.env.scb [axi4_scoreboard] Slave AXI4_WRITE received: ID=0x7 ADDR=0x0cd03490 LEN=7
# UVM_INFO ../src/env/axi4_scoreboard.sv(291) @ 885000: uvm_test_top.env.scb [axi4_scoreboard] [WRITE] MATCH #21: ID=0x7 ADDR=0x0cd03490 LEN=7
# UVM_INFO ../src/env/axi4_scoreboard.sv(219) @ 885000: uvm_test_top.env.scb [axi4_scoreboard] [REF_MEM_WRITE] Addr=0x0cd03490 Data=0xe5
# UVM_INFO ../src/env/axi4_scoreboard.sv(219) @ 885000: uvm_test_top.env.scb [axi4_scoreboard] [REF_MEM_WRITE] Addr=0x0cd03491 Data=0x2a
# UVM_INFO ../src/env/axi4_scoreboard.sv(219) @ 885000: uvm_test_top.env.scb [axi4_scoreboard] [REF_MEM_WRITE] Addr=0x0cd03490 Data=0xeb
# UVM_INFO ../src/env/axi4_scoreboard.sv(219) @ 885000: uvm_test_top.env.scb [axi4_scoreboard] [REF_MEM_WRITE] Addr=0x0cd03493 Data=0x22
# UVM_INFO ../src/env/axi4_scoreboard.sv(219) @ 885000: uvm_test_top.env.scb [axi4_scoreboard] [REF_MEM_WRITE] Addr=0x0cd03493 Data=0x8c
# UVM_INFO ../src/env/axi4_scoreboard.sv(219) @ 885000: uvm_test_top.env.scb [axi4_scoreboard] [REF_MEM_WRITE] Addr=0x0cd03490 Data=0xbb
# UVM_INFO ../src/env/axi4_scoreboard.sv(219) @ 885000: uvm_test_top.env.scb [axi4_scoreboard] [REF_MEM_WRITE] Addr=0x0cd03491 Data=0x53
# UVM_INFO ../src/env/axi4_scoreboard.sv(219) @ 885000: uvm_test_top.env.scb [axi4_scoreboard] [REF_MEM_WRITE] Addr=0x0cd03491 Data=0x7e
# UVM_INFO ../src/env/axi4_scoreboard.sv(219) @ 885000: uvm_test_top.env.scb [axi4_scoreboard] [REF_MEM_WRITE] Addr=0x0cd03492 Data=0x77
# UVM_INFO ../src/env/axi4_scoreboard.sv(219) @ 885000: uvm_test_top.env.scb [axi4_scoreboard] [REF_MEM_WRITE] Addr=0x0cd03493 Data=0x43
# UVM_INFO ../src/env/axi4_scoreboard.sv(219) @ 885000: uvm_test_top.env.scb [axi4_scoreboard] [REF_MEM_WRITE] Addr=0x0cd03490 Data=0x30
# UVM_INFO ../src/env/axi4_scoreboard.sv(219) @ 885000: uvm_test_top.env.scb [axi4_scoreboard] [REF_MEM_WRITE] Addr=0x0cd03491 Data=0x85
# UVM_INFO ../src/env/axi4_scoreboard.sv(219) @ 885000: uvm_test_top.env.scb [axi4_scoreboard] [REF_MEM_WRITE] Addr=0x0cd03492 Data=0x4a
# UVM_INFO ../src/env/axi4_scoreboard.sv(219) @ 885000: uvm_test_top.env.scb [axi4_scoreboard] [REF_MEM_WRITE] Addr=0x0cd03493 Data=0x63
# UVM_INFO ../src/env/axi4_scoreboard.sv(219) @ 885000: uvm_test_top.env.scb [axi4_scoreboard] [REF_MEM_WRITE] Addr=0x0cd03490 Data=0x57
# UVM_INFO ../src/env/axi4_scoreboard.sv(219) @ 885000: uvm_test_top.env.scb [axi4_scoreboard] [REF_MEM_WRITE] Addr=0x0cd03491 Data=0x5b
# UVM_INFO ../src/env/axi4_scoreboard.sv(219) @ 885000: uvm_test_top.env.scb [axi4_scoreboard] [REF_MEM_WRITE] Addr=0x0cd03493 Data=0x7b
# UVM_INFO ../src/env/axi4_scoreboard.sv(219) @ 885000: uvm_test_top.env.scb [axi4_scoreboard] [REF_MEM_WRITE] Addr=0x0cd03490 Data=0x27
# UVM_INFO ../src/env/axi4_scoreboard.sv(219) @ 885000: uvm_test_top.env.scb [axi4_scoreboard] [REF_MEM_WRITE] Addr=0x0cd03491 Data=0x50
# UVM_INFO ../src/env/axi4_scoreboard.sv(219) @ 885000: uvm_test_top.env.scb [axi4_scoreboard] [REF_MEM_WRITE] Addr=0x0cd03492 Data=0x4f
# UVM_INFO ../src/env/axi4_scoreboard.sv(219) @ 885000: uvm_test_top.env.scb [axi4_scoreboard] [REF_MEM_WRITE] Addr=0x0cd03493 Data=0x0f
# UVM_INFO ../src/slv/axi4_slave_monitor.sv(287) @ 885000: uvm_test_top.env.slave_agent.mon [axi4_slave_monitor] Read data sent: ID=0xb ADDR=0x6a793322 8 beats
# UVM_INFO ../src/env/axi4_scoreboard.sv(108) @ 885000: uvm_test_top.env.scb [axi4_scoreboard] Slave AXI4_READ received: ID=0xb ADDR=0x6a793322 LEN=7
# UVM_INFO ../src/env/axi4_scoreboard.sv(291) @ 885000: uvm_test_top.env.scb [axi4_scoreboard] [READ] MATCH #22: ID=0xb ADDR=0x6a793322 LEN=7
# UVM_INFO ../src/slv/axi4_slave_driver.sv(358) @ 895000: uvm_test_top.env.slave_agent.drv [axi4_slave_driver] AR received: ID=0x0 ADDR=0xc6fe1ac8 LEN=15 LOCK=AXI4_LOCK_NORMAL
# UVM_INFO ../src/slv/axi4_slave_monitor.sv(224) @ 895000: uvm_test_top.env.slave_agent.mon [axi4_slave_monitor] AR received: ID=0x0 ADDR=0xc6fe1ac8 LEN=15
# UVM_INFO ../src/mst/axi4_master_monitor.sv(246) @ 895000: uvm_test_top.env.master_agent.mon [axi4_master_monitor] AR observed: ID=0x0 ADDR=0xc6fe1ac8 LEN=15
# UVM_INFO ../src/slv/axi4_slave_driver.sv(358) @ 925000: uvm_test_top.env.slave_agent.drv [axi4_slave_driver] AR received: ID=0xe ADDR=0x0d3249a6 LEN=0 LOCK=AXI4_LOCK_NORMAL
# UVM_INFO ../src/mst/axi4_master_monitor.sv(246) @ 925000: uvm_test_top.env.master_agent.mon [axi4_master_monitor] AR observed: ID=0xe ADDR=0x0d3249a6 LEN=0
# UVM_INFO ../src/slv/axi4_slave_monitor.sv(224) @ 925000: uvm_test_top.env.slave_agent.mon [axi4_slave_monitor] AR received: ID=0xe ADDR=0x0d3249a6 LEN=0
# UVM_INFO ../src/slv/axi4_slave_driver.sv(358) @ 955000: uvm_test_top.env.slave_agent.drv [axi4_slave_driver] AR received: ID=0x9 ADDR=0xa8738917 LEN=0 LOCK=AXI4_LOCK_NORMAL
# UVM_INFO ../src/slv/axi4_slave_monitor.sv(224) @ 955000: uvm_test_top.env.slave_agent.mon [axi4_slave_monitor] AR received: ID=0x9 ADDR=0xa8738917 LEN=0
# UVM_INFO ../src/mst/axi4_master_monitor.sv(246) @ 955000: uvm_test_top.env.master_agent.mon [axi4_master_monitor] AR observed: ID=0x9 ADDR=0xa8738917 LEN=0
# UVM_INFO ../src/slv/axi4_slave_driver.sv(358) @ 985000: uvm_test_top.env.slave_agent.drv [axi4_slave_driver] AR received: ID=0xf ADDR=0xa0333a56 LEN=0 LOCK=AXI4_LOCK_NORMAL
# UVM_INFO ../src/mst/axi4_master_monitor.sv(246) @ 985000: uvm_test_top.env.master_agent.mon [axi4_master_monitor] AR observed: ID=0xf ADDR=0xa0333a56 LEN=0
# UVM_INFO ../src/slv/axi4_slave_monitor.sv(224) @ 985000: uvm_test_top.env.slave_agent.mon [axi4_slave_monitor] AR received: ID=0xf ADDR=0xa0333a56 LEN=0
# UVM_INFO ../src/slv/axi4_slave_driver.sv(358) @ 1015000: uvm_test_top.env.slave_agent.drv [axi4_slave_driver] AR received: ID=0xe ADDR=0x34872653 LEN=2 LOCK=AXI4_LOCK_NORMAL
# UVM_INFO ../src/slv/axi4_slave_monitor.sv(224) @ 1015000: uvm_test_top.env.slave_agent.mon [axi4_slave_monitor] AR received: ID=0xe ADDR=0x34872653 LEN=2
# UVM_INFO ../src/mst/axi4_master_monitor.sv(246) @ 1015000: uvm_test_top.env.master_agent.mon [axi4_master_monitor] AR observed: ID=0xe ADDR=0x34872653 LEN=2
# UVM_INFO ../src/slv/axi4_slave_monitor.sv(167) @ 1015000: uvm_test_top.env.slave_agent.mon [axi4_slave_monitor] W data assembled: ID=0x2 ADDR=0xb703940a 8 beats
# UVM_INFO ../src/mst/axi4_master_monitor.sv(184) @ 1015000: uvm_test_top.env.master_agent.mon [axi4_master_monitor] W data assembled: ID=0x2 ADDR=0xb703940a 8 beats
# UVM_INFO ../src/mst/axi4_master_driver.sv(289) @ 1045000: uvm_test_top.env.master_agent.drv [axi4_master_driver] Master driver received B response: ID=0x2 RESP=AXI4_RESP_OKAY
# UVM_INFO ../src/mst/axi4_master_driver.sv(348) @ 1045000: uvm_test_top.env.master_agent.drv [axi4_master_driver] Master driver received all R beats for ID=0xa
# UVM_INFO ../src/slv/axi4_slave_driver.sv(358) @ 1045000: uvm_test_top.env.slave_agent.drv [axi4_slave_driver] AR received: ID=0xb ADDR=0xa94e6710 LEN=2 LOCK=AXI4_LOCK_NORMAL
# UVM_INFO ../src/slv/axi4_slave_driver.sv(464) @ 1045000: uvm_test_top.env.slave_agent.drv [axi4_slave_driver] Read complete: ID=0xa ADDR=0xb3f4adf2 RESP=AXI4_RESP_OKAY  8 beats sent
# UVM_INFO ../src/slv/axi4_slave_driver.sv(320) @ 1045000: uvm_test_top.env.slave_agent.drv [axi4_slave_driver] Write complete: ID=0x2 RESP=AXI4_RESP_OKAY
# UVM_INFO ../src/mst/axi4_master_monitor.sv(210) @ 1045000: uvm_test_top.env.master_agent.mon [axi4_master_monitor] Write complete: ID=0x2 ADDR=0xb703940a RESP=AXI4_RESP_OKAY
# UVM_INFO ../src/env/axi4_scoreboard.sv(87) @ 1045000: uvm_test_top.env.scb [axi4_scoreboard] Master AXI4_WRITE received: ID=0x2 ADDR=0xb703940a LEN=7
# UVM_INFO ../src/mst/axi4_master_monitor.sv(246) @ 1045000: uvm_test_top.env.master_agent.mon [axi4_master_monitor] AR observed: ID=0xb ADDR=0xa94e6710 LEN=2
# UVM_INFO ../src/mst/axi4_master_monitor.sv(314) @ 1045000: uvm_test_top.env.master_agent.mon [axi4_master_monitor] Read complete: ID=0xa ADDR=0xb3f4adf2 8 beats
# UVM_INFO ../src/env/axi4_scoreboard.sv(87) @ 1045000: uvm_test_top.env.scb [axi4_scoreboard] Master AXI4_READ received: ID=0xa ADDR=0xb3f4adf2 LEN=7
# UVM_INFO ../src/slv/axi4_slave_monitor.sv(189) @ 1045000: uvm_test_top.env.slave_agent.mon [axi4_slave_monitor] Write response sent: ID=0x2 ADDR=0xb703940a RESP=AXI4_RESP_OKAY
# UVM_INFO ../src/env/axi4_scoreboard.sv(108) @ 1045000: uvm_test_top.env.scb [axi4_scoreboard] Slave AXI4_WRITE received: ID=0x2 ADDR=0xb703940a LEN=7
# UVM_INFO ../src/env/axi4_scoreboard.sv(291) @ 1045000: uvm_test_top.env.scb [axi4_scoreboard] [WRITE] MATCH #23: ID=0x2 ADDR=0xb703940a LEN=7
# UVM_INFO ../src/env/axi4_scoreboard.sv(226) @ 1045000: uvm_test_top.env.scb [axi4_scoreboard] [REF_MEM_WRITE_IGNORED] Write ignored for ADDR=0xb703940a LOCK=AXI4_LOCK_EXCLUSIVE RESP=AXI4_RESP_OKAY
# UVM_INFO ../src/slv/axi4_slave_monitor.sv(224) @ 1045000: uvm_test_top.env.slave_agent.mon [axi4_slave_monitor] AR received: ID=0xb ADDR=0xa94e6710 LEN=2
# UVM_INFO ../src/slv/axi4_slave_monitor.sv(287) @ 1045000: uvm_test_top.env.slave_agent.mon [axi4_slave_monitor] Read data sent: ID=0xa ADDR=0xb3f4adf2 8 beats
# UVM_INFO ../src/env/axi4_scoreboard.sv(108) @ 1045000: uvm_test_top.env.scb [axi4_scoreboard] Slave AXI4_READ received: ID=0xa ADDR=0xb3f4adf2 LEN=7
# UVM_INFO ../src/env/axi4_scoreboard.sv(291) @ 1045000: uvm_test_top.env.scb [axi4_scoreboard] [READ] MATCH #24: ID=0xa ADDR=0xb3f4adf2 LEN=7
# UVM_INFO ../src/slv/axi4_slave_driver.sv(358) @ 1075000: uvm_test_top.env.slave_agent.drv [axi4_slave_driver] AR received: ID=0x6 ADDR=0x6c8e1900 LEN=2 LOCK=AXI4_LOCK_EXCLUSIVE
# UVM_INFO ../src/slv/axi4_slave_monitor.sv(224) @ 1075000: uvm_test_top.env.slave_agent.mon [axi4_slave_monitor] AR received: ID=0x6 ADDR=0x6c8e1900 LEN=2
# UVM_INFO ../src/mst/axi4_master_monitor.sv(246) @ 1075000: uvm_test_top.env.master_agent.mon [axi4_master_monitor] AR observed: ID=0x6 ADDR=0x6c8e1900 LEN=2
# UVM_INFO ../src/test/axi4_burst_sweep_test.sv(32) @ 1095000: uvm_test_top [axi4_burst_sweep_test] Burst sweep test complete
# UVM_INFO ../src/slv/axi4_slave_driver.sv(358) @ 1105000: uvm_test_top.env.slave_agent.drv [axi4_slave_driver] AR received: ID=0x5 ADDR=0x68d28c75 LEN=10 LOCK=AXI4_LOCK_EXCLUSIVE
# UVM_INFO ../src/mst/axi4_master_monitor.sv(246) @ 1105000: uvm_test_top.env.master_agent.mon [axi4_master_monitor] AR observed: ID=0x5 ADDR=0x68d28c75 LEN=10
# UVM_INFO ../src/slv/axi4_slave_monitor.sv(224) @ 1105000: uvm_test_top.env.slave_agent.mon [axi4_slave_monitor] AR received: ID=0x5 ADDR=0x68d28c75 LEN=10
# UVM_INFO ../src/slv/axi4_slave_driver.sv(358) @ 1135000: uvm_test_top.env.slave_agent.drv [axi4_slave_driver] AR received: ID=0xe ADDR=0xace496b1 LEN=10 LOCK=AXI4_LOCK_EXCLUSIVE
# UVM_INFO ../src/slv/axi4_slave_monitor.sv(224) @ 1135000: uvm_test_top.env.slave_agent.mon [axi4_slave_monitor] AR received: ID=0xe ADDR=0xace496b1 LEN=10
# UVM_INFO ../src/mst/axi4_master_monitor.sv(246) @ 1135000: uvm_test_top.env.master_agent.mon [axi4_master_monitor] AR observed: ID=0xe ADDR=0xace496b1 LEN=10
# UVM_INFO ../src/slv/axi4_slave_driver.sv(358) @ 1165000: uvm_test_top.env.slave_agent.drv [axi4_slave_driver] AR received: ID=0x4 ADDR=0x4106c6ba LEN=10 LOCK=AXI4_LOCK_EXCLUSIVE
# UVM_INFO ../src/mst/axi4_master_monitor.sv(246) @ 1165000: uvm_test_top.env.master_agent.mon [axi4_master_monitor] AR observed: ID=0x4 ADDR=0x4106c6ba LEN=10
# UVM_INFO ../src/slv/axi4_slave_monitor.sv(224) @ 1165000: uvm_test_top.env.slave_agent.mon [axi4_slave_monitor] AR received: ID=0x4 ADDR=0x4106c6ba LEN=10
# UVM_INFO ../src/slv/axi4_slave_driver.sv(358) @ 1195000: uvm_test_top.env.slave_agent.drv [axi4_slave_driver] AR received: ID=0xf ADDR=0xc25b9ce9 LEN=32 LOCK=AXI4_LOCK_EXCLUSIVE
# UVM_INFO ../src/slv/axi4_slave_monitor.sv(224) @ 1195000: uvm_test_top.env.slave_agent.mon [axi4_slave_monitor] AR received: ID=0xf ADDR=0xc25b9ce9 LEN=32
# UVM_INFO ../src/mst/axi4_master_monitor.sv(246) @ 1195000: uvm_test_top.env.master_agent.mon [axi4_master_monitor] AR observed: ID=0xf ADDR=0xc25b9ce9 LEN=32
# UVM_INFO ../src/slv/axi4_slave_driver.sv(358) @ 1225000: uvm_test_top.env.slave_agent.drv [axi4_slave_driver] AR received: ID=0xc ADDR=0xd6f2807b LEN=32 LOCK=AXI4_LOCK_EXCLUSIVE
# UVM_INFO ../src/mst/axi4_master_monitor.sv(246) @ 1225000: uvm_test_top.env.master_agent.mon [axi4_master_monitor] AR observed: ID=0xc ADDR=0xd6f2807b LEN=32
# UVM_INFO ../src/slv/axi4_slave_monitor.sv(224) @ 1225000: uvm_test_top.env.slave_agent.mon [axi4_slave_monitor] AR received: ID=0xc ADDR=0xd6f2807b LEN=32
# UVM_INFO ../src/slv/axi4_slave_driver.sv(358) @ 1255000: uvm_test_top.env.slave_agent.drv [axi4_slave_driver] AR received: ID=0x5 ADDR=0x9d9c9c60 LEN=32 LOCK=AXI4_LOCK_NORMAL
# UVM_INFO ../src/slv/axi4_slave_monitor.sv(224) @ 1255000: uvm_test_top.env.slave_agent.mon [axi4_slave_monitor] AR received: ID=0x5 ADDR=0x9d9c9c60 LEN=32
# UVM_INFO ../src/mst/axi4_master_monitor.sv(246) @ 1255000: uvm_test_top.env.master_agent.mon [axi4_master_monitor] AR observed: ID=0x5 ADDR=0x9d9c9c60 LEN=32
# UVM_INFO ../src/slv/axi4_slave_driver.sv(358) @ 1285000: uvm_test_top.env.slave_agent.drv [axi4_slave_driver] AR received: ID=0xc ADDR=0x68e833a1 LEN=100 LOCK=AXI4_LOCK_NORMAL
# UVM_INFO ../src/mst/axi4_master_monitor.sv(246) @ 1285000: uvm_test_top.env.master_agent.mon [axi4_master_monitor] AR observed: ID=0xc ADDR=0x68e833a1 LEN=100
# UVM_INFO ../src/slv/axi4_slave_monitor.sv(224) @ 1285000: uvm_test_top.env.slave_agent.mon [axi4_slave_monitor] AR received: ID=0xc ADDR=0x68e833a1 LEN=100
# UVM_INFO ../src/slv/axi4_slave_driver.sv(358) @ 1315000: uvm_test_top.env.slave_agent.drv [axi4_slave_driver] AR received: ID=0x3 ADDR=0x483cbd15 LEN=100 LOCK=AXI4_LOCK_NORMAL
# UVM_INFO ../src/slv/axi4_slave_monitor.sv(224) @ 1315000: uvm_test_top.env.slave_agent.mon [axi4_slave_monitor] AR received: ID=0x3 ADDR=0x483cbd15 LEN=100
# UVM_INFO ../src/mst/axi4_master_monitor.sv(246) @ 1315000: uvm_test_top.env.master_agent.mon [axi4_master_monitor] AR observed: ID=0x3 ADDR=0x483cbd15 LEN=100
# UVM_INFO ../src/slv/axi4_slave_monitor.sv(167) @ 1335000: uvm_test_top.env.slave_agent.mon [axi4_slave_monitor] W data assembled: ID=0x4 ADDR=0x9b5d7977 16 beats
# UVM_INFO ../src/mst/axi4_master_monitor.sv(184) @ 1335000: uvm_test_top.env.master_agent.mon [axi4_master_monitor] W data assembled: ID=0x4 ADDR=0x9b5d7977 16 beats
# UVM_INFO ../src/slv/axi4_slave_driver.sv(358) @ 1345000: uvm_test_top.env.slave_agent.drv [axi4_slave_driver] AR received: ID=0x6 ADDR=0xdebd3121 LEN=100 LOCK=AXI4_LOCK_EXCLUSIVE
# UVM_INFO ../src/mst/axi4_master_monitor.sv(246) @ 1345000: uvm_test_top.env.master_agent.mon [axi4_master_monitor] AR observed: ID=0x6 ADDR=0xdebd3121 LEN=100
# UVM_INFO ../src/slv/axi4_slave_monitor.sv(224) @ 1345000: uvm_test_top.env.slave_agent.mon [axi4_slave_monitor] AR received: ID=0x6 ADDR=0xdebd3121 LEN=100
# UVM_INFO ../src/mst/axi4_master_driver.sv(289) @ 1365000: uvm_test_top.env.master_agent.drv [axi4_master_driver] Master driver received B response: ID=0x4 RESP=AXI4_RESP_OKAY
# UVM_INFO ../src/mst/axi4_master_driver.sv(348) @ 1365000: uvm_test_top.env.master_agent.drv [axi4_master_driver] Master driver received all R beats for ID=0x3
# UVM_INFO ../src/slv/axi4_slave_driver.sv(464) @ 1365000: uvm_test_top.env.slave_agent.drv [axi4_slave_driver] Read complete: ID=0x3 ADDR=0xcf9d30bb RESP=AXI4_RESP_OKAY  16 beats sent
# UVM_INFO ../src/slv/axi4_slave_driver.sv(320) @ 1365000: uvm_test_top.env.slave_agent.drv [axi4_slave_driver] Write complete: ID=0x4 RESP=AXI4_RESP_OKAY
# UVM_INFO ../src/mst/axi4_master_monitor.sv(210) @ 1365000: uvm_test_top.env.master_agent.mon [axi4_master_monitor] Write complete: ID=0x4 ADDR=0x9b5d7977 RESP=AXI4_RESP_OKAY
# UVM_INFO ../src/env/axi4_scoreboard.sv(87) @ 1365000: uvm_test_top.env.scb [axi4_scoreboard] Master AXI4_WRITE received: ID=0x4 ADDR=0x9b5d7977 LEN=15
# UVM_INFO ../src/mst/axi4_master_monitor.sv(314) @ 1365000: uvm_test_top.env.master_agent.mon [axi4_master_monitor] Read complete: ID=0x3 ADDR=0xcf9d30bb 16 beats
# UVM_INFO ../src/env/axi4_scoreboard.sv(87) @ 1365000: uvm_test_top.env.scb [axi4_scoreboard] Master AXI4_READ received: ID=0x3 ADDR=0xcf9d30bb LEN=15
# UVM_INFO ../src/slv/axi4_slave_monitor.sv(189) @ 1365000: uvm_test_top.env.slave_agent.mon [axi4_slave_monitor] Write response sent: ID=0x4 ADDR=0x9b5d7977 RESP=AXI4_RESP_OKAY
# UVM_INFO ../src/env/axi4_scoreboard.sv(108) @ 1365000: uvm_test_top.env.scb [axi4_scoreboard] Slave AXI4_WRITE received: ID=0x4 ADDR=0x9b5d7977 LEN=15
# UVM_INFO ../src/env/axi4_scoreboard.sv(291) @ 1365000: uvm_test_top.env.scb [axi4_scoreboard] [WRITE] MATCH #25: ID=0x4 ADDR=0x9b5d7977 LEN=15
# UVM_INFO ../src/env/axi4_scoreboard.sv(226) @ 1365000: uvm_test_top.env.scb [axi4_scoreboard] [REF_MEM_WRITE_IGNORED] Write ignored for ADDR=0x9b5d7977 LOCK=AXI4_LOCK_EXCLUSIVE RESP=AXI4_RESP_OKAY
# UVM_INFO ../src/slv/axi4_slave_monitor.sv(287) @ 1365000: uvm_test_top.env.slave_agent.mon [axi4_slave_monitor] Read data sent: ID=0x3 ADDR=0xcf9d30bb 16 beats
# UVM_INFO ../src/env/axi4_scoreboard.sv(108) @ 1365000: uvm_test_top.env.scb [axi4_scoreboard] Slave AXI4_READ received: ID=0x3 ADDR=0xcf9d30bb LEN=15
# UVM_INFO ../src/env/axi4_scoreboard.sv(291) @ 1365000: uvm_test_top.env.scb [axi4_scoreboard] [READ] MATCH #26: ID=0x3 ADDR=0xcf9d30bb LEN=15
# UVM_INFO ../src/slv/axi4_slave_driver.sv(358) @ 1375000: uvm_test_top.env.slave_agent.drv [axi4_slave_driver] AR received: ID=0x7 ADDR=0xbd222b66 LEN=255 LOCK=AXI4_LOCK_EXCLUSIVE
# UVM_INFO ../src/slv/axi4_slave_monitor.sv(224) @ 1375000: uvm_test_top.env.slave_agent.mon [axi4_slave_monitor] AR received: ID=0x7 ADDR=0xbd222b66 LEN=255
# UVM_INFO ../src/mst/axi4_master_monitor.sv(246) @ 1375000: uvm_test_top.env.master_agent.mon [axi4_master_monitor] AR observed: ID=0x7 ADDR=0xbd222b66 LEN=255
# UVM_INFO ../src/slv/axi4_slave_driver.sv(358) @ 1405000: uvm_test_top.env.slave_agent.drv [axi4_slave_driver] AR received: ID=0x5 ADDR=0x5ac72d0c LEN=255 LOCK=AXI4_LOCK_EXCLUSIVE
# UVM_INFO ../src/mst/axi4_master_monitor.sv(246) @ 1405000: uvm_test_top.env.master_agent.mon [axi4_master_monitor] AR observed: ID=0x5 ADDR=0x5ac72d0c LEN=255
# UVM_INFO ../src/slv/axi4_slave_monitor.sv(224) @ 1405000: uvm_test_top.env.slave_agent.mon [axi4_slave_monitor] AR received: ID=0x5 ADDR=0x5ac72d0c LEN=255
# UVM_INFO ../src/slv/axi4_slave_driver.sv(358) @ 1435000: uvm_test_top.env.slave_agent.drv [axi4_slave_driver] AR received: ID=0x5 ADDR=0xaf5670a3 LEN=255 LOCK=AXI4_LOCK_NORMAL
# UVM_INFO ../src/slv/axi4_slave_monitor.sv(224) @ 1435000: uvm_test_top.env.slave_agent.mon [axi4_slave_monitor] AR received: ID=0x5 ADDR=0xaf5670a3 LEN=255
# UVM_INFO ../src/mst/axi4_master_monitor.sv(246) @ 1435000: uvm_test_top.env.master_agent.mon [axi4_master_monitor] AR observed: ID=0x5 ADDR=0xaf5670a3 LEN=255
# UVM_INFO ../src/slv/axi4_slave_driver.sv(358) @ 1465000: uvm_test_top.env.slave_agent.drv [axi4_slave_driver] AR received: ID=0x3 ADDR=0xe0000000 LEN=0 LOCK=AXI4_LOCK_EXCLUSIVE
# UVM_INFO ../src/mst/axi4_master_monitor.sv(246) @ 1465000: uvm_test_top.env.master_agent.mon [axi4_master_monitor] AR observed: ID=0x3 ADDR=0xe0000000 LEN=0
# UVM_INFO ../src/slv/axi4_slave_monitor.sv(224) @ 1465000: uvm_test_top.env.slave_agent.mon [axi4_slave_monitor] AR received: ID=0x3 ADDR=0xe0000000 LEN=0
# UVM_INFO ../src/slv/axi4_slave_driver.sv(358) @ 1495000: uvm_test_top.env.slave_agent.drv [axi4_slave_driver] AR received: ID=0xf ADDR=0xf0000000 LEN=0 LOCK=AXI4_LOCK_EXCLUSIVE
# UVM_INFO ../src/slv/axi4_slave_monitor.sv(224) @ 1495000: uvm_test_top.env.slave_agent.mon [axi4_slave_monitor] AR received: ID=0xf ADDR=0xf0000000 LEN=0
# UVM_INFO ../src/mst/axi4_master_monitor.sv(246) @ 1495000: uvm_test_top.env.master_agent.mon [axi4_master_monitor] AR observed: ID=0xf ADDR=0xf0000000 LEN=0
# UVM_INFO ../src/slv/axi4_slave_monitor.sv(167) @ 1655000: uvm_test_top.env.slave_agent.mon [axi4_slave_monitor] W data assembled: ID=0xe ADDR=0xa20051df 16 beats
# UVM_INFO ../src/mst/axi4_master_monitor.sv(184) @ 1655000: uvm_test_top.env.master_agent.mon [axi4_master_monitor] W data assembled: ID=0xe ADDR=0xa20051df 16 beats
# UVM_INFO ../src/mst/axi4_master_driver.sv(289) @ 1685000: uvm_test_top.env.master_agent.drv [axi4_master_driver] Master driver received B response: ID=0xe RESP=AXI4_RESP_OKAY
# UVM_INFO ../src/mst/axi4_master_driver.sv(348) @ 1685000: uvm_test_top.env.master_agent.drv [axi4_master_driver] Master driver received all R beats for ID=0x0
# UVM_INFO ../src/slv/axi4_slave_driver.sv(464) @ 1685000: uvm_test_top.env.slave_agent.drv [axi4_slave_driver] Read complete: ID=0x0 ADDR=0x2dc861ac RESP=AXI4_RESP_EXOKAY  16 beats sent
# UVM_INFO ../src/slv/axi4_slave_driver.sv(320) @ 1685000: uvm_test_top.env.slave_agent.drv [axi4_slave_driver] Write complete: ID=0xe RESP=AXI4_RESP_OKAY
# UVM_INFO ../src/mst/axi4_master_monitor.sv(210) @ 1685000: uvm_test_top.env.master_agent.mon [axi4_master_monitor] Write complete: ID=0xe ADDR=0xa20051df RESP=AXI4_RESP_OKAY
# UVM_INFO ../src/env/axi4_scoreboard.sv(87) @ 1685000: uvm_test_top.env.scb [axi4_scoreboard] Master AXI4_WRITE received: ID=0xe ADDR=0xa20051df LEN=15
# UVM_INFO ../src/mst/axi4_master_monitor.sv(314) @ 1685000: uvm_test_top.env.master_agent.mon [axi4_master_monitor] Read complete: ID=0x0 ADDR=0x2dc861ac 16 beats
# UVM_INFO ../src/env/axi4_scoreboard.sv(87) @ 1685000: uvm_test_top.env.scb [axi4_scoreboard] Master AXI4_READ received: ID=0x0 ADDR=0x2dc861ac LEN=15
# UVM_INFO ../src/slv/axi4_slave_monitor.sv(189) @ 1685000: uvm_test_top.env.slave_agent.mon [axi4_slave_monitor] Write response sent: ID=0xe ADDR=0xa20051df RESP=AXI4_RESP_OKAY
# UVM_INFO ../src/env/axi4_scoreboard.sv(108) @ 1685000: uvm_test_top.env.scb [axi4_scoreboard] Slave AXI4_WRITE received: ID=0xe ADDR=0xa20051df LEN=15
# UVM_INFO ../src/env/axi4_scoreboard.sv(291) @ 1685000: uvm_test_top.env.scb [axi4_scoreboard] [WRITE] MATCH #27: ID=0xe ADDR=0xa20051df LEN=15
# UVM_INFO ../src/env/axi4_scoreboard.sv(226) @ 1685000: uvm_test_top.env.scb [axi4_scoreboard] [REF_MEM_WRITE_IGNORED] Write ignored for ADDR=0xa20051df LOCK=AXI4_LOCK_EXCLUSIVE RESP=AXI4_RESP_OKAY
# UVM_INFO ../src/slv/axi4_slave_monitor.sv(287) @ 1685000: uvm_test_top.env.slave_agent.mon [axi4_slave_monitor] Read data sent: ID=0x0 ADDR=0x2dc861ac 16 beats
# UVM_INFO ../src/env/axi4_scoreboard.sv(108) @ 1685000: uvm_test_top.env.scb [axi4_scoreboard] Slave AXI4_READ received: ID=0x0 ADDR=0x2dc861ac LEN=15
# UVM_INFO ../src/env/axi4_scoreboard.sv(291) @ 1685000: uvm_test_top.env.scb [axi4_scoreboard] [READ] MATCH #28: ID=0x0 ADDR=0x2dc861ac LEN=15
# UVM_INFO ../src/slv/axi4_slave_driver.sv(212) @ 1725000: uvm_test_top.env.slave_agent.drv [axi4_slave_driver] AW received: ID=0x9 ADDR=0x6a3a0188 LEN=15 LOCK=AXI4_LOCK_EXCLUSIVE
# UVM_INFO ../src/mst/axi4_master_monitor.sv(124) @ 1725000: uvm_test_top.env.master_agent.mon [axi4_master_monitor] AW observed: ID=0x9 ADDR=0x6a3a0188 LEN=15
# UVM_INFO ../src/slv/axi4_slave_monitor.sv(116) @ 1725000: uvm_test_top.env.slave_agent.mon [axi4_slave_monitor] AW received: ID=0x9 ADDR=0x6a3a0188 LEN=15
# UVM_INFO ../src/slv/axi4_slave_driver.sv(212) @ 1755000: uvm_test_top.env.slave_agent.drv [axi4_slave_driver] AW received: ID=0xb ADDR=0x2e27b0eb LEN=1 LOCK=AXI4_LOCK_EXCLUSIVE
# UVM_INFO ../src/slv/axi4_slave_monitor.sv(116) @ 1755000: uvm_test_top.env.slave_agent.mon [axi4_slave_monitor] AW received: ID=0xb ADDR=0x2e27b0eb LEN=1
# UVM_INFO ../src/mst/axi4_master_monitor.sv(124) @ 1755000: uvm_test_top.env.master_agent.mon [axi4_master_monitor] AW observed: ID=0xb ADDR=0x2e27b0eb LEN=1
# UVM_INFO ../src/slv/axi4_slave_driver.sv(212) @ 1785000: uvm_test_top.env.slave_agent.drv [axi4_slave_driver] AW received: ID=0x0 ADDR=0xcf04c184 LEN=1 LOCK=AXI4_LOCK_EXCLUSIVE
# UVM_INFO ../src/mst/axi4_master_monitor.sv(124) @ 1785000: uvm_test_top.env.master_agent.mon [axi4_master_monitor] AW observed: ID=0x0 ADDR=0xcf04c184 LEN=1
# UVM_INFO ../src/slv/axi4_slave_monitor.sv(116) @ 1785000: uvm_test_top.env.slave_agent.mon [axi4_slave_monitor] AW received: ID=0x0 ADDR=0xcf04c184 LEN=1
# UVM_INFO ../src/slv/axi4_slave_driver.sv(212) @ 1815000: uvm_test_top.env.slave_agent.drv [axi4_slave_driver] AW received: ID=0x5 ADDR=0xb66af178 LEN=1 LOCK=AXI4_LOCK_EXCLUSIVE
# UVM_INFO ../src/slv/axi4_slave_monitor.sv(116) @ 1815000: uvm_test_top.env.slave_agent.mon [axi4_slave_monitor] AW received: ID=0x5 ADDR=0xb66af178 LEN=1
# UVM_INFO ../src/mst/axi4_master_monitor.sv(124) @ 1815000: uvm_test_top.env.master_agent.mon [axi4_master_monitor] AW observed: ID=0x5 ADDR=0xb66af178 LEN=1
# UVM_INFO ../src/slv/axi4_slave_driver.sv(212) @ 1845000: uvm_test_top.env.slave_agent.drv [axi4_slave_driver] AW received: ID=0x8 ADDR=0xdab0fc06 LEN=3 LOCK=AXI4_LOCK_NORMAL
# UVM_INFO ../src/mst/axi4_master_monitor.sv(124) @ 1845000: uvm_test_top.env.master_agent.mon [axi4_master_monitor] AW observed: ID=0x8 ADDR=0xdab0fc06 LEN=3
# UVM_INFO ../src/slv/axi4_slave_monitor.sv(116) @ 1845000: uvm_test_top.env.slave_agent.mon [axi4_slave_monitor] AW received: ID=0x8 ADDR=0xdab0fc06 LEN=3
# UVM_INFO ../src/slv/axi4_slave_driver.sv(212) @ 1875000: uvm_test_top.env.slave_agent.drv [axi4_slave_driver] AW received: ID=0xe ADDR=0x0e475f2e LEN=3 LOCK=AXI4_LOCK_NORMAL
# UVM_INFO ../src/slv/axi4_slave_monitor.sv(116) @ 1875000: uvm_test_top.env.slave_agent.mon [axi4_slave_monitor] AW received: ID=0xe ADDR=0x0e475f2e LEN=3
# UVM_INFO ../src/mst/axi4_master_monitor.sv(124) @ 1875000: uvm_test_top.env.master_agent.mon [axi4_master_monitor] AW observed: ID=0xe ADDR=0x0e475f2e LEN=3
# UVM_INFO ../src/slv/axi4_slave_driver.sv(212) @ 1905000: uvm_test_top.env.slave_agent.drv [axi4_slave_driver] AW received: ID=0x1 ADDR=0xc7e29aa0 LEN=3 LOCK=AXI4_LOCK_EXCLUSIVE
# UVM_INFO ../src/mst/axi4_master_monitor.sv(124) @ 1905000: uvm_test_top.env.master_agent.mon [axi4_master_monitor] AW observed: ID=0x1 ADDR=0xc7e29aa0 LEN=3
# UVM_INFO ../src/slv/axi4_slave_monitor.sv(116) @ 1905000: uvm_test_top.env.slave_agent.mon [axi4_slave_monitor] AW received: ID=0x1 ADDR=0xc7e29aa0 LEN=3
