# vsim -c -coverage -sv_seed 58773095 "+UVM_TESTNAME=axi4_burst_sweep_test" "+UVM_VERBOSITY=UVM_HIGH" "+DUMP_VCD" -l ./report/logs/axi4_burst_sweep_test_run_3_seed_58773095.log -do "coverage save -onexit ./report/coverage/axi4_burst_sweep_test_run_3_seed_58773095.ucdb; run -all; quit -f" opt_tb_top 
# Start time: 14:43:45 on Jul 08,2026
# //  Questa Sim-64
# //  Version 10.6b linux_x86_64 May 25 2017
# //
# //  Copyright 1991-2017 Mentor Graphics Corporation
# //  All Rights Reserved.
# //
# //  QuestaSim and its associated documentation contain trade
# //  secrets and commercial or financial information that are the property of
# //  Mentor Graphics Corporation and are privileged, confidential,
# //  and exempt from disclosure under the Freedom of Information Act,
# //  5 U.S.C. Section 552. Furthermore, this information
# //  is prohibited from disclosure under the Trade Secrets Act,
# //  18 U.S.C. Section 1905.
# //
# Loading sv_std.std
# Loading work.axi4_if(fast)
# Loading mtiUvm.uvm_pkg
# Loading work.axi4_pkg(fast)
# Loading work.axi4_test_pkg(fast)
# Loading work.tb_top(fast)
# Loading work.axi4_if(fast)
# Loading work.axi4_sva(fast)
# Loading mtiUvm.questa_uvm_pkg(fast)
# Loading /cadtools/mentor/Questa_10.6b/questasim/uvm-1.1d/linux_x86_64/uvm_dpi.so
# coverage save -onexit ./report/coverage/axi4_burst_sweep_test_run_3_seed_58773095.ucdb
#  run -all
# ----------------------------------------------------------------
# UVM-1.1d
# (C) 2007-2013 Mentor Graphics Corporation
# (C) 2007-2013 Cadence Design Systems, Inc.
# (C) 2006-2013 Synopsys, Inc.
# (C) 2011-2013 Cypress Semiconductor Corp.
# ----------------------------------------------------------------
# 
#   ***********       IMPORTANT RELEASE NOTES         ************
# 
#   You are using a version of the UVM library that has been compiled
#   with `UVM_NO_DEPRECATED undefined.
#   See http://www.eda.org/svdb/view.php?id=3313 for more details.
# 
#   You are using a version of the UVM library that has been compiled
#   with `UVM_OBJECT_MUST_HAVE_CONSTRUCTOR undefined.
#   See http://www.eda.org/svdb/view.php?id=3770 for more details.
# 
#       (Specify +UVM_NO_RELNOTES to turn off this notice)
# 
# UVM_INFO verilog_src/questa_uvm_pkg-1.2/src/questa_uvm_pkg.sv(215) @ 0: reporter [Questa UVM] QUESTA_UVM-1.2.3
# UVM_INFO verilog_src/questa_uvm_pkg-1.2/src/questa_uvm_pkg.sv(217) @ 0: reporter [Questa UVM]  questa_uvm::init(+struct)
# UVM_INFO ../src/tb_top.sv(147) @ 0: reporter [TB_TOP] Virtual interface set in config_db
# UVM_INFO @ 0: reporter [RNTST] Running test axi4_burst_sweep_test...
# UVM_INFO ../src/tb_top.sv(161) @ 0: reporter [TB_TOP] Waveform VCD dumping enabled (axi4_vip.vcd)
# UVM_INFO ../src/env/axi4_vip_env.sv(83) @ 0: uvm_test_top.env [axi4_vip_env] slave_vif not set - reusing master_vif (passthrough mode)
# UVM_INFO ../src/env/axi4_vip_env.sv(93) @ 0: uvm_test_top.env [axi4_vip_env] Scoreboard created
# UVM_INFO ../src/env/axi4_vip_env.sv(100) @ 0: uvm_test_top.env [axi4_vip_env] Coverage collectors created
# UVM_INFO ../src/mst/axi4_master_agent.sv(69) @ 0: uvm_test_top.env.master_agent [axi4_master_agent] ACTIVE mode - driver + sequencer created
# UVM_INFO ../src/slv/axi4_slave_agent.sv(82) @ 0: uvm_test_top.env.slave_agent [axi4_slave_agent] ACTIVE mode - ready_delay=[0:0] resp_delay=[0:0]
# UVM_INFO ../src/env/axi4_vip_env.sv(116) @ 0: uvm_test_top.env [axi4_vip_env] Scoreboard connected: master_mon.ap -> scb, slave_mon.ap -> scb
# UVM_INFO ../src/env/axi4_vip_env.sv(124) @ 0: uvm_test_top.env [axi4_vip_env] Coverage connected: master_mon.ap -> master_cov, slave_mon.ap -> slave_cov
# UVM_INFO @ 0: reporter [UVMTOP] UVM testbench topology:
# ---------------------------------------------------------------
# Name                       Type                     Size  Value
# ---------------------------------------------------------------
# uvm_test_top               axi4_burst_sweep_test    -     @475 
#   env                      axi4_vip_env             -     @490 
#     master_agent           axi4_master_agent        -     @505 
#       drv                  axi4_master_driver       -     @569 
#         rsp_port           uvm_analysis_port        -     @584 
#         seq_item_port      uvm_seq_item_pull_port   -     @576 
#       mon                  axi4_master_monitor      -     @561 
#         ap                 uvm_analysis_port        -     @702 
#       sqr                  axi4_master_sequencer    -     @592 
#         rsp_export         uvm_analysis_export      -     @599 
#         seq_item_export    uvm_seq_item_pull_imp    -     @693 
#         arbitration_queue  array                    0     -    
#         lock_queue         array                    0     -    
#         num_last_reqs      integral                 32    'd1  
#         num_last_rsps      integral                 32    'd1  
#     master_cov             axi4_coverage            -     @526 
#       analysis_imp         uvm_analysis_imp         -     @533 
#     scb                    axi4_scoreboard          -     @519 
#       master_export        uvm_analysis_imp_master  -     @716 
#       slave_export         uvm_analysis_imp_slave   -     @724 
#     slave_agent            axi4_slave_agent         -     @512 
#       drv                  axi4_slave_driver        -     @755 
#         rsp_port           uvm_analysis_port        -     @770 
#         seq_item_port      uvm_seq_item_pull_port   -     @762 
#       mon                  axi4_slave_monitor       -     @737 
#         ap                 uvm_analysis_port        -     @894 
#       sqr                  axi4_slave_sequencer     -     @778 
#         rsp_export         uvm_analysis_export      -     @785 
#         seq_item_export    uvm_seq_item_pull_imp    -     @879 
#         arbitration_queue  array                    0     -    
#         lock_queue         array                    0     -    
#         num_last_reqs      integral                 32    'd1  
#         num_last_rsps      integral                 32    'd1  
#     slave_cov              axi4_coverage            -     @541 
#       analysis_imp         uvm_analysis_imp         -     @548 
# ---------------------------------------------------------------
# 
# UVM_INFO verilog_src/questa_uvm_pkg-1.2/src/questa_uvm_pkg.sv(277) @ 0: reporter [Questa UVM] End Of Elaboration
# UVM_INFO ../src/test/axi4_burst_sweep_test.sv(24) @ 0: uvm_test_top [axi4_burst_sweep_test] Starting burst parameters sweep test (including error injection)
# UVM_INFO ../src/seq/axi4_burst_sweep_seq.sv(38) @ 0: uvm_test_top.env.master_agent.sqr@@sweep_seq [axi4_burst_sweep_seq] Starting burst type, size, and length sweep sequence
# UVM_INFO ../src/tb_top.sv(49) @ 95000: reporter [TOP_TB] Reset de-asserted
# UVM_INFO ../src/slv/axi4_slave_driver.sv(131) @ 95000: uvm_test_top.env.slave_agent.drv [axi4_slave_driver] Reset deasserted - slave driver active
# UVM_INFO ../src/mst/axi4_master_driver.sv(64) @ 95000: uvm_test_top.env.master_agent.drv [axi4_master_driver] Reset deasserted - master driver active
# UVM_INFO ../src/mst/axi4_master_monitor.sv(77) @ 95000: uvm_test_top.env.master_agent.mon [axi4_master_monitor] Reset deasserted - monitor active
# UVM_INFO ../src/slv/axi4_slave_monitor.sv(71) @ 95000: uvm_test_top.env.slave_agent.mon [axi4_slave_monitor] Reset deasserted - monitor active
# UVM_INFO ../src/mst/axi4_master_driver.sv(73) @ 95000: uvm_test_top.env.master_agent.drv [axi4_master_driver] Driving AXI4_WRITE  ID=0x9  ADDR=0x39cf7f16  LEN=0
# UVM_INFO ../src/mst/axi4_master_driver.sv(73) @ 95000: uvm_test_top.env.master_agent.drv [axi4_master_driver] Driving AXI4_READ  ID=0x6  ADDR=0x859cb5ef  LEN=0
# UVM_INFO ../src/mst/axi4_master_driver.sv(73) @ 95000: uvm_test_top.env.master_agent.drv [axi4_master_driver] Driving AXI4_WRITE  ID=0x5  ADDR=0x3f4e0c2e  LEN=0
# UVM_INFO ../src/mst/axi4_master_driver.sv(73) @ 95000: uvm_test_top.env.master_agent.drv [axi4_master_driver] Driving AXI4_READ  ID=0x9  ADDR=0x108af45a  LEN=0
# UVM_INFO ../src/mst/axi4_master_driver.sv(73) @ 95000: uvm_test_top.env.master_agent.drv [axi4_master_driver] Driving AXI4_WRITE  ID=0x7  ADDR=0x2fb15c31  LEN=0
# UVM_INFO ../src/mst/axi4_master_driver.sv(73) @ 95000: uvm_test_top.env.master_agent.drv [axi4_master_driver] Driving AXI4_READ  ID=0x1  ADDR=0x4aadf185  LEN=0
# UVM_INFO ../src/mst/axi4_master_driver.sv(73) @ 95000: uvm_test_top.env.master_agent.drv [axi4_master_driver] Driving AXI4_WRITE  ID=0x0  ADDR=0xd1b41f88  LEN=1
# UVM_INFO ../src/mst/axi4_master_driver.sv(73) @ 95000: uvm_test_top.env.master_agent.drv [axi4_master_driver] Driving AXI4_READ  ID=0x3  ADDR=0x76a1c9a4  LEN=1
# UVM_INFO ../src/mst/axi4_master_driver.sv(73) @ 95000: uvm_test_top.env.master_agent.drv [axi4_master_driver] Driving AXI4_WRITE  ID=0x5  ADDR=0x45573188  LEN=1
# UVM_INFO ../src/mst/axi4_master_driver.sv(73) @ 95000: uvm_test_top.env.master_agent.drv [axi4_master_driver] Driving AXI4_READ  ID=0x8  ADDR=0xbdc057b0  LEN=1
# UVM_INFO ../src/mst/axi4_master_driver.sv(73) @ 95000: uvm_test_top.env.master_agent.drv [axi4_master_driver] Driving AXI4_WRITE  ID=0x5  ADDR=0x5a4b47fe  LEN=1
# UVM_INFO ../src/mst/axi4_master_driver.sv(73) @ 95000: uvm_test_top.env.master_agent.drv [axi4_master_driver] Driving AXI4_READ  ID=0x1  ADDR=0xd77c4900  LEN=1
# UVM_INFO ../src/mst/axi4_master_driver.sv(73) @ 95000: uvm_test_top.env.master_agent.drv [axi4_master_driver] Driving AXI4_WRITE  ID=0xa  ADDR=0xab155658  LEN=3
# UVM_INFO ../src/mst/axi4_master_driver.sv(73) @ 95000: uvm_test_top.env.master_agent.drv [axi4_master_driver] Driving AXI4_READ  ID=0x9  ADDR=0x90e95d0a  LEN=3
# UVM_INFO ../src/mst/axi4_master_driver.sv(73) @ 95000: uvm_test_top.env.master_agent.drv [axi4_master_driver] Driving AXI4_WRITE  ID=0x6  ADDR=0xa0e15ed8  LEN=3
# UVM_INFO ../src/mst/axi4_master_driver.sv(73) @ 95000: uvm_test_top.env.master_agent.drv [axi4_master_driver] Driving AXI4_READ  ID=0x3  ADDR=0x20ba7a08  LEN=3
# UVM_INFO ../src/mst/axi4_master_driver.sv(73) @ 95000: uvm_test_top.env.master_agent.drv [axi4_master_driver] Driving AXI4_WRITE  ID=0xb  ADDR=0x5868ba17  LEN=3
# UVM_INFO ../src/mst/axi4_master_driver.sv(73) @ 95000: uvm_test_top.env.master_agent.drv [axi4_master_driver] Driving AXI4_READ  ID=0x7  ADDR=0xac545350  LEN=3
# UVM_INFO ../src/mst/axi4_master_driver.sv(73) @ 95000: uvm_test_top.env.master_agent.drv [axi4_master_driver] Driving AXI4_WRITE  ID=0x2  ADDR=0x6589043b  LEN=7
# UVM_INFO ../src/mst/axi4_master_driver.sv(73) @ 95000: uvm_test_top.env.master_agent.drv [axi4_master_driver] Driving AXI4_READ  ID=0x8  ADDR=0x7924e0d7  LEN=7
# UVM_INFO ../src/mst/axi4_master_driver.sv(73) @ 95000: uvm_test_top.env.master_agent.drv [axi4_master_driver] Driving AXI4_WRITE  ID=0xc  ADDR=0xd5281b50  LEN=7
# UVM_INFO ../src/mst/axi4_master_driver.sv(73) @ 95000: uvm_test_top.env.master_agent.drv [axi4_master_driver] Driving AXI4_READ  ID=0x7  ADDR=0x018d4391  LEN=7
# UVM_INFO ../src/mst/axi4_master_driver.sv(73) @ 95000: uvm_test_top.env.master_agent.drv [axi4_master_driver] Driving AXI4_WRITE  ID=0xc  ADDR=0x96dc3394  LEN=7
# UVM_INFO ../src/mst/axi4_master_driver.sv(73) @ 95000: uvm_test_top.env.master_agent.drv [axi4_master_driver] Driving AXI4_READ  ID=0xf  ADDR=0x1589e83d  LEN=7
# UVM_INFO ../src/mst/axi4_master_driver.sv(73) @ 95000: uvm_test_top.env.master_agent.drv [axi4_master_driver] Driving AXI4_WRITE  ID=0xa  ADDR=0xa5430514  LEN=15
# UVM_INFO ../src/mst/axi4_master_driver.sv(73) @ 95000: uvm_test_top.env.master_agent.drv [axi4_master_driver] Driving AXI4_READ  ID=0x3  ADDR=0x1bd73669  LEN=15
# UVM_INFO ../src/mst/axi4_master_driver.sv(73) @ 95000: uvm_test_top.env.master_agent.drv [axi4_master_driver] Driving AXI4_WRITE  ID=0x3  ADDR=0x12ffece9  LEN=15
# UVM_INFO ../src/mst/axi4_master_driver.sv(73) @ 95000: uvm_test_top.env.master_agent.drv [axi4_master_driver] Driving AXI4_READ  ID=0x0  ADDR=0xbc721387  LEN=15
# UVM_INFO ../src/mst/axi4_master_driver.sv(73) @ 95000: uvm_test_top.env.master_agent.drv [axi4_master_driver] Driving AXI4_WRITE  ID=0x6  ADDR=0x8090bb00  LEN=15
# UVM_INFO ../src/mst/axi4_master_driver.sv(73) @ 95000: uvm_test_top.env.master_agent.drv [axi4_master_driver] Driving AXI4_READ  ID=0xe  ADDR=0xac552c14  LEN=15
# UVM_INFO ../src/mst/axi4_master_driver.sv(73) @ 95000: uvm_test_top.env.master_agent.drv [axi4_master_driver] Driving AXI4_WRITE  ID=0x3  ADDR=0x611e79dc  LEN=1
# UVM_INFO ../src/mst/axi4_master_driver.sv(73) @ 95000: uvm_test_top.env.master_agent.drv [axi4_master_driver] Driving AXI4_READ  ID=0x3  ADDR=0x096b636e  LEN=1
# UVM_INFO ../src/mst/axi4_master_driver.sv(73) @ 95000: uvm_test_top.env.master_agent.drv [axi4_master_driver] Driving AXI4_WRITE  ID=0x1  ADDR=0x40ab05b6  LEN=1
# UVM_INFO ../src/mst/axi4_master_driver.sv(73) @ 95000: uvm_test_top.env.master_agent.drv [axi4_master_driver] Driving AXI4_READ  ID=0x6  ADDR=0x72920b18  LEN=1
# UVM_INFO ../src/mst/axi4_master_driver.sv(73) @ 95000: uvm_test_top.env.master_agent.drv [axi4_master_driver] Driving AXI4_WRITE  ID=0x5  ADDR=0x58be2220  LEN=1
# UVM_INFO ../src/mst/axi4_master_driver.sv(73) @ 95000: uvm_test_top.env.master_agent.drv [axi4_master_driver] Driving AXI4_READ  ID=0x8  ADDR=0x1c81dbd8  LEN=1
# UVM_INFO ../src/mst/axi4_master_driver.sv(73) @ 95000: uvm_test_top.env.master_agent.drv [axi4_master_driver] Driving AXI4_WRITE  ID=0x4  ADDR=0x234b26be  LEN=3
# UVM_INFO ../src/mst/axi4_master_driver.sv(73) @ 95000: uvm_test_top.env.master_agent.drv [axi4_master_driver] Driving AXI4_READ  ID=0xf  ADDR=0x64572d73  LEN=3
# UVM_INFO ../src/mst/axi4_master_driver.sv(73) @ 95000: uvm_test_top.env.master_agent.drv [axi4_master_driver] Driving AXI4_WRITE  ID=0xf  ADDR=0x7b30a8b4  LEN=3
# UVM_INFO ../src/mst/axi4_master_driver.sv(73) @ 95000: uvm_test_top.env.master_agent.drv [axi4_master_driver] Driving AXI4_READ  ID=0xa  ADDR=0x21f864d2  LEN=3
# UVM_INFO ../src/mst/axi4_master_driver.sv(73) @ 95000: uvm_test_top.env.master_agent.drv [axi4_master_driver] Driving AXI4_WRITE  ID=0x3  ADDR=0xaa89f12c  LEN=3
# UVM_INFO ../src/mst/axi4_master_driver.sv(73) @ 95000: uvm_test_top.env.master_agent.drv [axi4_master_driver] Driving AXI4_READ  ID=0xb  ADDR=0x88c9c538  LEN=3
# UVM_INFO ../src/mst/axi4_master_driver.sv(73) @ 95000: uvm_test_top.env.master_agent.drv [axi4_master_driver] Driving AXI4_WRITE  ID=0xc  ADDR=0x322aa659  LEN=7
# UVM_INFO ../src/mst/axi4_master_driver.sv(73) @ 95000: uvm_test_top.env.master_agent.drv [axi4_master_driver] Driving AXI4_READ  ID=0xc  ADDR=0xbca2b32b  LEN=7
# UVM_INFO ../src/mst/axi4_master_driver.sv(73) @ 95000: uvm_test_top.env.master_agent.drv [axi4_master_driver] Driving AXI4_WRITE  ID=0x3  ADDR=0x4a042166  LEN=7
# UVM_INFO ../src/mst/axi4_master_driver.sv(73) @ 95000: uvm_test_top.env.master_agent.drv [axi4_master_driver] Driving AXI4_READ  ID=0x2  ADDR=0xb15e2564  LEN=7
# UVM_INFO ../src/mst/axi4_master_driver.sv(73) @ 95000: uvm_test_top.env.master_agent.drv [axi4_master_driver] Driving AXI4_WRITE  ID=0xc  ADDR=0xd3c51b34  LEN=7
# UVM_INFO ../src/mst/axi4_master_driver.sv(73) @ 95000: uvm_test_top.env.master_agent.drv [axi4_master_driver] Driving AXI4_READ  ID=0xd  ADDR=0x9fdf15c0  LEN=7
# UVM_INFO ../src/mst/axi4_master_driver.sv(73) @ 95000: uvm_test_top.env.master_agent.drv [axi4_master_driver] Driving AXI4_WRITE  ID=0x3  ADDR=0x12d0e450  LEN=15
# UVM_INFO ../src/mst/axi4_master_driver.sv(73) @ 95000: uvm_test_top.env.master_agent.drv [axi4_master_driver] Driving AXI4_READ  ID=0xe  ADDR=0x1163bd30  LEN=15
# UVM_INFO ../src/mst/axi4_master_driver.sv(73) @ 95000: uvm_test_top.env.master_agent.drv [axi4_master_driver] Driving AXI4_WRITE  ID=0x0  ADDR=0x0aaf88cc  LEN=15
# UVM_INFO ../src/mst/axi4_master_driver.sv(73) @ 95000: uvm_test_top.env.master_agent.drv [axi4_master_driver] Driving AXI4_READ  ID=0x9  ADDR=0x2915b736  LEN=15
# UVM_INFO ../src/mst/axi4_master_driver.sv(73) @ 95000: uvm_test_top.env.master_agent.drv [axi4_master_driver] Driving AXI4_WRITE  ID=0xf  ADDR=0xddcd266c  LEN=15
# UVM_INFO ../src/mst/axi4_master_driver.sv(73) @ 95000: uvm_test_top.env.master_agent.drv [axi4_master_driver] Driving AXI4_READ  ID=0xe  ADDR=0xd63a1b80  LEN=15
# UVM_INFO ../src/mst/axi4_master_driver.sv(73) @ 95000: uvm_test_top.env.master_agent.drv [axi4_master_driver] Driving AXI4_WRITE  ID=0xc  ADDR=0x555f9cc6  LEN=0
# UVM_INFO ../src/mst/axi4_master_driver.sv(73) @ 95000: uvm_test_top.env.master_agent.drv [axi4_master_driver] Driving AXI4_READ  ID=0xb  ADDR=0x4af68691  LEN=0
# UVM_INFO ../src/mst/axi4_master_driver.sv(73) @ 95000: uvm_test_top.env.master_agent.drv [axi4_master_driver] Driving AXI4_WRITE  ID=0x3  ADDR=0x48f7fd28  LEN=0
# UVM_INFO ../src/mst/axi4_master_driver.sv(73) @ 95000: uvm_test_top.env.master_agent.drv [axi4_master_driver] Driving AXI4_READ  ID=0xc  ADDR=0xbb269618  LEN=0
# UVM_INFO ../src/mst/axi4_master_driver.sv(73) @ 95000: uvm_test_top.env.master_agent.drv [axi4_master_driver] Driving AXI4_WRITE  ID=0x9  ADDR=0x774feccf  LEN=0
# UVM_INFO ../src/mst/axi4_master_driver.sv(73) @ 95000: uvm_test_top.env.master_agent.drv [axi4_master_driver] Driving AXI4_READ  ID=0xe  ADDR=0xce4e4a8e  LEN=0
# UVM_INFO ../src/mst/axi4_master_driver.sv(73) @ 95000: uvm_test_top.env.master_agent.drv [axi4_master_driver] Driving AXI4_WRITE  ID=0x0  ADDR=0x81747348  LEN=2
# UVM_INFO ../src/mst/axi4_master_driver.sv(73) @ 95000: uvm_test_top.env.master_agent.drv [axi4_master_driver] Driving AXI4_READ  ID=0xb  ADDR=0x4bb1bb81  LEN=2
# UVM_INFO ../src/mst/axi4_master_driver.sv(73) @ 95000: uvm_test_top.env.master_agent.drv [axi4_master_driver] Driving AXI4_WRITE  ID=0xd  ADDR=0x301e55ad  LEN=2
# UVM_INFO ../src/mst/axi4_master_driver.sv(73) @ 95000: uvm_test_top.env.master_agent.drv [axi4_master_driver] Driving AXI4_READ  ID=0x7  ADDR=0x4ad1792d  LEN=2
# UVM_INFO ../src/mst/axi4_master_driver.sv(73) @ 95000: uvm_test_top.env.master_agent.drv [axi4_master_driver] Driving AXI4_WRITE  ID=0x8  ADDR=0x703cb006  LEN=2
# UVM_INFO ../src/mst/axi4_master_driver.sv(73) @ 95000: uvm_test_top.env.master_agent.drv [axi4_master_driver] Driving AXI4_READ  ID=0xf  ADDR=0x3a94fc1b  LEN=2
# UVM_INFO ../src/mst/axi4_master_driver.sv(73) @ 95000: uvm_test_top.env.master_agent.drv [axi4_master_driver] Driving AXI4_WRITE  ID=0xd  ADDR=0xd9ac5c41  LEN=10
# UVM_INFO ../src/mst/axi4_master_driver.sv(73) @ 95000: uvm_test_top.env.master_agent.drv [axi4_master_driver] Driving AXI4_READ  ID=0x7  ADDR=0x7f2f88a9  LEN=10
# UVM_INFO ../src/mst/axi4_master_driver.sv(73) @ 95000: uvm_test_top.env.master_agent.drv [axi4_master_driver] Driving AXI4_WRITE  ID=0x7  ADDR=0xb504d3e3  LEN=10
# UVM_INFO ../src/mst/axi4_master_driver.sv(73) @ 95000: uvm_test_top.env.master_agent.drv [axi4_master_driver] Driving AXI4_READ  ID=0xd  ADDR=0xceb36052  LEN=10
# UVM_INFO ../src/mst/axi4_master_driver.sv(73) @ 95000: uvm_test_top.env.master_agent.drv [axi4_master_driver] Driving AXI4_WRITE  ID=0xa  ADDR=0x1b4d5cba  LEN=10
# UVM_INFO ../src/mst/axi4_master_driver.sv(73) @ 95000: uvm_test_top.env.master_agent.drv [axi4_master_driver] Driving AXI4_READ  ID=0x3  ADDR=0x24d4047d  LEN=10
# UVM_INFO ../src/mst/axi4_master_driver.sv(73) @ 95000: uvm_test_top.env.master_agent.drv [axi4_master_driver] Driving AXI4_WRITE  ID=0x7  ADDR=0x6924a2a9  LEN=32
# UVM_INFO ../src/mst/axi4_master_driver.sv(73) @ 95000: uvm_test_top.env.master_agent.drv [axi4_master_driver] Driving AXI4_READ  ID=0x8  ADDR=0x4969f61b  LEN=32
# UVM_INFO ../src/mst/axi4_master_driver.sv(73) @ 95000: uvm_test_top.env.master_agent.drv [axi4_master_driver] Driving AXI4_WRITE  ID=0xc  ADDR=0x9c95fda2  LEN=32
# UVM_INFO ../src/mst/axi4_master_driver.sv(73) @ 95000: uvm_test_top.env.master_agent.drv [axi4_master_driver] Driving AXI4_READ  ID=0xf  ADDR=0x9f4a3a8f  LEN=32
# UVM_INFO ../src/mst/axi4_master_driver.sv(73) @ 95000: uvm_test_top.env.master_agent.drv [axi4_master_driver] Driving AXI4_WRITE  ID=0x7  ADDR=0x339e990d  LEN=32
# UVM_INFO ../src/mst/axi4_master_driver.sv(73) @ 95000: uvm_test_top.env.master_agent.drv [axi4_master_driver] Driving AXI4_READ  ID=0xc  ADDR=0x83c775b8  LEN=32
# UVM_INFO ../src/mst/axi4_master_driver.sv(73) @ 95000: uvm_test_top.env.master_agent.drv [axi4_master_driver] Driving AXI4_WRITE  ID=0x3  ADDR=0x160544cd  LEN=100
# UVM_INFO ../src/mst/axi4_master_driver.sv(73) @ 95000: uvm_test_top.env.master_agent.drv [axi4_master_driver] Driving AXI4_READ  ID=0xe  ADDR=0x8c67d0a4  LEN=100
# UVM_INFO ../src/mst/axi4_master_driver.sv(73) @ 95000: uvm_test_top.env.master_agent.drv [axi4_master_driver] Driving AXI4_WRITE  ID=0x3  ADDR=0x303a3f2c  LEN=100
# UVM_INFO ../src/mst/axi4_master_driver.sv(73) @ 95000: uvm_test_top.env.master_agent.drv [axi4_master_driver] Driving AXI4_READ  ID=0xc  ADDR=0x549d4856  LEN=100
# UVM_INFO ../src/mst/axi4_master_driver.sv(73) @ 95000: uvm_test_top.env.master_agent.drv [axi4_master_driver] Driving AXI4_WRITE  ID=0x1  ADDR=0xc52d47b8  LEN=100
# UVM_INFO ../src/mst/axi4_master_driver.sv(73) @ 95000: uvm_test_top.env.master_agent.drv [axi4_master_driver] Driving AXI4_READ  ID=0xa  ADDR=0x89a353b3  LEN=100
# UVM_INFO ../src/mst/axi4_master_driver.sv(73) @ 95000: uvm_test_top.env.master_agent.drv [axi4_master_driver] Driving AXI4_WRITE  ID=0x2  ADDR=0x9b8f8a88  LEN=255
# UVM_INFO ../src/mst/axi4_master_driver.sv(73) @ 95000: uvm_test_top.env.master_agent.drv [axi4_master_driver] Driving AXI4_READ  ID=0xa  ADDR=0xd3ca0ed4  LEN=255
# UVM_INFO ../src/mst/axi4_master_driver.sv(73) @ 95000: uvm_test_top.env.master_agent.drv [axi4_master_driver] Driving AXI4_WRITE  ID=0xe  ADDR=0x8a6a9626  LEN=255
# UVM_INFO ../src/mst/axi4_master_driver.sv(73) @ 95000: uvm_test_top.env.master_agent.drv [axi4_master_driver] Driving AXI4_READ  ID=0xd  ADDR=0x39f40745  LEN=255
# UVM_INFO ../src/mst/axi4_master_driver.sv(73) @ 95000: uvm_test_top.env.master_agent.drv [axi4_master_driver] Driving AXI4_WRITE  ID=0xe  ADDR=0xc3db0b57  LEN=255
# UVM_INFO ../src/mst/axi4_master_driver.sv(73) @ 95000: uvm_test_top.env.master_agent.drv [axi4_master_driver] Driving AXI4_READ  ID=0x2  ADDR=0x2ee8c6a2  LEN=255
# UVM_INFO ../src/mst/axi4_master_driver.sv(73) @ 95000: uvm_test_top.env.master_agent.drv [axi4_master_driver] Driving AXI4_WRITE  ID=0x7  ADDR=0xe0000000  LEN=0
# UVM_INFO ../src/mst/axi4_master_driver.sv(73) @ 95000: uvm_test_top.env.master_agent.drv [axi4_master_driver] Driving AXI4_READ  ID=0x9  ADDR=0xe0000000  LEN=0
# UVM_INFO ../src/mst/axi4_master_driver.sv(73) @ 95000: uvm_test_top.env.master_agent.drv [axi4_master_driver] Driving AXI4_WRITE  ID=0xa  ADDR=0xf0000000  LEN=0
# UVM_INFO ../src/mst/axi4_master_driver.sv(73) @ 95000: uvm_test_top.env.master_agent.drv [axi4_master_driver] Driving AXI4_READ  ID=0x0  ADDR=0xf0000000  LEN=0
# UVM_INFO ../src/seq/axi4_burst_sweep_seq.sv(173) @ 95000: uvm_test_top.env.master_agent.sqr@@sweep_seq [axi4_burst_sweep_seq] Burst sweep sequence complete: sent 94 transactions
# UVM_INFO ../src/slv/axi4_slave_driver.sv(386) @ 115000: uvm_test_top.env.slave_agent.drv [axi4_slave_driver] AR received: ID=0x6 ADDR=0x859cb5ef LEN=0 LOCK=AXI4_LOCK_EXCLUSIVE
# UVM_INFO ../src/slv/axi4_slave_driver.sv(228) @ 115000: uvm_test_top.env.slave_agent.drv [axi4_slave_driver] AW received: ID=0x9 ADDR=0x39cf7f16 LEN=0 LOCK=AXI4_LOCK_EXCLUSIVE
# UVM_INFO ../src/slv/axi4_slave_monitor.sv(224) @ 115000: uvm_test_top.env.slave_agent.mon [axi4_slave_monitor] AR received: ID=0x6 ADDR=0x859cb5ef LEN=0
# UVM_INFO ../src/slv/axi4_slave_monitor.sv(116) @ 115000: uvm_test_top.env.slave_agent.mon [axi4_slave_monitor] AW received: ID=0x9 ADDR=0x39cf7f16 LEN=0
# UVM_INFO ../src/mst/axi4_master_monitor.sv(246) @ 115000: uvm_test_top.env.master_agent.mon [axi4_master_monitor] AR observed: ID=0x6 ADDR=0x859cb5ef LEN=0
# UVM_INFO ../src/mst/axi4_master_monitor.sv(124) @ 115000: uvm_test_top.env.master_agent.mon [axi4_master_monitor] AW observed: ID=0x9 ADDR=0x39cf7f16 LEN=0
# UVM_INFO ../src/slv/axi4_slave_monitor.sv(167) @ 115000: uvm_test_top.env.slave_agent.mon [axi4_slave_monitor] W data assembled: ID=0x9 ADDR=0x39cf7f16 1 beats
# UVM_INFO ../src/mst/axi4_master_monitor.sv(184) @ 115000: uvm_test_top.env.master_agent.mon [axi4_master_monitor] W data assembled: ID=0x9 ADDR=0x39cf7f16 1 beats
# UVM_INFO ../src/mst/axi4_master_driver.sv(348) @ 135000: uvm_test_top.env.master_agent.drv [axi4_master_driver] Master driver received all R beats for ID=0x6
# UVM_INFO ../src/mst/axi4_master_driver.sv(289) @ 135000: uvm_test_top.env.master_agent.drv [axi4_master_driver] Master driver received B response: ID=0x9 RESP=AXI4_RESP_OKAY
# UVM_INFO ../src/slv/axi4_slave_driver.sv(501) @ 135000: uvm_test_top.env.slave_agent.drv [axi4_slave_driver] Read complete: ID=0x6 ADDR=0x859cb5ef RESP=AXI4_RESP_EXOKAY  1 beats sent
# UVM_INFO ../src/slv/axi4_slave_driver.sv(348) @ 135000: uvm_test_top.env.slave_agent.drv [axi4_slave_driver] Write complete: ID=0x9 RESP=AXI4_RESP_OKAY
# UVM_INFO ../src/slv/axi4_slave_monitor.sv(287) @ 135000: uvm_test_top.env.slave_agent.mon [axi4_slave_monitor] Read data sent: ID=0x6 ADDR=0x859cb5ef 1 beats
# UVM_INFO ../src/env/axi4_scoreboard.sv(108) @ 135000: uvm_test_top.env.scb [axi4_scoreboard] Slave AXI4_READ received: ID=0x6 ADDR=0x859cb5ef LEN=0
# UVM_INFO ../src/slv/axi4_slave_monitor.sv(189) @ 135000: uvm_test_top.env.slave_agent.mon [axi4_slave_monitor] Write response sent: ID=0x9 ADDR=0x39cf7f16 RESP=AXI4_RESP_OKAY
# UVM_INFO ../src/env/axi4_scoreboard.sv(108) @ 135000: uvm_test_top.env.scb [axi4_scoreboard] Slave AXI4_WRITE received: ID=0x9 ADDR=0x39cf7f16 LEN=0
# UVM_INFO ../src/mst/axi4_master_monitor.sv(314) @ 135000: uvm_test_top.env.master_agent.mon [axi4_master_monitor] Read complete: ID=0x6 ADDR=0x859cb5ef 1 beats
# UVM_INFO ../src/env/axi4_scoreboard.sv(87) @ 135000: uvm_test_top.env.scb [axi4_scoreboard] Master AXI4_READ received: ID=0x6 ADDR=0x859cb5ef LEN=0
# UVM_INFO ../src/env/axi4_scoreboard.sv(291) @ 135000: uvm_test_top.env.scb [axi4_scoreboard] [READ] MATCH #1: ID=0x6 ADDR=0x859cb5ef LEN=0
# UVM_INFO ../src/mst/axi4_master_monitor.sv(210) @ 135000: uvm_test_top.env.master_agent.mon [axi4_master_monitor] Write complete: ID=0x9 ADDR=0x39cf7f16 RESP=AXI4_RESP_OKAY
# UVM_INFO ../src/env/axi4_scoreboard.sv(87) @ 135000: uvm_test_top.env.scb [axi4_scoreboard] Master AXI4_WRITE received: ID=0x9 ADDR=0x39cf7f16 LEN=0
# UVM_INFO ../src/env/axi4_scoreboard.sv(291) @ 135000: uvm_test_top.env.scb [axi4_scoreboard] [WRITE] MATCH #2: ID=0x9 ADDR=0x39cf7f16 LEN=0
# UVM_INFO ../src/env/axi4_scoreboard.sv(226) @ 135000: uvm_test_top.env.scb [axi4_scoreboard] [REF_MEM_WRITE_IGNORED] Write ignored for ADDR=0x39cf7f16 LOCK=AXI4_LOCK_EXCLUSIVE RESP=AXI4_RESP_OKAY
# UVM_INFO ../src/slv/axi4_slave_driver.sv(386) @ 145000: uvm_test_top.env.slave_agent.drv [axi4_slave_driver] AR received: ID=0x9 ADDR=0x108af45a LEN=0 LOCK=AXI4_LOCK_NORMAL
# UVM_INFO ../src/mst/axi4_master_monitor.sv(246) @ 145000: uvm_test_top.env.master_agent.mon [axi4_master_monitor] AR observed: ID=0x9 ADDR=0x108af45a LEN=0
# UVM_INFO ../src/slv/axi4_slave_monitor.sv(224) @ 145000: uvm_test_top.env.slave_agent.mon [axi4_slave_monitor] AR received: ID=0x9 ADDR=0x108af45a LEN=0
# UVM_INFO ../src/mst/axi4_master_driver.sv(348) @ 165000: uvm_test_top.env.master_agent.drv [axi4_master_driver] Master driver received all R beats for ID=0x9
# UVM_INFO ../src/slv/axi4_slave_driver.sv(228) @ 165000: uvm_test_top.env.slave_agent.drv [axi4_slave_driver] AW received: ID=0x5 ADDR=0x3f4e0c2e LEN=0 LOCK=AXI4_LOCK_EXCLUSIVE
# UVM_INFO ../src/slv/axi4_slave_driver.sv(501) @ 165000: uvm_test_top.env.slave_agent.drv [axi4_slave_driver] Read complete: ID=0x9 ADDR=0x108af45a RESP=AXI4_RESP_OKAY  1 beats sent
# UVM_INFO ../src/mst/axi4_master_monitor.sv(124) @ 165000: uvm_test_top.env.master_agent.mon [axi4_master_monitor] AW observed: ID=0x5 ADDR=0x3f4e0c2e LEN=0
# UVM_INFO ../src/mst/axi4_master_monitor.sv(314) @ 165000: uvm_test_top.env.master_agent.mon [axi4_master_monitor] Read complete: ID=0x9 ADDR=0x108af45a 1 beats
# UVM_INFO ../src/env/axi4_scoreboard.sv(87) @ 165000: uvm_test_top.env.scb [axi4_scoreboard] Master AXI4_READ received: ID=0x9 ADDR=0x108af45a LEN=0
# UVM_INFO ../src/slv/axi4_slave_monitor.sv(116) @ 165000: uvm_test_top.env.slave_agent.mon [axi4_slave_monitor] AW received: ID=0x5 ADDR=0x3f4e0c2e LEN=0
# UVM_INFO ../src/slv/axi4_slave_monitor.sv(287) @ 165000: uvm_test_top.env.slave_agent.mon [axi4_slave_monitor] Read data sent: ID=0x9 ADDR=0x108af45a 1 beats
# UVM_INFO ../src/env/axi4_scoreboard.sv(108) @ 165000: uvm_test_top.env.scb [axi4_scoreboard] Slave AXI4_READ received: ID=0x9 ADDR=0x108af45a LEN=0
# UVM_INFO ../src/env/axi4_scoreboard.sv(291) @ 165000: uvm_test_top.env.scb [axi4_scoreboard] [READ] MATCH #3: ID=0x9 ADDR=0x108af45a LEN=0
# UVM_INFO ../src/mst/axi4_master_monitor.sv(184) @ 165000: uvm_test_top.env.master_agent.mon [axi4_master_monitor] W data assembled: ID=0x5 ADDR=0x3f4e0c2e 1 beats
# UVM_INFO ../src/slv/axi4_slave_monitor.sv(167) @ 165000: uvm_test_top.env.slave_agent.mon [axi4_slave_monitor] W data assembled: ID=0x5 ADDR=0x3f4e0c2e 1 beats
# UVM_INFO ../src/slv/axi4_slave_driver.sv(386) @ 175000: uvm_test_top.env.slave_agent.drv [axi4_slave_driver] AR received: ID=0x1 ADDR=0x4aadf185 LEN=0 LOCK=AXI4_LOCK_NORMAL
# UVM_INFO ../src/slv/axi4_slave_monitor.sv(224) @ 175000: uvm_test_top.env.slave_agent.mon [axi4_slave_monitor] AR received: ID=0x1 ADDR=0x4aadf185 LEN=0
# UVM_INFO ../src/mst/axi4_master_monitor.sv(246) @ 175000: uvm_test_top.env.master_agent.mon [axi4_master_monitor] AR observed: ID=0x1 ADDR=0x4aadf185 LEN=0
# UVM_INFO ../src/mst/axi4_master_driver.sv(289) @ 185000: uvm_test_top.env.master_agent.drv [axi4_master_driver] Master driver received B response: ID=0x5 RESP=AXI4_RESP_OKAY
# UVM_INFO ../src/slv/axi4_slave_driver.sv(348) @ 185000: uvm_test_top.env.slave_agent.drv [axi4_slave_driver] Write complete: ID=0x5 RESP=AXI4_RESP_OKAY
# UVM_INFO ../src/mst/axi4_master_monitor.sv(210) @ 185000: uvm_test_top.env.master_agent.mon [axi4_master_monitor] Write complete: ID=0x5 ADDR=0x3f4e0c2e RESP=AXI4_RESP_OKAY
# UVM_INFO ../src/env/axi4_scoreboard.sv(87) @ 185000: uvm_test_top.env.scb [axi4_scoreboard] Master AXI4_WRITE received: ID=0x5 ADDR=0x3f4e0c2e LEN=0
# UVM_INFO ../src/slv/axi4_slave_monitor.sv(189) @ 185000: uvm_test_top.env.slave_agent.mon [axi4_slave_monitor] Write response sent: ID=0x5 ADDR=0x3f4e0c2e RESP=AXI4_RESP_OKAY
# UVM_INFO ../src/env/axi4_scoreboard.sv(108) @ 185000: uvm_test_top.env.scb [axi4_scoreboard] Slave AXI4_WRITE received: ID=0x5 ADDR=0x3f4e0c2e LEN=0
# UVM_INFO ../src/env/axi4_scoreboard.sv(291) @ 185000: uvm_test_top.env.scb [axi4_scoreboard] [WRITE] MATCH #4: ID=0x5 ADDR=0x3f4e0c2e LEN=0
# UVM_INFO ../src/env/axi4_scoreboard.sv(226) @ 185000: uvm_test_top.env.scb [axi4_scoreboard] [REF_MEM_WRITE_IGNORED] Write ignored for ADDR=0x3f4e0c2e LOCK=AXI4_LOCK_EXCLUSIVE RESP=AXI4_RESP_OKAY
# UVM_INFO ../src/mst/axi4_master_driver.sv(348) @ 195000: uvm_test_top.env.master_agent.drv [axi4_master_driver] Master driver received all R beats for ID=0x1
# UVM_INFO ../src/slv/axi4_slave_driver.sv(228) @ 195000: uvm_test_top.env.slave_agent.drv [axi4_slave_driver] AW received: ID=0x7 ADDR=0x2fb15c31 LEN=0 LOCK=AXI4_LOCK_NORMAL
# UVM_INFO ../src/slv/axi4_slave_driver.sv(501) @ 195000: uvm_test_top.env.slave_agent.drv [axi4_slave_driver] Read complete: ID=0x1 ADDR=0x4aadf185 RESP=AXI4_RESP_OKAY  1 beats sent
# UVM_INFO ../src/slv/axi4_slave_monitor.sv(287) @ 195000: uvm_test_top.env.slave_agent.mon [axi4_slave_monitor] Read data sent: ID=0x1 ADDR=0x4aadf185 1 beats
# UVM_INFO ../src/env/axi4_scoreboard.sv(108) @ 195000: uvm_test_top.env.scb [axi4_scoreboard] Slave AXI4_READ received: ID=0x1 ADDR=0x4aadf185 LEN=0
# UVM_INFO ../src/slv/axi4_slave_monitor.sv(116) @ 195000: uvm_test_top.env.slave_agent.mon [axi4_slave_monitor] AW received: ID=0x7 ADDR=0x2fb15c31 LEN=0
# UVM_INFO ../src/mst/axi4_master_monitor.sv(314) @ 195000: uvm_test_top.env.master_agent.mon [axi4_master_monitor] Read complete: ID=0x1 ADDR=0x4aadf185 1 beats
# UVM_INFO ../src/env/axi4_scoreboard.sv(87) @ 195000: uvm_test_top.env.scb [axi4_scoreboard] Master AXI4_READ received: ID=0x1 ADDR=0x4aadf185 LEN=0
# UVM_INFO ../src/env/axi4_scoreboard.sv(291) @ 195000: uvm_test_top.env.scb [axi4_scoreboard] [READ] MATCH #5: ID=0x1 ADDR=0x4aadf185 LEN=0
# UVM_INFO ../src/mst/axi4_master_monitor.sv(124) @ 195000: uvm_test_top.env.master_agent.mon [axi4_master_monitor] AW observed: ID=0x7 ADDR=0x2fb15c31 LEN=0
# UVM_INFO ../src/slv/axi4_slave_monitor.sv(167) @ 195000: uvm_test_top.env.slave_agent.mon [axi4_slave_monitor] W data assembled: ID=0x7 ADDR=0x2fb15c31 1 beats
# UVM_INFO ../src/mst/axi4_master_monitor.sv(184) @ 195000: uvm_test_top.env.master_agent.mon [axi4_master_monitor] W data assembled: ID=0x7 ADDR=0x2fb15c31 1 beats
# UVM_INFO ../src/slv/axi4_slave_driver.sv(386) @ 205000: uvm_test_top.env.slave_agent.drv [axi4_slave_driver] AR received: ID=0x3 ADDR=0x76a1c9a4 LEN=1 LOCK=AXI4_LOCK_EXCLUSIVE
# UVM_INFO ../src/mst/axi4_master_monitor.sv(246) @ 205000: uvm_test_top.env.master_agent.mon [axi4_master_monitor] AR observed: ID=0x3 ADDR=0x76a1c9a4 LEN=1
# UVM_INFO ../src/slv/axi4_slave_monitor.sv(224) @ 205000: uvm_test_top.env.slave_agent.mon [axi4_slave_monitor] AR received: ID=0x3 ADDR=0x76a1c9a4 LEN=1
# UVM_INFO ../src/mst/axi4_master_driver.sv(289) @ 215000: uvm_test_top.env.master_agent.drv [axi4_master_driver] Master driver received B response: ID=0x7 RESP=AXI4_RESP_OKAY
# UVM_INFO ../src/slv/axi4_slave_driver.sv(348) @ 215000: uvm_test_top.env.slave_agent.drv [axi4_slave_driver] Write complete: ID=0x7 RESP=AXI4_RESP_OKAY
# UVM_INFO ../src/slv/axi4_slave_monitor.sv(189) @ 215000: uvm_test_top.env.slave_agent.mon [axi4_slave_monitor] Write response sent: ID=0x7 ADDR=0x2fb15c31 RESP=AXI4_RESP_OKAY
# UVM_INFO ../src/env/axi4_scoreboard.sv(108) @ 215000: uvm_test_top.env.scb [axi4_scoreboard] Slave AXI4_WRITE received: ID=0x7 ADDR=0x2fb15c31 LEN=0
# UVM_INFO ../src/mst/axi4_master_monitor.sv(210) @ 215000: uvm_test_top.env.master_agent.mon [axi4_master_monitor] Write complete: ID=0x7 ADDR=0x2fb15c31 RESP=AXI4_RESP_OKAY
# UVM_INFO ../src/env/axi4_scoreboard.sv(87) @ 215000: uvm_test_top.env.scb [axi4_scoreboard] Master AXI4_WRITE received: ID=0x7 ADDR=0x2fb15c31 LEN=0
# UVM_INFO ../src/env/axi4_scoreboard.sv(291) @ 215000: uvm_test_top.env.scb [axi4_scoreboard] [WRITE] MATCH #6: ID=0x7 ADDR=0x2fb15c31 LEN=0
# UVM_INFO ../src/env/axi4_scoreboard.sv(219) @ 215000: uvm_test_top.env.scb [axi4_scoreboard] [REF_MEM_WRITE] Addr=0x2fb15c32 Data=0x63
# UVM_INFO ../src/env/axi4_scoreboard.sv(219) @ 215000: uvm_test_top.env.scb [axi4_scoreboard] [REF_MEM_WRITE] Addr=0x2fb15c33 Data=0xdb
# UVM_INFO ../src/slv/axi4_slave_driver.sv(228) @ 225000: uvm_test_top.env.slave_agent.drv [axi4_slave_driver] AW received: ID=0x0 ADDR=0xd1b41f88 LEN=1 LOCK=AXI4_LOCK_NORMAL
# UVM_INFO ../src/mst/axi4_master_monitor.sv(124) @ 225000: uvm_test_top.env.master_agent.mon [axi4_master_monitor] AW observed: ID=0x0 ADDR=0xd1b41f88 LEN=1
# UVM_INFO ../src/slv/axi4_slave_monitor.sv(116) @ 225000: uvm_test_top.env.slave_agent.mon [axi4_slave_monitor] AW received: ID=0x0 ADDR=0xd1b41f88 LEN=1
# UVM_INFO ../src/mst/axi4_master_monitor.sv(184) @ 225000: uvm_test_top.env.master_agent.mon [axi4_master_monitor] W data assembled: ID=0x0 ADDR=0xd1b41f88 2 beats
# UVM_INFO ../src/slv/axi4_slave_monitor.sv(167) @ 225000: uvm_test_top.env.slave_agent.mon [axi4_slave_monitor] W data assembled: ID=0x0 ADDR=0xd1b41f88 2 beats
# UVM_INFO ../src/slv/axi4_slave_driver.sv(386) @ 235000: uvm_test_top.env.slave_agent.drv [axi4_slave_driver] AR received: ID=0x8 ADDR=0xbdc057b0 LEN=1 LOCK=AXI4_LOCK_EXCLUSIVE
# UVM_INFO ../src/slv/axi4_slave_monitor.sv(224) @ 235000: uvm_test_top.env.slave_agent.mon [axi4_slave_monitor] AR received: ID=0x8 ADDR=0xbdc057b0 LEN=1
# UVM_INFO ../src/mst/axi4_master_monitor.sv(246) @ 235000: uvm_test_top.env.master_agent.mon [axi4_master_monitor] AR observed: ID=0x8 ADDR=0xbdc057b0 LEN=1
# UVM_INFO ../src/mst/axi4_master_driver.sv(289) @ 245000: uvm_test_top.env.master_agent.drv [axi4_master_driver] Master driver received B response: ID=0x0 RESP=AXI4_RESP_OKAY
# UVM_INFO ../src/mst/axi4_master_driver.sv(348) @ 245000: uvm_test_top.env.master_agent.drv [axi4_master_driver] Master driver received all R beats for ID=0x3
# UVM_INFO ../src/slv/axi4_slave_driver.sv(501) @ 245000: uvm_test_top.env.slave_agent.drv [axi4_slave_driver] Read complete: ID=0x3 ADDR=0x76a1c9a4 RESP=AXI4_RESP_EXOKAY  2 beats sent
# UVM_INFO ../src/slv/axi4_slave_driver.sv(348) @ 245000: uvm_test_top.env.slave_agent.drv [axi4_slave_driver] Write complete: ID=0x0 RESP=AXI4_RESP_OKAY
# UVM_INFO ../src/mst/axi4_master_monitor.sv(210) @ 245000: uvm_test_top.env.master_agent.mon [axi4_master_monitor] Write complete: ID=0x0 ADDR=0xd1b41f88 RESP=AXI4_RESP_OKAY
# UVM_INFO ../src/env/axi4_scoreboard.sv(87) @ 245000: uvm_test_top.env.scb [axi4_scoreboard] Master AXI4_WRITE received: ID=0x0 ADDR=0xd1b41f88 LEN=1
# UVM_INFO ../src/mst/axi4_master_monitor.sv(314) @ 245000: uvm_test_top.env.master_agent.mon [axi4_master_monitor] Read complete: ID=0x3 ADDR=0x76a1c9a4 2 beats
# UVM_INFO ../src/env/axi4_scoreboard.sv(87) @ 245000: uvm_test_top.env.scb [axi4_scoreboard] Master AXI4_READ received: ID=0x3 ADDR=0x76a1c9a4 LEN=1
# UVM_INFO ../src/slv/axi4_slave_monitor.sv(189) @ 245000: uvm_test_top.env.slave_agent.mon [axi4_slave_monitor] Write response sent: ID=0x0 ADDR=0xd1b41f88 RESP=AXI4_RESP_OKAY
# UVM_INFO ../src/env/axi4_scoreboard.sv(108) @ 245000: uvm_test_top.env.scb [axi4_scoreboard] Slave AXI4_WRITE received: ID=0x0 ADDR=0xd1b41f88 LEN=1
# UVM_INFO ../src/env/axi4_scoreboard.sv(291) @ 245000: uvm_test_top.env.scb [axi4_scoreboard] [WRITE] MATCH #7: ID=0x0 ADDR=0xd1b41f88 LEN=1
# UVM_INFO ../src/env/axi4_scoreboard.sv(219) @ 245000: uvm_test_top.env.scb [axi4_scoreboard] [REF_MEM_WRITE] Addr=0xd1b41f8a Data=0x51
# UVM_INFO ../src/env/axi4_scoreboard.sv(219) @ 245000: uvm_test_top.env.scb [axi4_scoreboard] [REF_MEM_WRITE] Addr=0xd1b41f8a Data=0xff
# UVM_INFO ../src/env/axi4_scoreboard.sv(219) @ 245000: uvm_test_top.env.scb [axi4_scoreboard] [REF_MEM_WRITE] Addr=0xd1b41f8b Data=0x35
# UVM_INFO ../src/slv/axi4_slave_monitor.sv(287) @ 245000: uvm_test_top.env.slave_agent.mon [axi4_slave_monitor] Read data sent: ID=0x3 ADDR=0x76a1c9a4 2 beats
# UVM_INFO ../src/env/axi4_scoreboard.sv(108) @ 245000: uvm_test_top.env.scb [axi4_scoreboard] Slave AXI4_READ received: ID=0x3 ADDR=0x76a1c9a4 LEN=1
# UVM_INFO ../src/env/axi4_scoreboard.sv(291) @ 245000: uvm_test_top.env.scb [axi4_scoreboard] [READ] MATCH #8: ID=0x3 ADDR=0x76a1c9a4 LEN=1
# UVM_INFO ../src/slv/axi4_slave_driver.sv(228) @ 255000: uvm_test_top.env.slave_agent.drv [axi4_slave_driver] AW received: ID=0x5 ADDR=0x45573188 LEN=1 LOCK=AXI4_LOCK_EXCLUSIVE
# UVM_INFO ../src/slv/axi4_slave_monitor.sv(116) @ 255000: uvm_test_top.env.slave_agent.mon [axi4_slave_monitor] AW received: ID=0x5 ADDR=0x45573188 LEN=1
# UVM_INFO ../src/mst/axi4_master_monitor.sv(124) @ 255000: uvm_test_top.env.master_agent.mon [axi4_master_monitor] AW observed: ID=0x5 ADDR=0x45573188 LEN=1
# UVM_INFO ../src/slv/axi4_slave_monitor.sv(167) @ 255000: uvm_test_top.env.slave_agent.mon [axi4_slave_monitor] W data assembled: ID=0x5 ADDR=0x45573188 2 beats
# UVM_INFO ../src/mst/axi4_master_monitor.sv(184) @ 255000: uvm_test_top.env.master_agent.mon [axi4_master_monitor] W data assembled: ID=0x5 ADDR=0x45573188 2 beats
# UVM_INFO ../src/slv/axi4_slave_driver.sv(386) @ 265000: uvm_test_top.env.slave_agent.drv [axi4_slave_driver] AR received: ID=0x1 ADDR=0xd77c4900 LEN=1 LOCK=AXI4_LOCK_NORMAL
# UVM_INFO ../src/mst/axi4_master_monitor.sv(246) @ 265000: uvm_test_top.env.master_agent.mon [axi4_master_monitor] AR observed: ID=0x1 ADDR=0xd77c4900 LEN=1
# UVM_INFO ../src/slv/axi4_slave_monitor.sv(224) @ 265000: uvm_test_top.env.slave_agent.mon [axi4_slave_monitor] AR received: ID=0x1 ADDR=0xd77c4900 LEN=1
# UVM_INFO ../src/mst/axi4_master_driver.sv(289) @ 275000: uvm_test_top.env.master_agent.drv [axi4_master_driver] Master driver received B response: ID=0x5 RESP=AXI4_RESP_OKAY
# UVM_INFO ../src/slv/axi4_slave_driver.sv(348) @ 275000: uvm_test_top.env.slave_agent.drv [axi4_slave_driver] Write complete: ID=0x5 RESP=AXI4_RESP_OKAY
# UVM_INFO ../src/slv/axi4_slave_monitor.sv(189) @ 275000: uvm_test_top.env.slave_agent.mon [axi4_slave_monitor] Write response sent: ID=0x5 ADDR=0x45573188 RESP=AXI4_RESP_OKAY
# UVM_INFO ../src/env/axi4_scoreboard.sv(108) @ 275000: uvm_test_top.env.scb [axi4_scoreboard] Slave AXI4_WRITE received: ID=0x5 ADDR=0x45573188 LEN=1
# UVM_INFO ../src/mst/axi4_master_monitor.sv(210) @ 275000: uvm_test_top.env.master_agent.mon [axi4_master_monitor] Write complete: ID=0x5 ADDR=0x45573188 RESP=AXI4_RESP_OKAY
# UVM_INFO ../src/env/axi4_scoreboard.sv(87) @ 275000: uvm_test_top.env.scb [axi4_scoreboard] Master AXI4_WRITE received: ID=0x5 ADDR=0x45573188 LEN=1
# UVM_INFO ../src/env/axi4_scoreboard.sv(291) @ 275000: uvm_test_top.env.scb [axi4_scoreboard] [WRITE] MATCH #9: ID=0x5 ADDR=0x45573188 LEN=1
# UVM_INFO ../src/env/axi4_scoreboard.sv(226) @ 275000: uvm_test_top.env.scb [axi4_scoreboard] [REF_MEM_WRITE_IGNORED] Write ignored for ADDR=0x45573188 LOCK=AXI4_LOCK_EXCLUSIVE RESP=AXI4_RESP_OKAY
# UVM_INFO ../src/mst/axi4_master_driver.sv(348) @ 285000: uvm_test_top.env.master_agent.drv [axi4_master_driver] Master driver received all R beats for ID=0x8
# UVM_INFO ../src/slv/axi4_slave_driver.sv(228) @ 285000: uvm_test_top.env.slave_agent.drv [axi4_slave_driver] AW received: ID=0x5 ADDR=0x5a4b47fe LEN=1 LOCK=AXI4_LOCK_NORMAL
# UVM_INFO ../src/slv/axi4_slave_driver.sv(501) @ 285000: uvm_test_top.env.slave_agent.drv [axi4_slave_driver] Read complete: ID=0x8 ADDR=0xbdc057b0 RESP=AXI4_RESP_EXOKAY  2 beats sent
# UVM_INFO ../src/mst/axi4_master_monitor.sv(124) @ 285000: uvm_test_top.env.master_agent.mon [axi4_master_monitor] AW observed: ID=0x5 ADDR=0x5a4b47fe LEN=1
# UVM_INFO ../src/mst/axi4_master_monitor.sv(314) @ 285000: uvm_test_top.env.master_agent.mon [axi4_master_monitor] Read complete: ID=0x8 ADDR=0xbdc057b0 2 beats
# UVM_INFO ../src/env/axi4_scoreboard.sv(87) @ 285000: uvm_test_top.env.scb [axi4_scoreboard] Master AXI4_READ received: ID=0x8 ADDR=0xbdc057b0 LEN=1
# UVM_INFO ../src/slv/axi4_slave_monitor.sv(116) @ 285000: uvm_test_top.env.slave_agent.mon [axi4_slave_monitor] AW received: ID=0x5 ADDR=0x5a4b47fe LEN=1
# UVM_INFO ../src/slv/axi4_slave_monitor.sv(287) @ 285000: uvm_test_top.env.slave_agent.mon [axi4_slave_monitor] Read data sent: ID=0x8 ADDR=0xbdc057b0 2 beats
# UVM_INFO ../src/env/axi4_scoreboard.sv(108) @ 285000: uvm_test_top.env.scb [axi4_scoreboard] Slave AXI4_READ received: ID=0x8 ADDR=0xbdc057b0 LEN=1
# UVM_INFO ../src/env/axi4_scoreboard.sv(291) @ 285000: uvm_test_top.env.scb [axi4_scoreboard] [READ] MATCH #10: ID=0x8 ADDR=0xbdc057b0 LEN=1
# UVM_INFO ../src/mst/axi4_master_monitor.sv(184) @ 285000: uvm_test_top.env.master_agent.mon [axi4_master_monitor] W data assembled: ID=0x5 ADDR=0x5a4b47fe 2 beats
# UVM_INFO ../src/slv/axi4_slave_monitor.sv(167) @ 285000: uvm_test_top.env.slave_agent.mon [axi4_slave_monitor] W data assembled: ID=0x5 ADDR=0x5a4b47fe 2 beats
# UVM_INFO ../src/slv/axi4_slave_driver.sv(386) @ 295000: uvm_test_top.env.slave_agent.drv [axi4_slave_driver] AR received: ID=0x9 ADDR=0x90e95d0a LEN=3 LOCK=AXI4_LOCK_NORMAL
# UVM_INFO ../src/slv/axi4_slave_monitor.sv(224) @ 295000: uvm_test_top.env.slave_agent.mon [axi4_slave_monitor] AR received: ID=0x9 ADDR=0x90e95d0a LEN=3
# UVM_INFO ../src/mst/axi4_master_monitor.sv(246) @ 295000: uvm_test_top.env.master_agent.mon [axi4_master_monitor] AR observed: ID=0x9 ADDR=0x90e95d0a LEN=3
# UVM_INFO ../src/mst/axi4_master_driver.sv(289) @ 305000: uvm_test_top.env.master_agent.drv [axi4_master_driver] Master driver received B response: ID=0x5 RESP=AXI4_RESP_OKAY
# UVM_INFO ../src/slv/axi4_slave_driver.sv(348) @ 305000: uvm_test_top.env.slave_agent.drv [axi4_slave_driver] Write complete: ID=0x5 RESP=AXI4_RESP_OKAY
# UVM_INFO ../src/mst/axi4_master_monitor.sv(210) @ 305000: uvm_test_top.env.master_agent.mon [axi4_master_monitor] Write complete: ID=0x5 ADDR=0x5a4b47fe RESP=AXI4_RESP_OKAY
# UVM_INFO ../src/env/axi4_scoreboard.sv(87) @ 305000: uvm_test_top.env.scb [axi4_scoreboard] Master AXI4_WRITE received: ID=0x5 ADDR=0x5a4b47fe LEN=1
# UVM_INFO ../src/slv/axi4_slave_monitor.sv(189) @ 305000: uvm_test_top.env.slave_agent.mon [axi4_slave_monitor] Write response sent: ID=0x5 ADDR=0x5a4b47fe RESP=AXI4_RESP_OKAY
# UVM_INFO ../src/env/axi4_scoreboard.sv(108) @ 305000: uvm_test_top.env.scb [axi4_scoreboard] Slave AXI4_WRITE received: ID=0x5 ADDR=0x5a4b47fe LEN=1
# UVM_INFO ../src/env/axi4_scoreboard.sv(291) @ 305000: uvm_test_top.env.scb [axi4_scoreboard] [WRITE] MATCH #11: ID=0x5 ADDR=0x5a4b47fe LEN=1
# UVM_INFO ../src/env/axi4_scoreboard.sv(219) @ 305000: uvm_test_top.env.scb [axi4_scoreboard] [REF_MEM_WRITE] Addr=0x5a4b47fe Data=0xa3
# UVM_INFO ../src/env/axi4_scoreboard.sv(219) @ 305000: uvm_test_top.env.scb [axi4_scoreboard] [REF_MEM_WRITE] Addr=0x5a4b47fc Data=0x3b
# UVM_INFO ../src/slv/axi4_slave_driver.sv(228) @ 315000: uvm_test_top.env.slave_agent.drv [axi4_slave_driver] AW received: ID=0xa ADDR=0xab155658 LEN=3 LOCK=AXI4_LOCK_EXCLUSIVE
# UVM_INFO ../src/slv/axi4_slave_monitor.sv(116) @ 315000: uvm_test_top.env.slave_agent.mon [axi4_slave_monitor] AW received: ID=0xa ADDR=0xab155658 LEN=3
# UVM_INFO ../src/mst/axi4_master_monitor.sv(124) @ 315000: uvm_test_top.env.master_agent.mon [axi4_master_monitor] AW observed: ID=0xa ADDR=0xab155658 LEN=3
# UVM_INFO ../src/mst/axi4_master_driver.sv(348) @ 325000: uvm_test_top.env.master_agent.drv [axi4_master_driver] Master driver received all R beats for ID=0x1
# UVM_INFO ../src/slv/axi4_slave_driver.sv(386) @ 325000: uvm_test_top.env.slave_agent.drv [axi4_slave_driver] AR received: ID=0x3 ADDR=0x20ba7a08 LEN=3 LOCK=AXI4_LOCK_EXCLUSIVE
# UVM_INFO ../src/slv/axi4_slave_driver.sv(501) @ 325000: uvm_test_top.env.slave_agent.drv [axi4_slave_driver] Read complete: ID=0x1 ADDR=0xd77c4900 RESP=AXI4_RESP_OKAY  2 beats sent
# UVM_INFO ../src/mst/axi4_master_monitor.sv(246) @ 325000: uvm_test_top.env.master_agent.mon [axi4_master_monitor] AR observed: ID=0x3 ADDR=0x20ba7a08 LEN=3
# UVM_INFO ../src/mst/axi4_master_monitor.sv(314) @ 325000: uvm_test_top.env.master_agent.mon [axi4_master_monitor] Read complete: ID=0x1 ADDR=0xd77c4900 2 beats
# UVM_INFO ../src/env/axi4_scoreboard.sv(87) @ 325000: uvm_test_top.env.scb [axi4_scoreboard] Master AXI4_READ received: ID=0x1 ADDR=0xd77c4900 LEN=1
# UVM_INFO ../src/slv/axi4_slave_monitor.sv(224) @ 325000: uvm_test_top.env.slave_agent.mon [axi4_slave_monitor] AR received: ID=0x3 ADDR=0x20ba7a08 LEN=3
# UVM_INFO ../src/slv/axi4_slave_monitor.sv(287) @ 325000: uvm_test_top.env.slave_agent.mon [axi4_slave_monitor] Read data sent: ID=0x1 ADDR=0xd77c4900 2 beats
# UVM_INFO ../src/env/axi4_scoreboard.sv(108) @ 325000: uvm_test_top.env.scb [axi4_scoreboard] Slave AXI4_READ received: ID=0x1 ADDR=0xd77c4900 LEN=1
# UVM_INFO ../src/env/axi4_scoreboard.sv(291) @ 325000: uvm_test_top.env.scb [axi4_scoreboard] [READ] MATCH #12: ID=0x1 ADDR=0xd77c4900 LEN=1
# UVM_INFO ../src/mst/axi4_master_monitor.sv(184) @ 345000: uvm_test_top.env.master_agent.mon [axi4_master_monitor] W data assembled: ID=0xa ADDR=0xab155658 4 beats
# UVM_INFO ../src/slv/axi4_slave_monitor.sv(167) @ 345000: uvm_test_top.env.slave_agent.mon [axi4_slave_monitor] W data assembled: ID=0xa ADDR=0xab155658 4 beats
# UVM_INFO ../src/slv/axi4_slave_driver.sv(386) @ 355000: uvm_test_top.env.slave_agent.drv [axi4_slave_driver] AR received: ID=0x7 ADDR=0xac545350 LEN=3 LOCK=AXI4_LOCK_EXCLUSIVE
# UVM_INFO ../src/slv/axi4_slave_monitor.sv(224) @ 355000: uvm_test_top.env.slave_agent.mon [axi4_slave_monitor] AR received: ID=0x7 ADDR=0xac545350 LEN=3
# UVM_INFO ../src/mst/axi4_master_monitor.sv(246) @ 355000: uvm_test_top.env.master_agent.mon [axi4_master_monitor] AR observed: ID=0x7 ADDR=0xac545350 LEN=3
# UVM_INFO ../src/mst/axi4_master_driver.sv(289) @ 375000: uvm_test_top.env.master_agent.drv [axi4_master_driver] Master driver received B response: ID=0xa RESP=AXI4_RESP_OKAY
# UVM_INFO ../src/slv/axi4_slave_driver.sv(348) @ 375000: uvm_test_top.env.slave_agent.drv [axi4_slave_driver] Write complete: ID=0xa RESP=AXI4_RESP_OKAY
# UVM_INFO ../src/slv/axi4_slave_monitor.sv(189) @ 375000: uvm_test_top.env.slave_agent.mon [axi4_slave_monitor] Write response sent: ID=0xa ADDR=0xab155658 RESP=AXI4_RESP_OKAY
# UVM_INFO ../src/env/axi4_scoreboard.sv(108) @ 375000: uvm_test_top.env.scb [axi4_scoreboard] Slave AXI4_WRITE received: ID=0xa ADDR=0xab155658 LEN=3
# UVM_INFO ../src/mst/axi4_master_monitor.sv(210) @ 375000: uvm_test_top.env.master_agent.mon [axi4_master_monitor] Write complete: ID=0xa ADDR=0xab155658 RESP=AXI4_RESP_OKAY
# UVM_INFO ../src/env/axi4_scoreboard.sv(87) @ 375000: uvm_test_top.env.scb [axi4_scoreboard] Master AXI4_WRITE received: ID=0xa ADDR=0xab155658 LEN=3
# UVM_INFO ../src/env/axi4_scoreboard.sv(291) @ 375000: uvm_test_top.env.scb [axi4_scoreboard] [WRITE] MATCH #13: ID=0xa ADDR=0xab155658 LEN=3
# UVM_INFO ../src/env/axi4_scoreboard.sv(226) @ 375000: uvm_test_top.env.scb [axi4_scoreboard] [REF_MEM_WRITE_IGNORED] Write ignored for ADDR=0xab155658 LOCK=AXI4_LOCK_EXCLUSIVE RESP=AXI4_RESP_OKAY
# UVM_INFO ../src/slv/axi4_slave_driver.sv(386) @ 385000: uvm_test_top.env.slave_agent.drv [axi4_slave_driver] AR received: ID=0x8 ADDR=0x7924e0d7 LEN=7 LOCK=AXI4_LOCK_NORMAL
# UVM_INFO ../src/mst/axi4_master_monitor.sv(246) @ 385000: uvm_test_top.env.master_agent.mon [axi4_master_monitor] AR observed: ID=0x8 ADDR=0x7924e0d7 LEN=7
# UVM_INFO ../src/slv/axi4_slave_monitor.sv(224) @ 385000: uvm_test_top.env.slave_agent.mon [axi4_slave_monitor] AR received: ID=0x8 ADDR=0x7924e0d7 LEN=7
# UVM_INFO ../src/slv/axi4_slave_driver.sv(228) @ 395000: uvm_test_top.env.slave_agent.drv [axi4_slave_driver] AW received: ID=0x6 ADDR=0xa0e15ed8 LEN=3 LOCK=AXI4_LOCK_EXCLUSIVE
# UVM_INFO ../src/slv/axi4_slave_monitor.sv(116) @ 395000: uvm_test_top.env.slave_agent.mon [axi4_slave_monitor] AW received: ID=0x6 ADDR=0xa0e15ed8 LEN=3
# UVM_INFO ../src/mst/axi4_master_monitor.sv(124) @ 395000: uvm_test_top.env.master_agent.mon [axi4_master_monitor] AW observed: ID=0x6 ADDR=0xa0e15ed8 LEN=3
# UVM_INFO ../src/mst/axi4_master_driver.sv(348) @ 405000: uvm_test_top.env.master_agent.drv [axi4_master_driver] Master driver received all R beats for ID=0x9
# UVM_INFO ../src/slv/axi4_slave_driver.sv(501) @ 405000: uvm_test_top.env.slave_agent.drv [axi4_slave_driver] Read complete: ID=0x9 ADDR=0x90e95d0a RESP=AXI4_RESP_OKAY  4 beats sent
# UVM_INFO ../src/mst/axi4_master_monitor.sv(314) @ 405000: uvm_test_top.env.master_agent.mon [axi4_master_monitor] Read complete: ID=0x9 ADDR=0x90e95d0a 4 beats
# UVM_INFO ../src/env/axi4_scoreboard.sv(87) @ 405000: uvm_test_top.env.scb [axi4_scoreboard] Master AXI4_READ received: ID=0x9 ADDR=0x90e95d0a LEN=3
# UVM_INFO ../src/slv/axi4_slave_monitor.sv(287) @ 405000: uvm_test_top.env.slave_agent.mon [axi4_slave_monitor] Read data sent: ID=0x9 ADDR=0x90e95d0a 4 beats
# UVM_INFO ../src/env/axi4_scoreboard.sv(108) @ 405000: uvm_test_top.env.scb [axi4_scoreboard] Slave AXI4_READ received: ID=0x9 ADDR=0x90e95d0a LEN=3
# UVM_INFO ../src/env/axi4_scoreboard.sv(291) @ 405000: uvm_test_top.env.scb [axi4_scoreboard] [READ] MATCH #14: ID=0x9 ADDR=0x90e95d0a LEN=3
# UVM_INFO ../src/slv/axi4_slave_driver.sv(386) @ 415000: uvm_test_top.env.slave_agent.drv [axi4_slave_driver] AR received: ID=0x7 ADDR=0x018d4391 LEN=7 LOCK=AXI4_LOCK_NORMAL
# UVM_INFO ../src/slv/axi4_slave_monitor.sv(224) @ 415000: uvm_test_top.env.slave_agent.mon [axi4_slave_monitor] AR received: ID=0x7 ADDR=0x018d4391 LEN=7
# UVM_INFO ../src/mst/axi4_master_monitor.sv(246) @ 415000: uvm_test_top.env.master_agent.mon [axi4_master_monitor] AR observed: ID=0x7 ADDR=0x018d4391 LEN=7
# UVM_INFO ../src/slv/axi4_slave_driver.sv(228) @ 425000: uvm_test_top.env.slave_agent.drv [axi4_slave_driver] AW received: ID=0xb ADDR=0x5868ba17 LEN=3 LOCK=AXI4_LOCK_NORMAL
# UVM_INFO ../src/mst/axi4_master_monitor.sv(124) @ 425000: uvm_test_top.env.master_agent.mon [axi4_master_monitor] AW observed: ID=0xb ADDR=0x5868ba17 LEN=3
# UVM_INFO ../src/slv/axi4_slave_monitor.sv(116) @ 425000: uvm_test_top.env.slave_agent.mon [axi4_slave_monitor] AW received: ID=0xb ADDR=0x5868ba17 LEN=3
# UVM_INFO ../src/mst/axi4_master_monitor.sv(184) @ 425000: uvm_test_top.env.master_agent.mon [axi4_master_monitor] W data assembled: ID=0x6 ADDR=0xa0e15ed8 4 beats
# UVM_INFO ../src/slv/axi4_slave_monitor.sv(167) @ 425000: uvm_test_top.env.slave_agent.mon [axi4_slave_monitor] W data assembled: ID=0x6 ADDR=0xa0e15ed8 4 beats
# UVM_INFO ../src/slv/axi4_slave_driver.sv(386) @ 445000: uvm_test_top.env.slave_agent.drv [axi4_slave_driver] AR received: ID=0xf ADDR=0x1589e83d LEN=7 LOCK=AXI4_LOCK_NORMAL
# UVM_INFO ../src/mst/axi4_master_monitor.sv(246) @ 445000: uvm_test_top.env.master_agent.mon [axi4_master_monitor] AR observed: ID=0xf ADDR=0x1589e83d LEN=7
# UVM_INFO ../src/slv/axi4_slave_monitor.sv(224) @ 445000: uvm_test_top.env.slave_agent.mon [axi4_slave_monitor] AR received: ID=0xf ADDR=0x1589e83d LEN=7
# UVM_INFO ../src/mst/axi4_master_driver.sv(289) @ 455000: uvm_test_top.env.master_agent.drv [axi4_master_driver] Master driver received B response: ID=0x6 RESP=AXI4_RESP_OKAY
# UVM_INFO ../src/slv/axi4_slave_driver.sv(228) @ 455000: uvm_test_top.env.slave_agent.drv [axi4_slave_driver] AW received: ID=0x2 ADDR=0x6589043b LEN=7 LOCK=AXI4_LOCK_NORMAL
# UVM_INFO ../src/slv/axi4_slave_driver.sv(348) @ 455000: uvm_test_top.env.slave_agent.drv [axi4_slave_driver] Write complete: ID=0x6 RESP=AXI4_RESP_OKAY
# UVM_INFO ../src/slv/axi4_slave_monitor.sv(189) @ 455000: uvm_test_top.env.slave_agent.mon [axi4_slave_monitor] Write response sent: ID=0x6 ADDR=0xa0e15ed8 RESP=AXI4_RESP_OKAY
# UVM_INFO ../src/env/axi4_scoreboard.sv(108) @ 455000: uvm_test_top.env.scb [axi4_scoreboard] Slave AXI4_WRITE received: ID=0x6 ADDR=0xa0e15ed8 LEN=3
# UVM_INFO ../src/slv/axi4_slave_monitor.sv(116) @ 455000: uvm_test_top.env.slave_agent.mon [axi4_slave_monitor] AW received: ID=0x2 ADDR=0x6589043b LEN=7
# UVM_INFO ../src/mst/axi4_master_monitor.sv(210) @ 455000: uvm_test_top.env.master_agent.mon [axi4_master_monitor] Write complete: ID=0x6 ADDR=0xa0e15ed8 RESP=AXI4_RESP_OKAY
# UVM_INFO ../src/env/axi4_scoreboard.sv(87) @ 455000: uvm_test_top.env.scb [axi4_scoreboard] Master AXI4_WRITE received: ID=0x6 ADDR=0xa0e15ed8 LEN=3
# UVM_INFO ../src/env/axi4_scoreboard.sv(291) @ 455000: uvm_test_top.env.scb [axi4_scoreboard] [WRITE] MATCH #15: ID=0x6 ADDR=0xa0e15ed8 LEN=3
# UVM_INFO ../src/env/axi4_scoreboard.sv(226) @ 455000: uvm_test_top.env.scb [axi4_scoreboard] [REF_MEM_WRITE_IGNORED] Write ignored for ADDR=0xa0e15ed8 LOCK=AXI4_LOCK_EXCLUSIVE RESP=AXI4_RESP_OKAY
# UVM_INFO ../src/mst/axi4_master_monitor.sv(124) @ 455000: uvm_test_top.env.master_agent.mon [axi4_master_monitor] AW observed: ID=0x2 ADDR=0x6589043b LEN=7
# UVM_INFO ../src/slv/axi4_slave_driver.sv(386) @ 475000: uvm_test_top.env.slave_agent.drv [axi4_slave_driver] AR received: ID=0x3 ADDR=0x1bd73669 LEN=15 LOCK=AXI4_LOCK_NORMAL
# UVM_INFO ../src/slv/axi4_slave_monitor.sv(224) @ 475000: uvm_test_top.env.slave_agent.mon [axi4_slave_monitor] AR received: ID=0x3 ADDR=0x1bd73669 LEN=15
# UVM_INFO ../src/mst/axi4_master_monitor.sv(246) @ 475000: uvm_test_top.env.master_agent.mon [axi4_master_monitor] AR observed: ID=0x3 ADDR=0x1bd73669 LEN=15
# UVM_INFO ../src/mst/axi4_master_driver.sv(348) @ 485000: uvm_test_top.env.master_agent.drv [axi4_master_driver] Master driver received all R beats for ID=0x3
# UVM_INFO ../src/slv/axi4_slave_driver.sv(228) @ 485000: uvm_test_top.env.slave_agent.drv [axi4_slave_driver] AW received: ID=0xc ADDR=0xd5281b50 LEN=7 LOCK=AXI4_LOCK_EXCLUSIVE
# UVM_INFO ../src/slv/axi4_slave_driver.sv(501) @ 485000: uvm_test_top.env.slave_agent.drv [axi4_slave_driver] Read complete: ID=0x3 ADDR=0x20ba7a08 RESP=AXI4_RESP_EXOKAY  4 beats sent
# UVM_INFO ../src/mst/axi4_master_monitor.sv(124) @ 485000: uvm_test_top.env.master_agent.mon [axi4_master_monitor] AW observed: ID=0xc ADDR=0xd5281b50 LEN=7
# UVM_INFO ../src/mst/axi4_master_monitor.sv(314) @ 485000: uvm_test_top.env.master_agent.mon [axi4_master_monitor] Read complete: ID=0x3 ADDR=0x20ba7a08 4 beats
# UVM_INFO ../src/env/axi4_scoreboard.sv(87) @ 485000: uvm_test_top.env.scb [axi4_scoreboard] Master AXI4_READ received: ID=0x3 ADDR=0x20ba7a08 LEN=3
# UVM_INFO ../src/slv/axi4_slave_monitor.sv(116) @ 485000: uvm_test_top.env.slave_agent.mon [axi4_slave_monitor] AW received: ID=0xc ADDR=0xd5281b50 LEN=7
# UVM_INFO ../src/slv/axi4_slave_monitor.sv(287) @ 485000: uvm_test_top.env.slave_agent.mon [axi4_slave_monitor] Read data sent: ID=0x3 ADDR=0x20ba7a08 4 beats
# UVM_INFO ../src/env/axi4_scoreboard.sv(108) @ 485000: uvm_test_top.env.scb [axi4_scoreboard] Slave AXI4_READ received: ID=0x3 ADDR=0x20ba7a08 LEN=3
# UVM_INFO ../src/env/axi4_scoreboard.sv(291) @ 485000: uvm_test_top.env.scb [axi4_scoreboard] [READ] MATCH #16: ID=0x3 ADDR=0x20ba7a08 LEN=3
# UVM_INFO ../src/slv/axi4_slave_driver.sv(386) @ 505000: uvm_test_top.env.slave_agent.drv [axi4_slave_driver] AR received: ID=0x0 ADDR=0xbc721387 LEN=15 LOCK=AXI4_LOCK_NORMAL
# UVM_INFO ../src/mst/axi4_master_monitor.sv(246) @ 505000: uvm_test_top.env.master_agent.mon [axi4_master_monitor] AR observed: ID=0x0 ADDR=0xbc721387 LEN=15
# UVM_INFO ../src/slv/axi4_slave_monitor.sv(224) @ 505000: uvm_test_top.env.slave_agent.mon [axi4_slave_monitor] AR received: ID=0x0 ADDR=0xbc721387 LEN=15
# UVM_INFO ../src/mst/axi4_master_monitor.sv(184) @ 505000: uvm_test_top.env.master_agent.mon [axi4_master_monitor] W data assembled: ID=0xb ADDR=0x5868ba17 4 beats
# UVM_INFO ../src/slv/axi4_slave_monitor.sv(167) @ 505000: uvm_test_top.env.slave_agent.mon [axi4_slave_monitor] W data assembled: ID=0xb ADDR=0x5868ba17 4 beats
# UVM_INFO ../src/slv/axi4_slave_driver.sv(228) @ 515000: uvm_test_top.env.slave_agent.drv [axi4_slave_driver] AW received: ID=0xc ADDR=0x96dc3394 LEN=7 LOCK=AXI4_LOCK_NORMAL
# UVM_INFO ../src/slv/axi4_slave_monitor.sv(116) @ 515000: uvm_test_top.env.slave_agent.mon [axi4_slave_monitor] AW received: ID=0xc ADDR=0x96dc3394 LEN=7
# UVM_INFO ../src/mst/axi4_master_monitor.sv(124) @ 515000: uvm_test_top.env.master_agent.mon [axi4_master_monitor] AW observed: ID=0xc ADDR=0x96dc3394 LEN=7
# UVM_INFO ../src/mst/axi4_master_driver.sv(289) @ 535000: uvm_test_top.env.master_agent.drv [axi4_master_driver] Master driver received B response: ID=0xb RESP=AXI4_RESP_OKAY
# UVM_INFO ../src/slv/axi4_slave_driver.sv(386) @ 535000: uvm_test_top.env.slave_agent.drv [axi4_slave_driver] AR received: ID=0xe ADDR=0xac552c14 LEN=15 LOCK=AXI4_LOCK_NORMAL
# UVM_INFO ../src/slv/axi4_slave_driver.sv(348) @ 535000: uvm_test_top.env.slave_agent.drv [axi4_slave_driver] Write complete: ID=0xb RESP=AXI4_RESP_OKAY
# UVM_INFO ../src/slv/axi4_slave_monitor.sv(224) @ 535000: uvm_test_top.env.slave_agent.mon [axi4_slave_monitor] AR received: ID=0xe ADDR=0xac552c14 LEN=15
# UVM_INFO ../src/slv/axi4_slave_monitor.sv(189) @ 535000: uvm_test_top.env.slave_agent.mon [axi4_slave_monitor] Write response sent: ID=0xb ADDR=0x5868ba17 RESP=AXI4_RESP_OKAY
# UVM_INFO ../src/env/axi4_scoreboard.sv(108) @ 535000: uvm_test_top.env.scb [axi4_scoreboard] Slave AXI4_WRITE received: ID=0xb ADDR=0x5868ba17 LEN=3
# UVM_INFO ../src/mst/axi4_master_monitor.sv(246) @ 535000: uvm_test_top.env.master_agent.mon [axi4_master_monitor] AR observed: ID=0xe ADDR=0xac552c14 LEN=15
# UVM_INFO ../src/mst/axi4_master_monitor.sv(210) @ 535000: uvm_test_top.env.master_agent.mon [axi4_master_monitor] Write complete: ID=0xb ADDR=0x5868ba17 RESP=AXI4_RESP_OKAY
# UVM_INFO ../src/env/axi4_scoreboard.sv(87) @ 535000: uvm_test_top.env.scb [axi4_scoreboard] Master AXI4_WRITE received: ID=0xb ADDR=0x5868ba17 LEN=3
# UVM_INFO ../src/env/axi4_scoreboard.sv(291) @ 535000: uvm_test_top.env.scb [axi4_scoreboard] [WRITE] MATCH #17: ID=0xb ADDR=0x5868ba17 LEN=3
# UVM_INFO ../src/env/axi4_scoreboard.sv(219) @ 535000: uvm_test_top.env.scb [axi4_scoreboard] [REF_MEM_WRITE] Addr=0x5868ba15 Data=0xf3
# UVM_INFO ../src/env/axi4_scoreboard.sv(219) @ 535000: uvm_test_top.env.scb [axi4_scoreboard] [REF_MEM_WRITE] Addr=0x5868ba16 Data=0x6b
# UVM_INFO ../src/env/axi4_scoreboard.sv(219) @ 535000: uvm_test_top.env.scb [axi4_scoreboard] [REF_MEM_WRITE] Addr=0x5868ba17 Data=0x88
# UVM_INFO ../src/env/axi4_scoreboard.sv(219) @ 535000: uvm_test_top.env.scb [axi4_scoreboard] [REF_MEM_WRITE] Addr=0x5868ba14 Data=0x82
# UVM_INFO ../src/env/axi4_scoreboard.sv(219) @ 535000: uvm_test_top.env.scb [axi4_scoreboard] [REF_MEM_WRITE] Addr=0x5868ba15 Data=0x42
# UVM_INFO ../src/env/axi4_scoreboard.sv(219) @ 535000: uvm_test_top.env.scb [axi4_scoreboard] [REF_MEM_WRITE] Addr=0x5868ba16 Data=0x63
# UVM_INFO ../src/env/axi4_scoreboard.sv(219) @ 535000: uvm_test_top.env.scb [axi4_scoreboard] [REF_MEM_WRITE] Addr=0x5868ba14 Data=0x69
# UVM_INFO ../src/env/axi4_scoreboard.sv(219) @ 535000: uvm_test_top.env.scb [axi4_scoreboard] [REF_MEM_WRITE] Addr=0x5868ba15 Data=0x12
# UVM_INFO ../src/env/axi4_scoreboard.sv(219) @ 535000: uvm_test_top.env.scb [axi4_scoreboard] [REF_MEM_WRITE] Addr=0x5868ba16 Data=0x40
# UVM_INFO ../src/env/axi4_scoreboard.sv(219) @ 535000: uvm_test_top.env.scb [axi4_scoreboard] [REF_MEM_WRITE] Addr=0x5868ba16 Data=0x77
# UVM_INFO ../src/env/axi4_scoreboard.sv(219) @ 535000: uvm_test_top.env.scb [axi4_scoreboard] [REF_MEM_WRITE] Addr=0x5868ba17 Data=0xff
# UVM_INFO ../src/slv/axi4_slave_driver.sv(228) @ 545000: uvm_test_top.env.slave_agent.drv [axi4_slave_driver] AW received: ID=0xa ADDR=0xa5430514 LEN=15 LOCK=AXI4_LOCK_NORMAL
# UVM_INFO ../src/mst/axi4_master_monitor.sv(124) @ 545000: uvm_test_top.env.master_agent.mon [axi4_master_monitor] AW observed: ID=0xa ADDR=0xa5430514 LEN=15
# UVM_INFO ../src/slv/axi4_slave_monitor.sv(116) @ 545000: uvm_test_top.env.slave_agent.mon [axi4_slave_monitor] AW received: ID=0xa ADDR=0xa5430514 LEN=15
# UVM_INFO ../src/mst/axi4_master_driver.sv(348) @ 565000: uvm_test_top.env.master_agent.drv [axi4_master_driver] Master driver received all R beats for ID=0x7
# UVM_INFO ../src/slv/axi4_slave_driver.sv(386) @ 565000: uvm_test_top.env.slave_agent.drv [axi4_slave_driver] AR received: ID=0x3 ADDR=0x096b636e LEN=1 LOCK=AXI4_LOCK_EXCLUSIVE
# UVM_INFO ../src/slv/axi4_slave_driver.sv(501) @ 565000: uvm_test_top.env.slave_agent.drv [axi4_slave_driver] Read complete: ID=0x7 ADDR=0xac545350 RESP=AXI4_RESP_EXOKAY  4 beats sent
# UVM_INFO ../src/mst/axi4_master_monitor.sv(246) @ 565000: uvm_test_top.env.master_agent.mon [axi4_master_monitor] AR observed: ID=0x3 ADDR=0x096b636e LEN=1
# UVM_INFO ../src/mst/axi4_master_monitor.sv(314) @ 565000: uvm_test_top.env.master_agent.mon [axi4_master_monitor] Read complete: ID=0x7 ADDR=0xac545350 4 beats
# UVM_INFO ../src/env/axi4_scoreboard.sv(87) @ 565000: uvm_test_top.env.scb [axi4_scoreboard] Master AXI4_READ received: ID=0x7 ADDR=0xac545350 LEN=3
# UVM_INFO ../src/slv/axi4_slave_monitor.sv(224) @ 565000: uvm_test_top.env.slave_agent.mon [axi4_slave_monitor] AR received: ID=0x3 ADDR=0x096b636e LEN=1
# UVM_INFO ../src/slv/axi4_slave_monitor.sv(287) @ 565000: uvm_test_top.env.slave_agent.mon [axi4_slave_monitor] Read data sent: ID=0x7 ADDR=0xac545350 4 beats
# UVM_INFO ../src/env/axi4_scoreboard.sv(108) @ 565000: uvm_test_top.env.scb [axi4_scoreboard] Slave AXI4_READ received: ID=0x7 ADDR=0xac545350 LEN=3
# UVM_INFO ../src/env/axi4_scoreboard.sv(291) @ 565000: uvm_test_top.env.scb [axi4_scoreboard] [READ] MATCH #18: ID=0x7 ADDR=0xac545350 LEN=3
# UVM_INFO ../src/slv/axi4_slave_driver.sv(386) @ 595000: uvm_test_top.env.slave_agent.drv [axi4_slave_driver] AR received: ID=0x6 ADDR=0x72920b18 LEN=1 LOCK=AXI4_LOCK_EXCLUSIVE
# UVM_INFO ../src/slv/axi4_slave_monitor.sv(224) @ 595000: uvm_test_top.env.slave_agent.mon [axi4_slave_monitor] AR received: ID=0x6 ADDR=0x72920b18 LEN=1
# UVM_INFO ../src/mst/axi4_master_monitor.sv(246) @ 595000: uvm_test_top.env.master_agent.mon [axi4_master_monitor] AR observed: ID=0x6 ADDR=0x72920b18 LEN=1
# UVM_INFO ../src/slv/axi4_slave_driver.sv(386) @ 625000: uvm_test_top.env.slave_agent.drv [axi4_slave_driver] AR received: ID=0x8 ADDR=0x1c81dbd8 LEN=1 LOCK=AXI4_LOCK_EXCLUSIVE
# UVM_INFO ../src/mst/axi4_master_monitor.sv(246) @ 625000: uvm_test_top.env.master_agent.mon [axi4_master_monitor] AR observed: ID=0x8 ADDR=0x1c81dbd8 LEN=1
# UVM_INFO ../src/slv/axi4_slave_monitor.sv(224) @ 625000: uvm_test_top.env.slave_agent.mon [axi4_slave_monitor] AR received: ID=0x8 ADDR=0x1c81dbd8 LEN=1
# UVM_INFO ../src/slv/axi4_slave_driver.sv(386) @ 655000: uvm_test_top.env.slave_agent.drv [axi4_slave_driver] AR received: ID=0xf ADDR=0x64572d73 LEN=3 LOCK=AXI4_LOCK_NORMAL
# UVM_INFO ../src/slv/axi4_slave_monitor.sv(224) @ 655000: uvm_test_top.env.slave_agent.mon [axi4_slave_monitor] AR received: ID=0xf ADDR=0x64572d73 LEN=3
# UVM_INFO ../src/mst/axi4_master_monitor.sv(246) @ 655000: uvm_test_top.env.master_agent.mon [axi4_master_monitor] AR observed: ID=0xf ADDR=0x64572d73 LEN=3
# UVM_INFO ../src/mst/axi4_master_monitor.sv(184) @ 665000: uvm_test_top.env.master_agent.mon [axi4_master_monitor] W data assembled: ID=0x2 ADDR=0x6589043b 8 beats
# UVM_INFO ../src/slv/axi4_slave_monitor.sv(167) @ 665000: uvm_test_top.env.slave_agent.mon [axi4_slave_monitor] W data assembled: ID=0x2 ADDR=0x6589043b 8 beats
# UVM_INFO ../src/slv/axi4_slave_driver.sv(386) @ 685000: uvm_test_top.env.slave_agent.drv [axi4_slave_driver] AR received: ID=0xa ADDR=0x21f864d2 LEN=3 LOCK=AXI4_LOCK_NORMAL
# UVM_INFO ../src/mst/axi4_master_monitor.sv(246) @ 685000: uvm_test_top.env.master_agent.mon [axi4_master_monitor] AR observed: ID=0xa ADDR=0x21f864d2 LEN=3
# UVM_INFO ../src/slv/axi4_slave_monitor.sv(224) @ 685000: uvm_test_top.env.slave_agent.mon [axi4_slave_monitor] AR received: ID=0xa ADDR=0x21f864d2 LEN=3
# UVM_INFO ../src/mst/axi4_master_driver.sv(289) @ 695000: uvm_test_top.env.master_agent.drv [axi4_master_driver] Master driver received B response: ID=0x2 RESP=AXI4_RESP_OKAY
# UVM_INFO ../src/slv/axi4_slave_driver.sv(348) @ 695000: uvm_test_top.env.slave_agent.drv [axi4_slave_driver] Write complete: ID=0x2 RESP=AXI4_RESP_OKAY
# UVM_INFO ../src/slv/axi4_slave_monitor.sv(189) @ 695000: uvm_test_top.env.slave_agent.mon [axi4_slave_monitor] Write response sent: ID=0x2 ADDR=0x6589043b RESP=AXI4_RESP_OKAY
# UVM_INFO ../src/env/axi4_scoreboard.sv(108) @ 695000: uvm_test_top.env.scb [axi4_scoreboard] Slave AXI4_WRITE received: ID=0x2 ADDR=0x6589043b LEN=7
# UVM_INFO ../src/mst/axi4_master_monitor.sv(210) @ 695000: uvm_test_top.env.master_agent.mon [axi4_master_monitor] Write complete: ID=0x2 ADDR=0x6589043b RESP=AXI4_RESP_OKAY
# UVM_INFO ../src/env/axi4_scoreboard.sv(87) @ 695000: uvm_test_top.env.scb [axi4_scoreboard] Master AXI4_WRITE received: ID=0x2 ADDR=0x6589043b LEN=7
# UVM_INFO ../src/env/axi4_scoreboard.sv(291) @ 695000: uvm_test_top.env.scb [axi4_scoreboard] [WRITE] MATCH #19: ID=0x2 ADDR=0x6589043b LEN=7
# UVM_INFO ../src/env/axi4_scoreboard.sv(219) @ 695000: uvm_test_top.env.scb [axi4_scoreboard] [REF_MEM_WRITE] Addr=0x6589043b Data=0x15
# UVM_INFO ../src/env/axi4_scoreboard.sv(219) @ 695000: uvm_test_top.env.scb [axi4_scoreboard] [REF_MEM_WRITE] Addr=0x65890438 Data=0xdd
# UVM_INFO ../src/env/axi4_scoreboard.sv(219) @ 695000: uvm_test_top.env.scb [axi4_scoreboard] [REF_MEM_WRITE] Addr=0x65890439 Data=0xc3
# UVM_INFO ../src/env/axi4_scoreboard.sv(219) @ 695000: uvm_test_top.env.scb [axi4_scoreboard] [REF_MEM_WRITE] Addr=0x6589043a Data=0x67
# UVM_INFO ../src/env/axi4_scoreboard.sv(219) @ 695000: uvm_test_top.env.scb [axi4_scoreboard] [REF_MEM_WRITE] Addr=0x65890438 Data=0x85
# UVM_INFO ../src/env/axi4_scoreboard.sv(219) @ 695000: uvm_test_top.env.scb [axi4_scoreboard] [REF_MEM_WRITE] Addr=0x65890439 Data=0xc9
# UVM_INFO ../src/env/axi4_scoreboard.sv(219) @ 695000: uvm_test_top.env.scb [axi4_scoreboard] [REF_MEM_WRITE] Addr=0x6589043a Data=0x71
# UVM_INFO ../src/env/axi4_scoreboard.sv(219) @ 695000: uvm_test_top.env.scb [axi4_scoreboard] [REF_MEM_WRITE] Addr=0x6589043b Data=0x2b
# UVM_INFO ../src/env/axi4_scoreboard.sv(219) @ 695000: uvm_test_top.env.scb [axi4_scoreboard] [REF_MEM_WRITE] Addr=0x6589043b Data=0xff
# UVM_INFO ../src/env/axi4_scoreboard.sv(219) @ 695000: uvm_test_top.env.scb [axi4_scoreboard] [REF_MEM_WRITE] Addr=0x65890438 Data=0x4e
# UVM_INFO ../src/env/axi4_scoreboard.sv(219) @ 695000: uvm_test_top.env.scb [axi4_scoreboard] [REF_MEM_WRITE] Addr=0x65890439 Data=0xb1
# UVM_INFO ../src/slv/axi4_slave_driver.sv(386) @ 715000: uvm_test_top.env.slave_agent.drv [axi4_slave_driver] AR received: ID=0xb ADDR=0x88c9c538 LEN=3 LOCK=AXI4_LOCK_NORMAL
# UVM_INFO ../src/slv/axi4_slave_monitor.sv(224) @ 715000: uvm_test_top.env.slave_agent.mon [axi4_slave_monitor] AR received: ID=0xb ADDR=0x88c9c538 LEN=3
# UVM_INFO ../src/mst/axi4_master_monitor.sv(246) @ 715000: uvm_test_top.env.master_agent.mon [axi4_master_monitor] AR observed: ID=0xb ADDR=0x88c9c538 LEN=3
# UVM_INFO ../src/mst/axi4_master_driver.sv(348) @ 725000: uvm_test_top.env.master_agent.drv [axi4_master_driver] Master driver received all R beats for ID=0x8
# UVM_INFO ../src/slv/axi4_slave_driver.sv(501) @ 725000: uvm_test_top.env.slave_agent.drv [axi4_slave_driver] Read complete: ID=0x8 ADDR=0x7924e0d7 RESP=AXI4_RESP_OKAY  8 beats sent
# UVM_INFO ../src/mst/axi4_master_monitor.sv(314) @ 725000: uvm_test_top.env.master_agent.mon [axi4_master_monitor] Read complete: ID=0x8 ADDR=0x7924e0d7 8 beats
# UVM_INFO ../src/env/axi4_scoreboard.sv(87) @ 725000: uvm_test_top.env.scb [axi4_scoreboard] Master AXI4_READ received: ID=0x8 ADDR=0x7924e0d7 LEN=7
# UVM_INFO ../src/slv/axi4_slave_monitor.sv(287) @ 725000: uvm_test_top.env.slave_agent.mon [axi4_slave_monitor] Read data sent: ID=0x8 ADDR=0x7924e0d7 8 beats
# UVM_INFO ../src/env/axi4_scoreboard.sv(108) @ 725000: uvm_test_top.env.scb [axi4_scoreboard] Slave AXI4_READ received: ID=0x8 ADDR=0x7924e0d7 LEN=7
# UVM_INFO ../src/env/axi4_scoreboard.sv(291) @ 725000: uvm_test_top.env.scb [axi4_scoreboard] [READ] MATCH #20: ID=0x8 ADDR=0x7924e0d7 LEN=7
# UVM_INFO ../src/slv/axi4_slave_driver.sv(386) @ 745000: uvm_test_top.env.slave_agent.drv [axi4_slave_driver] AR received: ID=0xc ADDR=0xbca2b32b LEN=7 LOCK=AXI4_LOCK_NORMAL
# UVM_INFO ../src/mst/axi4_master_monitor.sv(246) @ 745000: uvm_test_top.env.master_agent.mon [axi4_master_monitor] AR observed: ID=0xc ADDR=0xbca2b32b LEN=7
# UVM_INFO ../src/slv/axi4_slave_monitor.sv(224) @ 745000: uvm_test_top.env.slave_agent.mon [axi4_slave_monitor] AR received: ID=0xc ADDR=0xbca2b32b LEN=7
# UVM_INFO ../src/slv/axi4_slave_driver.sv(386) @ 775000: uvm_test_top.env.slave_agent.drv [axi4_slave_driver] AR received: ID=0x2 ADDR=0xb15e2564 LEN=7 LOCK=AXI4_LOCK_NORMAL
# UVM_INFO ../src/slv/axi4_slave_monitor.sv(224) @ 775000: uvm_test_top.env.slave_agent.mon [axi4_slave_monitor] AR received: ID=0x2 ADDR=0xb15e2564 LEN=7
# UVM_INFO ../src/mst/axi4_master_monitor.sv(246) @ 775000: uvm_test_top.env.master_agent.mon [axi4_master_monitor] AR observed: ID=0x2 ADDR=0xb15e2564 LEN=7
# UVM_INFO ../src/slv/axi4_slave_driver.sv(386) @ 805000: uvm_test_top.env.slave_agent.drv [axi4_slave_driver] AR received: ID=0xd ADDR=0x9fdf15c0 LEN=7 LOCK=AXI4_LOCK_EXCLUSIVE
# UVM_INFO ../src/mst/axi4_master_monitor.sv(246) @ 805000: uvm_test_top.env.master_agent.mon [axi4_master_monitor] AR observed: ID=0xd ADDR=0x9fdf15c0 LEN=7
# UVM_INFO ../src/slv/axi4_slave_monitor.sv(224) @ 805000: uvm_test_top.env.slave_agent.mon [axi4_slave_monitor] AR received: ID=0xd ADDR=0x9fdf15c0 LEN=7
# UVM_INFO ../src/mst/axi4_master_monitor.sv(184) @ 825000: uvm_test_top.env.master_agent.mon [axi4_master_monitor] W data assembled: ID=0xc ADDR=0xd5281b50 8 beats
# UVM_INFO ../src/slv/axi4_slave_monitor.sv(167) @ 825000: uvm_test_top.env.slave_agent.mon [axi4_slave_monitor] W data assembled: ID=0xc ADDR=0xd5281b50 8 beats
# UVM_INFO ../src/slv/axi4_slave_driver.sv(386) @ 835000: uvm_test_top.env.slave_agent.drv [axi4_slave_driver] AR received: ID=0xe ADDR=0x1163bd30 LEN=15 LOCK=AXI4_LOCK_EXCLUSIVE
# UVM_INFO ../src/slv/axi4_slave_monitor.sv(224) @ 835000: uvm_test_top.env.slave_agent.mon [axi4_slave_monitor] AR received: ID=0xe ADDR=0x1163bd30 LEN=15
# UVM_INFO ../src/mst/axi4_master_monitor.sv(246) @ 835000: uvm_test_top.env.master_agent.mon [axi4_master_monitor] AR observed: ID=0xe ADDR=0x1163bd30 LEN=15
# UVM_INFO ../src/mst/axi4_master_driver.sv(289) @ 855000: uvm_test_top.env.master_agent.drv [axi4_master_driver] Master driver received B response: ID=0xc RESP=AXI4_RESP_OKAY
# UVM_INFO ../src/slv/axi4_slave_driver.sv(348) @ 855000: uvm_test_top.env.slave_agent.drv [axi4_slave_driver] Write complete: ID=0xc RESP=AXI4_RESP_OKAY
# UVM_INFO ../src/slv/axi4_slave_monitor.sv(189) @ 855000: uvm_test_top.env.slave_agent.mon [axi4_slave_monitor] Write response sent: ID=0xc ADDR=0xd5281b50 RESP=AXI4_RESP_OKAY
# UVM_INFO ../src/env/axi4_scoreboard.sv(108) @ 855000: uvm_test_top.env.scb [axi4_scoreboard] Slave AXI4_WRITE received: ID=0xc ADDR=0xd5281b50 LEN=7
# UVM_INFO ../src/mst/axi4_master_monitor.sv(210) @ 855000: uvm_test_top.env.master_agent.mon [axi4_master_monitor] Write complete: ID=0xc ADDR=0xd5281b50 RESP=AXI4_RESP_OKAY
# UVM_INFO ../src/env/axi4_scoreboard.sv(87) @ 855000: uvm_test_top.env.scb [axi4_scoreboard] Master AXI4_WRITE received: ID=0xc ADDR=0xd5281b50 LEN=7
# UVM_INFO ../src/env/axi4_scoreboard.sv(291) @ 855000: uvm_test_top.env.scb [axi4_scoreboard] [WRITE] MATCH #21: ID=0xc ADDR=0xd5281b50 LEN=7
# UVM_INFO ../src/env/axi4_scoreboard.sv(226) @ 855000: uvm_test_top.env.scb [axi4_scoreboard] [REF_MEM_WRITE_IGNORED] Write ignored for ADDR=0xd5281b50 LOCK=AXI4_LOCK_EXCLUSIVE RESP=AXI4_RESP_OKAY
# UVM_INFO ../src/slv/axi4_slave_driver.sv(386) @ 865000: uvm_test_top.env.slave_agent.drv [axi4_slave_driver] AR received: ID=0x9 ADDR=0x2915b736 LEN=15 LOCK=AXI4_LOCK_NORMAL
# UVM_INFO ../src/mst/axi4_master_monitor.sv(246) @ 865000: uvm_test_top.env.master_agent.mon [axi4_master_monitor] AR observed: ID=0x9 ADDR=0x2915b736 LEN=15
# UVM_INFO ../src/slv/axi4_slave_monitor.sv(224) @ 865000: uvm_test_top.env.slave_agent.mon [axi4_slave_monitor] AR received: ID=0x9 ADDR=0x2915b736 LEN=15
# UVM_INFO ../src/mst/axi4_master_driver.sv(348) @ 885000: uvm_test_top.env.master_agent.drv [axi4_master_driver] Master driver received all R beats for ID=0xf
# UVM_INFO ../src/slv/axi4_slave_driver.sv(501) @ 885000: uvm_test_top.env.slave_agent.drv [axi4_slave_driver] Read complete: ID=0xf ADDR=0x1589e83d RESP=AXI4_RESP_OKAY  8 beats sent
# UVM_INFO ../src/mst/axi4_master_monitor.sv(314) @ 885000: uvm_test_top.env.master_agent.mon [axi4_master_monitor] Read complete: ID=0xf ADDR=0x1589e83d 8 beats
# UVM_INFO ../src/env/axi4_scoreboard.sv(87) @ 885000: uvm_test_top.env.scb [axi4_scoreboard] Master AXI4_READ received: ID=0xf ADDR=0x1589e83d LEN=7
# UVM_INFO ../src/slv/axi4_slave_monitor.sv(287) @ 885000: uvm_test_top.env.slave_agent.mon [axi4_slave_monitor] Read data sent: ID=0xf ADDR=0x1589e83d 8 beats
# UVM_INFO ../src/env/axi4_scoreboard.sv(108) @ 885000: uvm_test_top.env.scb [axi4_scoreboard] Slave AXI4_READ received: ID=0xf ADDR=0x1589e83d LEN=7
# UVM_INFO ../src/env/axi4_scoreboard.sv(291) @ 885000: uvm_test_top.env.scb [axi4_scoreboard] [READ] MATCH #22: ID=0xf ADDR=0x1589e83d LEN=7
# UVM_INFO ../src/slv/axi4_slave_driver.sv(386) @ 895000: uvm_test_top.env.slave_agent.drv [axi4_slave_driver] AR received: ID=0xe ADDR=0xd63a1b80 LEN=15 LOCK=AXI4_LOCK_EXCLUSIVE
# UVM_INFO ../src/slv/axi4_slave_monitor.sv(224) @ 895000: uvm_test_top.env.slave_agent.mon [axi4_slave_monitor] AR received: ID=0xe ADDR=0xd63a1b80 LEN=15
# UVM_INFO ../src/mst/axi4_master_monitor.sv(246) @ 895000: uvm_test_top.env.master_agent.mon [axi4_master_monitor] AR observed: ID=0xe ADDR=0xd63a1b80 LEN=15
# UVM_INFO ../src/slv/axi4_slave_driver.sv(386) @ 925000: uvm_test_top.env.slave_agent.drv [axi4_slave_driver] AR received: ID=0xb ADDR=0x4af68691 LEN=0 LOCK=AXI4_LOCK_NORMAL
# UVM_INFO ../src/mst/axi4_master_monitor.sv(246) @ 925000: uvm_test_top.env.master_agent.mon [axi4_master_monitor] AR observed: ID=0xb ADDR=0x4af68691 LEN=0
# UVM_INFO ../src/slv/axi4_slave_monitor.sv(224) @ 925000: uvm_test_top.env.slave_agent.mon [axi4_slave_monitor] AR received: ID=0xb ADDR=0x4af68691 LEN=0
# UVM_INFO ../src/slv/axi4_slave_driver.sv(386) @ 955000: uvm_test_top.env.slave_agent.drv [axi4_slave_driver] AR received: ID=0xc ADDR=0xbb269618 LEN=0 LOCK=AXI4_LOCK_NORMAL
# UVM_INFO ../src/slv/axi4_slave_monitor.sv(224) @ 955000: uvm_test_top.env.slave_agent.mon [axi4_slave_monitor] AR received: ID=0xc ADDR=0xbb269618 LEN=0
# UVM_INFO ../src/mst/axi4_master_monitor.sv(246) @ 955000: uvm_test_top.env.master_agent.mon [axi4_master_monitor] AR observed: ID=0xc ADDR=0xbb269618 LEN=0
# UVM_INFO ../src/slv/axi4_slave_driver.sv(386) @ 985000: uvm_test_top.env.slave_agent.drv [axi4_slave_driver] AR received: ID=0xe ADDR=0xce4e4a8e LEN=0 LOCK=AXI4_LOCK_NORMAL
# UVM_INFO ../src/mst/axi4_master_monitor.sv(246) @ 985000: uvm_test_top.env.master_agent.mon [axi4_master_monitor] AR observed: ID=0xe ADDR=0xce4e4a8e LEN=0
# UVM_INFO ../src/slv/axi4_slave_monitor.sv(224) @ 985000: uvm_test_top.env.slave_agent.mon [axi4_slave_monitor] AR received: ID=0xe ADDR=0xce4e4a8e LEN=0
# UVM_INFO ../src/mst/axi4_master_monitor.sv(184) @ 985000: uvm_test_top.env.master_agent.mon [axi4_master_monitor] W data assembled: ID=0xc ADDR=0x96dc3394 8 beats
# UVM_INFO ../src/slv/axi4_slave_monitor.sv(167) @ 985000: uvm_test_top.env.slave_agent.mon [axi4_slave_monitor] W data assembled: ID=0xc ADDR=0x96dc3394 8 beats
# UVM_INFO ../src/mst/axi4_master_driver.sv(289) @ 1015000: uvm_test_top.env.master_agent.drv [axi4_master_driver] Master driver received B response: ID=0xc RESP=AXI4_RESP_OKAY
# UVM_INFO ../src/slv/axi4_slave_driver.sv(386) @ 1015000: uvm_test_top.env.slave_agent.drv [axi4_slave_driver] AR received: ID=0xb ADDR=0x4bb1bb81 LEN=2 LOCK=AXI4_LOCK_NORMAL
# UVM_INFO ../src/slv/axi4_slave_driver.sv(348) @ 1015000: uvm_test_top.env.slave_agent.drv [axi4_slave_driver] Write complete: ID=0xc RESP=AXI4_RESP_OKAY
# UVM_INFO ../src/slv/axi4_slave_monitor.sv(224) @ 1015000: uvm_test_top.env.slave_agent.mon [axi4_slave_monitor] AR received: ID=0xb ADDR=0x4bb1bb81 LEN=2
# UVM_INFO ../src/slv/axi4_slave_monitor.sv(189) @ 1015000: uvm_test_top.env.slave_agent.mon [axi4_slave_monitor] Write response sent: ID=0xc ADDR=0x96dc3394 RESP=AXI4_RESP_OKAY
# UVM_INFO ../src/env/axi4_scoreboard.sv(108) @ 1015000: uvm_test_top.env.scb [axi4_scoreboard] Slave AXI4_WRITE received: ID=0xc ADDR=0x96dc3394 LEN=7
# UVM_INFO ../src/mst/axi4_master_monitor.sv(246) @ 1015000: uvm_test_top.env.master_agent.mon [axi4_master_monitor] AR observed: ID=0xb ADDR=0x4bb1bb81 LEN=2
# UVM_INFO ../src/mst/axi4_master_monitor.sv(210) @ 1015000: uvm_test_top.env.master_agent.mon [axi4_master_monitor] Write complete: ID=0xc ADDR=0x96dc3394 RESP=AXI4_RESP_OKAY
# UVM_INFO ../src/env/axi4_scoreboard.sv(87) @ 1015000: uvm_test_top.env.scb [axi4_scoreboard] Master AXI4_WRITE received: ID=0xc ADDR=0x96dc3394 LEN=7
# UVM_INFO ../src/env/axi4_scoreboard.sv(291) @ 1015000: uvm_test_top.env.scb [axi4_scoreboard] [WRITE] MATCH #23: ID=0xc ADDR=0x96dc3394 LEN=7
# UVM_INFO ../src/env/axi4_scoreboard.sv(219) @ 1015000: uvm_test_top.env.scb [axi4_scoreboard] [REF_MEM_WRITE] Addr=0x96dc3396 Data=0xa6
# UVM_INFO ../src/env/axi4_scoreboard.sv(219) @ 1015000: uvm_test_top.env.scb [axi4_scoreboard] [REF_MEM_WRITE] Addr=0x96dc3394 Data=0xba
# UVM_INFO ../src/env/axi4_scoreboard.sv(219) @ 1015000: uvm_test_top.env.scb [axi4_scoreboard] [REF_MEM_WRITE] Addr=0x96dc3396 Data=0x96
# UVM_INFO ../src/env/axi4_scoreboard.sv(219) @ 1015000: uvm_test_top.env.scb [axi4_scoreboard] [REF_MEM_WRITE] Addr=0x96dc3397 Data=0x5e
# UVM_INFO ../src/env/axi4_scoreboard.sv(219) @ 1015000: uvm_test_top.env.scb [axi4_scoreboard] [REF_MEM_WRITE] Addr=0x96dc3394 Data=0xaa
# UVM_INFO ../src/env/axi4_scoreboard.sv(219) @ 1015000: uvm_test_top.env.scb [axi4_scoreboard] [REF_MEM_WRITE] Addr=0x96dc3396 Data=0xd5
# UVM_INFO ../src/env/axi4_scoreboard.sv(219) @ 1015000: uvm_test_top.env.scb [axi4_scoreboard] [REF_MEM_WRITE] Addr=0x96dc3395 Data=0x61
# UVM_INFO ../src/env/axi4_scoreboard.sv(219) @ 1015000: uvm_test_top.env.scb [axi4_scoreboard] [REF_MEM_WRITE] Addr=0x96dc3396 Data=0xa1
# UVM_INFO ../src/env/axi4_scoreboard.sv(219) @ 1015000: uvm_test_top.env.scb [axi4_scoreboard] [REF_MEM_WRITE] Addr=0x96dc3397 Data=0x8c
# UVM_INFO ../src/env/axi4_scoreboard.sv(219) @ 1015000: uvm_test_top.env.scb [axi4_scoreboard] [REF_MEM_WRITE] Addr=0x96dc3394 Data=0x31
# UVM_INFO ../src/env/axi4_scoreboard.sv(219) @ 1015000: uvm_test_top.env.scb [axi4_scoreboard] [REF_MEM_WRITE] Addr=0x96dc3396 Data=0x93
# UVM_INFO ../src/env/axi4_scoreboard.sv(219) @ 1015000: uvm_test_top.env.scb [axi4_scoreboard] [REF_MEM_WRITE] Addr=0x96dc3397 Data=0x03
# UVM_INFO ../src/env/axi4_scoreboard.sv(219) @ 1015000: uvm_test_top.env.scb [axi4_scoreboard] [REF_MEM_WRITE] Addr=0x96dc3394 Data=0x03
# UVM_INFO ../src/env/axi4_scoreboard.sv(219) @ 1015000: uvm_test_top.env.scb [axi4_scoreboard] [REF_MEM_WRITE] Addr=0x96dc3396 Data=0x72
# UVM_INFO ../src/mst/axi4_master_driver.sv(348) @ 1045000: uvm_test_top.env.master_agent.drv [axi4_master_driver] Master driver received all R beats for ID=0x7
# UVM_INFO ../src/slv/axi4_slave_driver.sv(386) @ 1045000: uvm_test_top.env.slave_agent.drv [axi4_slave_driver] AR received: ID=0x7 ADDR=0x4ad1792d LEN=2 LOCK=AXI4_LOCK_NORMAL
# UVM_INFO ../src/slv/axi4_slave_driver.sv(501) @ 1045000: uvm_test_top.env.slave_agent.drv [axi4_slave_driver] Read complete: ID=0x7 ADDR=0x018d4391 RESP=AXI4_RESP_OKAY  8 beats sent
# UVM_INFO ../src/mst/axi4_master_monitor.sv(246) @ 1045000: uvm_test_top.env.master_agent.mon [axi4_master_monitor] AR observed: ID=0x7 ADDR=0x4ad1792d LEN=2
# UVM_INFO ../src/mst/axi4_master_monitor.sv(314) @ 1045000: uvm_test_top.env.master_agent.mon [axi4_master_monitor] Read complete: ID=0x7 ADDR=0x018d4391 8 beats
# UVM_INFO ../src/env/axi4_scoreboard.sv(87) @ 1045000: uvm_test_top.env.scb [axi4_scoreboard] Master AXI4_READ received: ID=0x7 ADDR=0x018d4391 LEN=7
# UVM_INFO ../src/slv/axi4_slave_monitor.sv(224) @ 1045000: uvm_test_top.env.slave_agent.mon [axi4_slave_monitor] AR received: ID=0x7 ADDR=0x4ad1792d LEN=2
# UVM_INFO ../src/slv/axi4_slave_monitor.sv(287) @ 1045000: uvm_test_top.env.slave_agent.mon [axi4_slave_monitor] Read data sent: ID=0x7 ADDR=0x018d4391 8 beats
# UVM_INFO ../src/env/axi4_scoreboard.sv(108) @ 1045000: uvm_test_top.env.scb [axi4_scoreboard] Slave AXI4_READ received: ID=0x7 ADDR=0x018d4391 LEN=7
# UVM_INFO ../src/env/axi4_scoreboard.sv(291) @ 1045000: uvm_test_top.env.scb [axi4_scoreboard] [READ] MATCH #24: ID=0x7 ADDR=0x018d4391 LEN=7
# UVM_INFO ../src/slv/axi4_slave_driver.sv(386) @ 1075000: uvm_test_top.env.slave_agent.drv [axi4_slave_driver] AR received: ID=0xf ADDR=0x3a94fc1b LEN=2 LOCK=AXI4_LOCK_NORMAL
# UVM_INFO ../src/slv/axi4_slave_monitor.sv(224) @ 1075000: uvm_test_top.env.slave_agent.mon [axi4_slave_monitor] AR received: ID=0xf ADDR=0x3a94fc1b LEN=2
# UVM_INFO ../src/mst/axi4_master_monitor.sv(246) @ 1075000: uvm_test_top.env.master_agent.mon [axi4_master_monitor] AR observed: ID=0xf ADDR=0x3a94fc1b LEN=2
# UVM_INFO ../src/test/axi4_burst_sweep_test.sv(32) @ 1095000: uvm_test_top [axi4_burst_sweep_test] Burst sweep test complete
# UVM_INFO ../src/slv/axi4_slave_driver.sv(386) @ 1105000: uvm_test_top.env.slave_agent.drv [axi4_slave_driver] AR received: ID=0x7 ADDR=0x7f2f88a9 LEN=10 LOCK=AXI4_LOCK_NORMAL
# UVM_INFO ../src/mst/axi4_master_monitor.sv(246) @ 1105000: uvm_test_top.env.master_agent.mon [axi4_master_monitor] AR observed: ID=0x7 ADDR=0x7f2f88a9 LEN=10
# UVM_INFO ../src/slv/axi4_slave_monitor.sv(224) @ 1105000: uvm_test_top.env.slave_agent.mon [axi4_slave_monitor] AR received: ID=0x7 ADDR=0x7f2f88a9 LEN=10
# UVM_INFO ../src/slv/axi4_slave_driver.sv(386) @ 1135000: uvm_test_top.env.slave_agent.drv [axi4_slave_driver] AR received: ID=0xd ADDR=0xceb36052 LEN=10 LOCK=AXI4_LOCK_NORMAL
# UVM_INFO ../src/slv/axi4_slave_monitor.sv(224) @ 1135000: uvm_test_top.env.slave_agent.mon [axi4_slave_monitor] AR received: ID=0xd ADDR=0xceb36052 LEN=10
# UVM_INFO ../src/mst/axi4_master_monitor.sv(246) @ 1135000: uvm_test_top.env.master_agent.mon [axi4_master_monitor] AR observed: ID=0xd ADDR=0xceb36052 LEN=10
# UVM_INFO ../src/slv/axi4_slave_driver.sv(386) @ 1165000: uvm_test_top.env.slave_agent.drv [axi4_slave_driver] AR received: ID=0x3 ADDR=0x24d4047d LEN=10 LOCK=AXI4_LOCK_NORMAL
# UVM_INFO ../src/mst/axi4_master_monitor.sv(246) @ 1165000: uvm_test_top.env.master_agent.mon [axi4_master_monitor] AR observed: ID=0x3 ADDR=0x24d4047d LEN=10
# UVM_INFO ../src/slv/axi4_slave_monitor.sv(224) @ 1165000: uvm_test_top.env.slave_agent.mon [axi4_slave_monitor] AR received: ID=0x3 ADDR=0x24d4047d LEN=10
# UVM_INFO ../src/slv/axi4_slave_driver.sv(386) @ 1195000: uvm_test_top.env.slave_agent.drv [axi4_slave_driver] AR received: ID=0x8 ADDR=0x4969f61b LEN=32 LOCK=AXI4_LOCK_NORMAL
# UVM_INFO ../src/slv/axi4_slave_monitor.sv(224) @ 1195000: uvm_test_top.env.slave_agent.mon [axi4_slave_monitor] AR received: ID=0x8 ADDR=0x4969f61b LEN=32
# UVM_INFO ../src/mst/axi4_master_monitor.sv(246) @ 1195000: uvm_test_top.env.master_agent.mon [axi4_master_monitor] AR observed: ID=0x8 ADDR=0x4969f61b LEN=32
# UVM_INFO ../src/slv/axi4_slave_driver.sv(386) @ 1225000: uvm_test_top.env.slave_agent.drv [axi4_slave_driver] AR received: ID=0xf ADDR=0x9f4a3a8f LEN=32 LOCK=AXI4_LOCK_NORMAL
# UVM_INFO ../src/mst/axi4_master_monitor.sv(246) @ 1225000: uvm_test_top.env.master_agent.mon [axi4_master_monitor] AR observed: ID=0xf ADDR=0x9f4a3a8f LEN=32
# UVM_INFO ../src/slv/axi4_slave_monitor.sv(224) @ 1225000: uvm_test_top.env.slave_agent.mon [axi4_slave_monitor] AR received: ID=0xf ADDR=0x9f4a3a8f LEN=32
# UVM_INFO ../src/slv/axi4_slave_driver.sv(386) @ 1255000: uvm_test_top.env.slave_agent.drv [axi4_slave_driver] AR received: ID=0xc ADDR=0x83c775b8 LEN=32 LOCK=AXI4_LOCK_NORMAL
# UVM_INFO ../src/slv/axi4_slave_monitor.sv(224) @ 1255000: uvm_test_top.env.slave_agent.mon [axi4_slave_monitor] AR received: ID=0xc ADDR=0x83c775b8 LEN=32
# UVM_INFO ../src/mst/axi4_master_monitor.sv(246) @ 1255000: uvm_test_top.env.master_agent.mon [axi4_master_monitor] AR observed: ID=0xc ADDR=0x83c775b8 LEN=32
# UVM_INFO ../src/slv/axi4_slave_driver.sv(386) @ 1285000: uvm_test_top.env.slave_agent.drv [axi4_slave_driver] AR received: ID=0xe ADDR=0x8c67d0a4 LEN=100 LOCK=AXI4_LOCK_NORMAL
# UVM_INFO ../src/mst/axi4_master_monitor.sv(246) @ 1285000: uvm_test_top.env.master_agent.mon [axi4_master_monitor] AR observed: ID=0xe ADDR=0x8c67d0a4 LEN=100
# UVM_INFO ../src/slv/axi4_slave_monitor.sv(224) @ 1285000: uvm_test_top.env.slave_agent.mon [axi4_slave_monitor] AR received: ID=0xe ADDR=0x8c67d0a4 LEN=100
# UVM_INFO ../src/mst/axi4_master_monitor.sv(184) @ 1305000: uvm_test_top.env.master_agent.mon [axi4_master_monitor] W data assembled: ID=0xa ADDR=0xa5430514 16 beats
# UVM_INFO ../src/slv/axi4_slave_monitor.sv(167) @ 1305000: uvm_test_top.env.slave_agent.mon [axi4_slave_monitor] W data assembled: ID=0xa ADDR=0xa5430514 16 beats
# UVM_INFO ../src/slv/axi4_slave_driver.sv(386) @ 1315000: uvm_test_top.env.slave_agent.drv [axi4_slave_driver] AR received: ID=0xc ADDR=0x549d4856 LEN=100 LOCK=AXI4_LOCK_NORMAL
# UVM_INFO ../src/slv/axi4_slave_monitor.sv(224) @ 1315000: uvm_test_top.env.slave_agent.mon [axi4_slave_monitor] AR received: ID=0xc ADDR=0x549d4856 LEN=100
# UVM_INFO ../src/mst/axi4_master_monitor.sv(246) @ 1315000: uvm_test_top.env.master_agent.mon [axi4_master_monitor] AR observed: ID=0xc ADDR=0x549d4856 LEN=100
# UVM_INFO ../src/mst/axi4_master_driver.sv(289) @ 1335000: uvm_test_top.env.master_agent.drv [axi4_master_driver] Master driver received B response: ID=0xa RESP=AXI4_RESP_OKAY
# UVM_INFO ../src/slv/axi4_slave_driver.sv(348) @ 1335000: uvm_test_top.env.slave_agent.drv [axi4_slave_driver] Write complete: ID=0xa RESP=AXI4_RESP_OKAY
# UVM_INFO ../src/slv/axi4_slave_monitor.sv(189) @ 1335000: uvm_test_top.env.slave_agent.mon [axi4_slave_monitor] Write response sent: ID=0xa ADDR=0xa5430514 RESP=AXI4_RESP_OKAY
# UVM_INFO ../src/env/axi4_scoreboard.sv(108) @ 1335000: uvm_test_top.env.scb [axi4_scoreboard] Slave AXI4_WRITE received: ID=0xa ADDR=0xa5430514 LEN=15
# UVM_INFO ../src/mst/axi4_master_monitor.sv(210) @ 1335000: uvm_test_top.env.master_agent.mon [axi4_master_monitor] Write complete: ID=0xa ADDR=0xa5430514 RESP=AXI4_RESP_OKAY
# UVM_INFO ../src/env/axi4_scoreboard.sv(87) @ 1335000: uvm_test_top.env.scb [axi4_scoreboard] Master AXI4_WRITE received: ID=0xa ADDR=0xa5430514 LEN=15
# UVM_INFO ../src/env/axi4_scoreboard.sv(291) @ 1335000: uvm_test_top.env.scb [axi4_scoreboard] [WRITE] MATCH #25: ID=0xa ADDR=0xa5430514 LEN=15
# UVM_INFO ../src/env/axi4_scoreboard.sv(219) @ 1335000: uvm_test_top.env.scb [axi4_scoreboard] [REF_MEM_WRITE] Addr=0xa5430515 Data=0x2d
# UVM_INFO ../src/env/axi4_scoreboard.sv(219) @ 1335000: uvm_test_top.env.scb [axi4_scoreboard] [REF_MEM_WRITE] Addr=0xa5430516 Data=0x44
# UVM_INFO ../src/env/axi4_scoreboard.sv(219) @ 1335000: uvm_test_top.env.scb [axi4_scoreboard] [REF_MEM_WRITE] Addr=0xa5430514 Data=0x4d
# UVM_INFO ../src/env/axi4_scoreboard.sv(219) @ 1335000: uvm_test_top.env.scb [axi4_scoreboard] [REF_MEM_WRITE] Addr=0xa5430516 Data=0x85
# UVM_INFO ../src/env/axi4_scoreboard.sv(219) @ 1335000: uvm_test_top.env.scb [axi4_scoreboard] [REF_MEM_WRITE] Addr=0xa5430517 Data=0x3d
# UVM_INFO ../src/env/axi4_scoreboard.sv(219) @ 1335000: uvm_test_top.env.scb [axi4_scoreboard] [REF_MEM_WRITE] Addr=0xa5430514 Data=0x1c
# UVM_INFO ../src/env/axi4_scoreboard.sv(219) @ 1335000: uvm_test_top.env.scb [axi4_scoreboard] [REF_MEM_WRITE] Addr=0xa5430515 Data=0x4b
# UVM_INFO ../src/env/axi4_scoreboard.sv(219) @ 1335000: uvm_test_top.env.scb [axi4_scoreboard] [REF_MEM_WRITE] Addr=0xa5430517 Data=0xb4
# UVM_INFO ../src/env/axi4_scoreboard.sv(219) @ 1335000: uvm_test_top.env.scb [axi4_scoreboard] [REF_MEM_WRITE] Addr=0xa5430515 Data=0xcc
# UVM_INFO ../src/env/axi4_scoreboard.sv(219) @ 1335000: uvm_test_top.env.scb [axi4_scoreboard] [REF_MEM_WRITE] Addr=0xa5430516 Data=0xdb
# UVM_INFO ../src/env/axi4_scoreboard.sv(219) @ 1335000: uvm_test_top.env.scb [axi4_scoreboard] [REF_MEM_WRITE] Addr=0xa5430514 Data=0x1a
# UVM_INFO ../src/env/axi4_scoreboard.sv(219) @ 1335000: uvm_test_top.env.scb [axi4_scoreboard] [REF_MEM_WRITE] Addr=0xa5430515 Data=0x15
# UVM_INFO ../src/env/axi4_scoreboard.sv(219) @ 1335000: uvm_test_top.env.scb [axi4_scoreboard] [REF_MEM_WRITE] Addr=0xa5430517 Data=0xea
# UVM_INFO ../src/env/axi4_scoreboard.sv(219) @ 1335000: uvm_test_top.env.scb [axi4_scoreboard] [REF_MEM_WRITE] Addr=0xa5430516 Data=0x72
# UVM_INFO ../src/env/axi4_scoreboard.sv(219) @ 1335000: uvm_test_top.env.scb [axi4_scoreboard] [REF_MEM_WRITE] Addr=0xa5430516 Data=0x1e
# UVM_INFO ../src/env/axi4_scoreboard.sv(219) @ 1335000: uvm_test_top.env.scb [axi4_scoreboard] [REF_MEM_WRITE] Addr=0xa5430517 Data=0x05
# UVM_INFO ../src/env/axi4_scoreboard.sv(219) @ 1335000: uvm_test_top.env.scb [axi4_scoreboard] [REF_MEM_WRITE] Addr=0xa5430515 Data=0xd8
# UVM_INFO ../src/env/axi4_scoreboard.sv(219) @ 1335000: uvm_test_top.env.scb [axi4_scoreboard] [REF_MEM_WRITE] Addr=0xa5430517 Data=0x51
# UVM_INFO ../src/env/axi4_scoreboard.sv(219) @ 1335000: uvm_test_top.env.scb [axi4_scoreboard] [REF_MEM_WRITE] Addr=0xa5430515 Data=0xf1
# UVM_INFO ../src/env/axi4_scoreboard.sv(219) @ 1335000: uvm_test_top.env.scb [axi4_scoreboard] [REF_MEM_WRITE] Addr=0xa5430517 Data=0xd4
# UVM_INFO ../src/env/axi4_scoreboard.sv(219) @ 1335000: uvm_test_top.env.scb [axi4_scoreboard] [REF_MEM_WRITE] Addr=0xa5430514 Data=0x91
# UVM_INFO ../src/env/axi4_scoreboard.sv(219) @ 1335000: uvm_test_top.env.scb [axi4_scoreboard] [REF_MEM_WRITE] Addr=0xa5430515 Data=0xd8
# UVM_INFO ../src/env/axi4_scoreboard.sv(219) @ 1335000: uvm_test_top.env.scb [axi4_scoreboard] [REF_MEM_WRITE] Addr=0xa5430514 Data=0x2e
# UVM_INFO ../src/env/axi4_scoreboard.sv(219) @ 1335000: uvm_test_top.env.scb [axi4_scoreboard] [REF_MEM_WRITE] Addr=0xa5430515 Data=0xaf
# UVM_INFO ../src/env/axi4_scoreboard.sv(219) @ 1335000: uvm_test_top.env.scb [axi4_scoreboard] [REF_MEM_WRITE] Addr=0xa5430517 Data=0x86
# UVM_INFO ../src/env/axi4_scoreboard.sv(219) @ 1335000: uvm_test_top.env.scb [axi4_scoreboard] [REF_MEM_WRITE] Addr=0xa5430514 Data=0x59
# UVM_INFO ../src/env/axi4_scoreboard.sv(219) @ 1335000: uvm_test_top.env.scb [axi4_scoreboard] [REF_MEM_WRITE] Addr=0xa5430515 Data=0x71
# UVM_INFO ../src/env/axi4_scoreboard.sv(219) @ 1335000: uvm_test_top.env.scb [axi4_scoreboard] [REF_MEM_WRITE] Addr=0xa5430516 Data=0x5d
# UVM_INFO ../src/env/axi4_scoreboard.sv(219) @ 1335000: uvm_test_top.env.scb [axi4_scoreboard] [REF_MEM_WRITE] Addr=0xa5430517 Data=0xb2
# UVM_INFO ../src/slv/axi4_slave_driver.sv(386) @ 1345000: uvm_test_top.env.slave_agent.drv [axi4_slave_driver] AR received: ID=0xa ADDR=0x89a353b3 LEN=100 LOCK=AXI4_LOCK_NORMAL
# UVM_INFO ../src/mst/axi4_master_monitor.sv(246) @ 1345000: uvm_test_top.env.master_agent.mon [axi4_master_monitor] AR observed: ID=0xa ADDR=0x89a353b3 LEN=100
# UVM_INFO ../src/slv/axi4_slave_monitor.sv(224) @ 1345000: uvm_test_top.env.slave_agent.mon [axi4_slave_monitor] AR received: ID=0xa ADDR=0x89a353b3 LEN=100
# UVM_INFO ../src/slv/axi4_slave_driver.sv(228) @ 1355000: uvm_test_top.env.slave_agent.drv [axi4_slave_driver] AW received: ID=0x3 ADDR=0x12ffece9 LEN=15 LOCK=AXI4_LOCK_NORMAL
# UVM_INFO ../src/slv/axi4_slave_monitor.sv(116) @ 1355000: uvm_test_top.env.slave_agent.mon [axi4_slave_monitor] AW received: ID=0x3 ADDR=0x12ffece9 LEN=15
# UVM_INFO ../src/mst/axi4_master_monitor.sv(124) @ 1355000: uvm_test_top.env.master_agent.mon [axi4_master_monitor] AW observed: ID=0x3 ADDR=0x12ffece9 LEN=15
# UVM_INFO ../src/mst/axi4_master_driver.sv(348) @ 1365000: uvm_test_top.env.master_agent.drv [axi4_master_driver] Master driver received all R beats for ID=0x3
# UVM_INFO ../src/slv/axi4_slave_driver.sv(501) @ 1365000: uvm_test_top.env.slave_agent.drv [axi4_slave_driver] Read complete: ID=0x3 ADDR=0x1bd73669 RESP=AXI4_RESP_OKAY  16 beats sent
# UVM_INFO ../src/mst/axi4_master_monitor.sv(314) @ 1365000: uvm_test_top.env.master_agent.mon [axi4_master_monitor] Read complete: ID=0x3 ADDR=0x1bd73669 16 beats
# UVM_INFO ../src/env/axi4_scoreboard.sv(87) @ 1365000: uvm_test_top.env.scb [axi4_scoreboard] Master AXI4_READ received: ID=0x3 ADDR=0x1bd73669 LEN=15
# UVM_INFO ../src/slv/axi4_slave_monitor.sv(287) @ 1365000: uvm_test_top.env.slave_agent.mon [axi4_slave_monitor] Read data sent: ID=0x3 ADDR=0x1bd73669 16 beats
# UVM_INFO ../src/env/axi4_scoreboard.sv(108) @ 1365000: uvm_test_top.env.scb [axi4_scoreboard] Slave AXI4_READ received: ID=0x3 ADDR=0x1bd73669 LEN=15
# UVM_INFO ../src/env/axi4_scoreboard.sv(291) @ 1365000: uvm_test_top.env.scb [axi4_scoreboard] [READ] MATCH #26: ID=0x3 ADDR=0x1bd73669 LEN=15
# UVM_INFO ../src/slv/axi4_slave_driver.sv(386) @ 1375000: uvm_test_top.env.slave_agent.drv [axi4_slave_driver] AR received: ID=0xa ADDR=0xd3ca0ed4 LEN=255 LOCK=AXI4_LOCK_NORMAL
# UVM_INFO ../src/slv/axi4_slave_monitor.sv(224) @ 1375000: uvm_test_top.env.slave_agent.mon [axi4_slave_monitor] AR received: ID=0xa ADDR=0xd3ca0ed4 LEN=255
# UVM_INFO ../src/mst/axi4_master_monitor.sv(246) @ 1375000: uvm_test_top.env.master_agent.mon [axi4_master_monitor] AR observed: ID=0xa ADDR=0xd3ca0ed4 LEN=255
# UVM_INFO ../src/slv/axi4_slave_driver.sv(228) @ 1385000: uvm_test_top.env.slave_agent.drv [axi4_slave_driver] AW received: ID=0x6 ADDR=0x8090bb00 LEN=15 LOCK=AXI4_LOCK_EXCLUSIVE
# UVM_INFO ../src/mst/axi4_master_monitor.sv(124) @ 1385000: uvm_test_top.env.master_agent.mon [axi4_master_monitor] AW observed: ID=0x6 ADDR=0x8090bb00 LEN=15
# UVM_INFO ../src/slv/axi4_slave_monitor.sv(116) @ 1385000: uvm_test_top.env.slave_agent.mon [axi4_slave_monitor] AW received: ID=0x6 ADDR=0x8090bb00 LEN=15
# UVM_INFO ../src/slv/axi4_slave_driver.sv(386) @ 1405000: uvm_test_top.env.slave_agent.drv [axi4_slave_driver] AR received: ID=0xd ADDR=0x39f40745 LEN=255 LOCK=AXI4_LOCK_NORMAL
# UVM_INFO ../src/mst/axi4_master_monitor.sv(246) @ 1405000: uvm_test_top.env.master_agent.mon [axi4_master_monitor] AR observed: ID=0xd ADDR=0x39f40745 LEN=255
# UVM_INFO ../src/slv/axi4_slave_monitor.sv(224) @ 1405000: uvm_test_top.env.slave_agent.mon [axi4_slave_monitor] AR received: ID=0xd ADDR=0x39f40745 LEN=255
# UVM_INFO ../src/slv/axi4_slave_driver.sv(228) @ 1415000: uvm_test_top.env.slave_agent.drv [axi4_slave_driver] AW received: ID=0x3 ADDR=0x611e79dc LEN=1 LOCK=AXI4_LOCK_EXCLUSIVE
# UVM_INFO ../src/slv/axi4_slave_monitor.sv(116) @ 1415000: uvm_test_top.env.slave_agent.mon [axi4_slave_monitor] AW received: ID=0x3 ADDR=0x611e79dc LEN=1
# UVM_INFO ../src/mst/axi4_master_monitor.sv(124) @ 1415000: uvm_test_top.env.master_agent.mon [axi4_master_monitor] AW observed: ID=0x3 ADDR=0x611e79dc LEN=1
# UVM_INFO ../src/slv/axi4_slave_driver.sv(386) @ 1435000: uvm_test_top.env.slave_agent.drv [axi4_slave_driver] AR received: ID=0x2 ADDR=0x2ee8c6a2 LEN=255 LOCK=AXI4_LOCK_NORMAL
# UVM_INFO ../src/slv/axi4_slave_monitor.sv(224) @ 1435000: uvm_test_top.env.slave_agent.mon [axi4_slave_monitor] AR received: ID=0x2 ADDR=0x2ee8c6a2 LEN=255
# UVM_INFO ../src/mst/axi4_master_monitor.sv(246) @ 1435000: uvm_test_top.env.master_agent.mon [axi4_master_monitor] AR observed: ID=0x2 ADDR=0x2ee8c6a2 LEN=255
# UVM_INFO ../src/slv/axi4_slave_driver.sv(228) @ 1445000: uvm_test_top.env.slave_agent.drv [axi4_slave_driver] AW received: ID=0x1 ADDR=0x40ab05b6 LEN=1 LOCK=AXI4_LOCK_NORMAL
# UVM_INFO ../src/mst/axi4_master_monitor.sv(124) @ 1445000: uvm_test_top.env.master_agent.mon [axi4_master_monitor] AW observed: ID=0x1 ADDR=0x40ab05b6 LEN=1
# UVM_INFO ../src/slv/axi4_slave_monitor.sv(116) @ 1445000: uvm_test_top.env.slave_agent.mon [axi4_slave_monitor] AW received: ID=0x1 ADDR=0x40ab05b6 LEN=1
# UVM_INFO ../src/slv/axi4_slave_driver.sv(386) @ 1465000: uvm_test_top.env.slave_agent.drv [axi4_slave_driver] AR received: ID=0x9 ADDR=0xe0000000 LEN=0 LOCK=AXI4_LOCK_NORMAL
# UVM_INFO ../src/mst/axi4_master_monitor.sv(246) @ 1465000: uvm_test_top.env.master_agent.mon [axi4_master_monitor] AR observed: ID=0x9 ADDR=0xe0000000 LEN=0
# UVM_INFO ../src/slv/axi4_slave_monitor.sv(224) @ 1465000: uvm_test_top.env.slave_agent.mon [axi4_slave_monitor] AR received: ID=0x9 ADDR=0xe0000000 LEN=0
# UVM_INFO ../src/slv/axi4_slave_driver.sv(228) @ 1475000: uvm_test_top.env.slave_agent.drv [axi4_slave_driver] AW received: ID=0x5 ADDR=0x58be2220 LEN=1 LOCK=AXI4_LOCK_EXCLUSIVE
# UVM_INFO ../src/slv/axi4_slave_monitor.sv(116) @ 1475000: uvm_test_top.env.slave_agent.mon [axi4_slave_monitor] AW received: ID=0x5 ADDR=0x58be2220 LEN=1
# UVM_INFO ../src/mst/axi4_master_monitor.sv(124) @ 1475000: uvm_test_top.env.master_agent.mon [axi4_master_monitor] AW observed: ID=0x5 ADDR=0x58be2220 LEN=1
# UVM_INFO ../src/slv/axi4_slave_driver.sv(386) @ 1495000: uvm_test_top.env.slave_agent.drv [axi4_slave_driver] AR received: ID=0x0 ADDR=0xf0000000 LEN=0 LOCK=AXI4_LOCK_NORMAL
# UVM_INFO ../src/slv/axi4_slave_monitor.sv(224) @ 1495000: uvm_test_top.env.slave_agent.mon [axi4_slave_monitor] AR received: ID=0x0 ADDR=0xf0000000 LEN=0
# UVM_INFO ../src/mst/axi4_master_monitor.sv(246) @ 1495000: uvm_test_top.env.master_agent.mon [axi4_master_monitor] AR observed: ID=0x0 ADDR=0xf0000000 LEN=0
# UVM_INFO ../src/mst/axi4_master_monitor.sv(184) @ 1625000: uvm_test_top.env.master_agent.mon [axi4_master_monitor] W data assembled: ID=0x3 ADDR=0x12ffece9 16 beats
# UVM_INFO ../src/slv/axi4_slave_monitor.sv(167) @ 1625000: uvm_test_top.env.slave_agent.mon [axi4_slave_monitor] W data assembled: ID=0x3 ADDR=0x12ffece9 16 beats
# UVM_INFO ../src/mst/axi4_master_driver.sv(289) @ 1655000: uvm_test_top.env.master_agent.drv [axi4_master_driver] Master driver received B response: ID=0x3 RESP=AXI4_RESP_OKAY
