# vsim -c -coverage -sv_seed 20782951 "+UVM_TESTNAME=axi4_burst_sweep_test" "+UVM_VERBOSITY=UVM_HIGH" "+DUMP_VCD" -l ./report/logs/axi4_burst_sweep_test_run_2_seed_20782951.log -do "coverage save -onexit ./report/coverage/axi4_burst_sweep_test_run_2_seed_20782951.ucdb; run -all; quit -f" opt_tb_top 
# Start time: 10:54:02 on Jul 09,2026
# //  Questa Sim-64
# //  Version 10.6b linux_x86_64 May 25 2017
# //
# //  Copyright 1991-2017 Mentor Graphics Corporation
# //  All Rights Reserved.
# //
# //  QuestaSim and its associated documentation contain trade
# //  secrets and commercial or financial information that are the property of
# //  Mentor Graphics Corporation and are privileged, confidential,
# //  and exempt from disclosure under the Freedom of Information Act,
# //  5 U.S.C. Section 552. Furthermore, this information
# //  is prohibited from disclosure under the Trade Secrets Act,
# //  18 U.S.C. Section 1905.
# //
# Loading sv_std.std
# Loading work.axi4_if(fast)
# Loading mtiUvm.uvm_pkg
# Loading work.axi4_pkg(fast)
# Loading work.axi4_test_pkg(fast)
# Loading work.tb_top(fast)
# Loading work.axi4_if(fast)
# Loading work.axi4_sva(fast)
# Loading mtiUvm.questa_uvm_pkg(fast)
# Loading /cadtools/mentor/Questa_10.6b/questasim/uvm-1.1d/linux_x86_64/uvm_dpi.so
# coverage save -onexit ./report/coverage/axi4_burst_sweep_test_run_2_seed_20782951.ucdb
#  run -all
# ----------------------------------------------------------------
# UVM-1.1d
# (C) 2007-2013 Mentor Graphics Corporation
# (C) 2007-2013 Cadence Design Systems, Inc.
# (C) 2006-2013 Synopsys, Inc.
# (C) 2011-2013 Cypress Semiconductor Corp.
# ----------------------------------------------------------------
# 
#   ***********       IMPORTANT RELEASE NOTES         ************
# 
#   You are using a version of the UVM library that has been compiled
#   with `UVM_NO_DEPRECATED undefined.
#   See http://www.eda.org/svdb/view.php?id=3313 for more details.
# 
#   You are using a version of the UVM library that has been compiled
#   with `UVM_OBJECT_MUST_HAVE_CONSTRUCTOR undefined.
#   See http://www.eda.org/svdb/view.php?id=3770 for more details.
# 
#       (Specify +UVM_NO_RELNOTES to turn off this notice)
# 
# UVM_INFO verilog_src/questa_uvm_pkg-1.2/src/questa_uvm_pkg.sv(215) @ 0: reporter [Questa UVM] QUESTA_UVM-1.2.3
# UVM_INFO verilog_src/questa_uvm_pkg-1.2/src/questa_uvm_pkg.sv(217) @ 0: reporter [Questa UVM]  questa_uvm::init(+struct)
# UVM_INFO ../src/tb_top.sv(147) @ 0: reporter [TB_TOP] Virtual interface set in config_db
# UVM_INFO @ 0: reporter [RNTST] Running test axi4_burst_sweep_test...
# UVM_INFO ../src/tb_top.sv(161) @ 0: reporter [TB_TOP] Waveform VCD dumping enabled (axi4_vip.vcd)
# UVM_INFO ../src/env/axi4_vip_env.sv(83) @ 0: uvm_test_top.env [axi4_vip_env] slave_vif not set - reusing master_vif (passthrough mode)
# UVM_INFO ../src/env/axi4_vip_env.sv(93) @ 0: uvm_test_top.env [axi4_vip_env] Scoreboard created
# UVM_INFO ../src/env/axi4_vip_env.sv(100) @ 0: uvm_test_top.env [axi4_vip_env] Coverage collectors created
# UVM_INFO ../src/mst/axi4_master_agent.sv(69) @ 0: uvm_test_top.env.master_agent [axi4_master_agent] ACTIVE mode - driver + sequencer created
# UVM_INFO ../src/slv/axi4_slave_agent.sv(82) @ 0: uvm_test_top.env.slave_agent [axi4_slave_agent] ACTIVE mode - ready_delay=[0:0] resp_delay=[0:0]
# UVM_INFO ../src/env/axi4_vip_env.sv(116) @ 0: uvm_test_top.env [axi4_vip_env] Scoreboard connected: master_mon.ap -> scb, slave_mon.ap -> scb
# UVM_INFO ../src/env/axi4_vip_env.sv(124) @ 0: uvm_test_top.env [axi4_vip_env] Coverage connected: master_mon.ap -> master_cov, slave_mon.ap -> slave_cov
# UVM_INFO @ 0: reporter [UVMTOP] UVM testbench topology:
# ---------------------------------------------------------------
# Name                       Type                     Size  Value
# ---------------------------------------------------------------
# uvm_test_top               axi4_burst_sweep_test    -     @475 
#   env                      axi4_vip_env             -     @490 
#     master_agent           axi4_master_agent        -     @505 
#       drv                  axi4_master_driver       -     @569 
#         rsp_port           uvm_analysis_port        -     @584 
#         seq_item_port      uvm_seq_item_pull_port   -     @576 
#       mon                  axi4_master_monitor      -     @561 
#         ap                 uvm_analysis_port        -     @702 
#       sqr                  axi4_master_sequencer    -     @592 
#         rsp_export         uvm_analysis_export      -     @599 
#         seq_item_export    uvm_seq_item_pull_imp    -     @693 
#         arbitration_queue  array                    0     -    
#         lock_queue         array                    0     -    
#         num_last_reqs      integral                 32    'd1  
#         num_last_rsps      integral                 32    'd1  
#     master_cov             axi4_coverage            -     @526 
#       analysis_imp         uvm_analysis_imp         -     @533 
#     scb                    axi4_scoreboard          -     @519 
#       master_export        uvm_analysis_imp_master  -     @716 
#       slave_export         uvm_analysis_imp_slave   -     @724 
#     slave_agent            axi4_slave_agent         -     @512 
#       drv                  axi4_slave_driver        -     @755 
#         rsp_port           uvm_analysis_port        -     @770 
#         seq_item_port      uvm_seq_item_pull_port   -     @762 
#       mon                  axi4_slave_monitor       -     @737 
#         ap                 uvm_analysis_port        -     @894 
#       sqr                  axi4_slave_sequencer     -     @778 
#         rsp_export         uvm_analysis_export      -     @785 
#         seq_item_export    uvm_seq_item_pull_imp    -     @879 
#         arbitration_queue  array                    0     -    
#         lock_queue         array                    0     -    
#         num_last_reqs      integral                 32    'd1  
#         num_last_rsps      integral                 32    'd1  
#     slave_cov              axi4_coverage            -     @541 
#       analysis_imp         uvm_analysis_imp         -     @548 
# ---------------------------------------------------------------
# 
# UVM_INFO verilog_src/questa_uvm_pkg-1.2/src/questa_uvm_pkg.sv(277) @ 0: reporter [Questa UVM] End Of Elaboration
# UVM_INFO ../src/test/axi4_burst_sweep_test.sv(24) @ 0: uvm_test_top [axi4_burst_sweep_test] Starting burst parameters sweep test (including error injection)
# UVM_INFO ../src/seq/axi4_burst_sweep_seq.sv(38) @ 0: uvm_test_top.env.master_agent.sqr@@sweep_seq [axi4_burst_sweep_seq] Starting burst type, size, and length sweep sequence
# UVM_INFO ../src/tb_top.sv(49) @ 95000: reporter [TOP_TB] Reset de-asserted
# UVM_INFO ../src/slv/axi4_slave_driver.sv(131) @ 95000: uvm_test_top.env.slave_agent.drv [axi4_slave_driver] Reset deasserted - slave driver active
# UVM_INFO ../src/mst/axi4_master_driver.sv(64) @ 95000: uvm_test_top.env.master_agent.drv [axi4_master_driver] Reset deasserted - master driver active
# UVM_INFO ../src/mst/axi4_master_monitor.sv(77) @ 95000: uvm_test_top.env.master_agent.mon [axi4_master_monitor] Reset deasserted - monitor active
# UVM_INFO ../src/slv/axi4_slave_monitor.sv(71) @ 95000: uvm_test_top.env.slave_agent.mon [axi4_slave_monitor] Reset deasserted - monitor active
# UVM_INFO ../src/mst/axi4_master_driver.sv(73) @ 95000: uvm_test_top.env.master_agent.drv [axi4_master_driver] Driving AXI4_WRITE  ID=0x7  ADDR=0xc3765d7c  LEN=0
# UVM_INFO ../src/mst/axi4_master_driver.sv(73) @ 95000: uvm_test_top.env.master_agent.drv [axi4_master_driver] Driving AXI4_READ  ID=0x5  ADDR=0x68654a21  LEN=0
# UVM_INFO ../src/mst/axi4_master_driver.sv(73) @ 95000: uvm_test_top.env.master_agent.drv [axi4_master_driver] Driving AXI4_WRITE  ID=0x5  ADDR=0xc86ca7c2  LEN=0
# UVM_INFO ../src/mst/axi4_master_driver.sv(73) @ 95000: uvm_test_top.env.master_agent.drv [axi4_master_driver] Driving AXI4_READ  ID=0x4  ADDR=0xb0789607  LEN=0
# UVM_INFO ../src/mst/axi4_master_driver.sv(73) @ 95000: uvm_test_top.env.master_agent.drv [axi4_master_driver] Driving AXI4_WRITE  ID=0xa  ADDR=0x34abc01c  LEN=0
# UVM_INFO ../src/mst/axi4_master_driver.sv(73) @ 95000: uvm_test_top.env.master_agent.drv [axi4_master_driver] Driving AXI4_READ  ID=0x9  ADDR=0x6b1e7508  LEN=0
# UVM_INFO ../src/mst/axi4_master_driver.sv(73) @ 95000: uvm_test_top.env.master_agent.drv [axi4_master_driver] Driving AXI4_WRITE  ID=0x6  ADDR=0xca7645e9  LEN=1
# UVM_INFO ../src/mst/axi4_master_driver.sv(73) @ 95000: uvm_test_top.env.master_agent.drv [axi4_master_driver] Driving AXI4_READ  ID=0xc  ADDR=0x7e7f4bfb  LEN=1
# UVM_INFO ../src/mst/axi4_master_driver.sv(73) @ 95000: uvm_test_top.env.master_agent.drv [axi4_master_driver] Driving AXI4_WRITE  ID=0x6  ADDR=0xd5bfe0e4  LEN=1
# UVM_INFO ../src/mst/axi4_master_driver.sv(73) @ 95000: uvm_test_top.env.master_agent.drv [axi4_master_driver] Driving AXI4_READ  ID=0xf  ADDR=0xd6a212ca  LEN=1
# UVM_INFO ../src/mst/axi4_master_driver.sv(73) @ 95000: uvm_test_top.env.master_agent.drv [axi4_master_driver] Driving AXI4_WRITE  ID=0x8  ADDR=0x69ac08b4  LEN=1
# UVM_INFO ../src/mst/axi4_master_driver.sv(73) @ 95000: uvm_test_top.env.master_agent.drv [axi4_master_driver] Driving AXI4_READ  ID=0x8  ADDR=0x80a12fd2  LEN=1
# UVM_INFO ../src/mst/axi4_master_driver.sv(73) @ 95000: uvm_test_top.env.master_agent.drv [axi4_master_driver] Driving AXI4_WRITE  ID=0xf  ADDR=0xc7346e22  LEN=3
# UVM_INFO ../src/mst/axi4_master_driver.sv(73) @ 95000: uvm_test_top.env.master_agent.drv [axi4_master_driver] Driving AXI4_READ  ID=0xf  ADDR=0x6ea4305f  LEN=3
# UVM_INFO ../src/mst/axi4_master_driver.sv(73) @ 95000: uvm_test_top.env.master_agent.drv [axi4_master_driver] Driving AXI4_WRITE  ID=0xb  ADDR=0x1f012c9d  LEN=3
# UVM_INFO ../src/mst/axi4_master_driver.sv(73) @ 95000: uvm_test_top.env.master_agent.drv [axi4_master_driver] Driving AXI4_READ  ID=0xb  ADDR=0x14846480  LEN=3
# UVM_INFO ../src/mst/axi4_master_driver.sv(73) @ 95000: uvm_test_top.env.master_agent.drv [axi4_master_driver] Driving AXI4_WRITE  ID=0xd  ADDR=0x5f0b98d7  LEN=3
# UVM_INFO ../src/mst/axi4_master_driver.sv(73) @ 95000: uvm_test_top.env.master_agent.drv [axi4_master_driver] Driving AXI4_READ  ID=0xe  ADDR=0x85d5a4db  LEN=3
# UVM_INFO ../src/mst/axi4_master_driver.sv(73) @ 95000: uvm_test_top.env.master_agent.drv [axi4_master_driver] Driving AXI4_WRITE  ID=0xd  ADDR=0x16ddd876  LEN=7
# UVM_INFO ../src/mst/axi4_master_driver.sv(73) @ 95000: uvm_test_top.env.master_agent.drv [axi4_master_driver] Driving AXI4_READ  ID=0x5  ADDR=0x3950d7f3  LEN=7
# UVM_INFO ../src/mst/axi4_master_driver.sv(73) @ 95000: uvm_test_top.env.master_agent.drv [axi4_master_driver] Driving AXI4_WRITE  ID=0xe  ADDR=0x62df3c76  LEN=7
# UVM_INFO ../src/mst/axi4_master_driver.sv(73) @ 95000: uvm_test_top.env.master_agent.drv [axi4_master_driver] Driving AXI4_READ  ID=0x1  ADDR=0xc956314d  LEN=7
# UVM_INFO ../src/mst/axi4_master_driver.sv(73) @ 95000: uvm_test_top.env.master_agent.drv [axi4_master_driver] Driving AXI4_WRITE  ID=0xb  ADDR=0x7bb0b3b3  LEN=7
# UVM_INFO ../src/mst/axi4_master_driver.sv(73) @ 95000: uvm_test_top.env.master_agent.drv [axi4_master_driver] Driving AXI4_READ  ID=0x5  ADDR=0x85e9be4a  LEN=7
# UVM_INFO ../src/mst/axi4_master_driver.sv(73) @ 95000: uvm_test_top.env.master_agent.drv [axi4_master_driver] Driving AXI4_WRITE  ID=0xf  ADDR=0xaccf8300  LEN=15
# UVM_INFO ../src/mst/axi4_master_driver.sv(73) @ 95000: uvm_test_top.env.master_agent.drv [axi4_master_driver] Driving AXI4_READ  ID=0x6  ADDR=0xa78acbcd  LEN=15
# UVM_INFO ../src/mst/axi4_master_driver.sv(73) @ 95000: uvm_test_top.env.master_agent.drv [axi4_master_driver] Driving AXI4_WRITE  ID=0x3  ADDR=0x57df978d  LEN=15
# UVM_INFO ../src/mst/axi4_master_driver.sv(73) @ 95000: uvm_test_top.env.master_agent.drv [axi4_master_driver] Driving AXI4_READ  ID=0x5  ADDR=0x2c676a2f  LEN=15
# UVM_INFO ../src/mst/axi4_master_driver.sv(73) @ 95000: uvm_test_top.env.master_agent.drv [axi4_master_driver] Driving AXI4_WRITE  ID=0x8  ADDR=0x870170f1  LEN=15
# UVM_INFO ../src/mst/axi4_master_driver.sv(73) @ 95000: uvm_test_top.env.master_agent.drv [axi4_master_driver] Driving AXI4_READ  ID=0xb  ADDR=0x8cab238e  LEN=15
# UVM_INFO ../src/mst/axi4_master_driver.sv(73) @ 95000: uvm_test_top.env.master_agent.drv [axi4_master_driver] Driving AXI4_WRITE  ID=0x8  ADDR=0x218ce540  LEN=1
# UVM_INFO ../src/mst/axi4_master_driver.sv(73) @ 95000: uvm_test_top.env.master_agent.drv [axi4_master_driver] Driving AXI4_READ  ID=0x0  ADDR=0x368e91a7  LEN=1
# UVM_INFO ../src/mst/axi4_master_driver.sv(73) @ 95000: uvm_test_top.env.master_agent.drv [axi4_master_driver] Driving AXI4_WRITE  ID=0x7  ADDR=0x11691e80  LEN=1
# UVM_INFO ../src/mst/axi4_master_driver.sv(73) @ 95000: uvm_test_top.env.master_agent.drv [axi4_master_driver] Driving AXI4_READ  ID=0x8  ADDR=0x76251f34  LEN=1
# UVM_INFO ../src/mst/axi4_master_driver.sv(73) @ 95000: uvm_test_top.env.master_agent.drv [axi4_master_driver] Driving AXI4_WRITE  ID=0xe  ADDR=0xc3248b48  LEN=1
# UVM_INFO ../src/mst/axi4_master_driver.sv(73) @ 95000: uvm_test_top.env.master_agent.drv [axi4_master_driver] Driving AXI4_READ  ID=0xc  ADDR=0x5ad22f80  LEN=1
# UVM_INFO ../src/mst/axi4_master_driver.sv(73) @ 95000: uvm_test_top.env.master_agent.drv [axi4_master_driver] Driving AXI4_WRITE  ID=0x9  ADDR=0xc0a103b3  LEN=3
# UVM_INFO ../src/mst/axi4_master_driver.sv(73) @ 95000: uvm_test_top.env.master_agent.drv [axi4_master_driver] Driving AXI4_READ  ID=0xd  ADDR=0x6764decb  LEN=3
# UVM_INFO ../src/mst/axi4_master_driver.sv(73) @ 95000: uvm_test_top.env.master_agent.drv [axi4_master_driver] Driving AXI4_WRITE  ID=0xb  ADDR=0x80c7259e  LEN=3
# UVM_INFO ../src/mst/axi4_master_driver.sv(73) @ 95000: uvm_test_top.env.master_agent.drv [axi4_master_driver] Driving AXI4_READ  ID=0xe  ADDR=0xc4f50ec6  LEN=3
# UVM_INFO ../src/mst/axi4_master_driver.sv(73) @ 95000: uvm_test_top.env.master_agent.drv [axi4_master_driver] Driving AXI4_WRITE  ID=0x4  ADDR=0x1b2fc674  LEN=3
# UVM_INFO ../src/mst/axi4_master_driver.sv(73) @ 95000: uvm_test_top.env.master_agent.drv [axi4_master_driver] Driving AXI4_READ  ID=0xc  ADDR=0xceed557c  LEN=3
# UVM_INFO ../src/mst/axi4_master_driver.sv(73) @ 95000: uvm_test_top.env.master_agent.drv [axi4_master_driver] Driving AXI4_WRITE  ID=0xa  ADDR=0xca567195  LEN=7
# UVM_INFO ../src/mst/axi4_master_driver.sv(73) @ 95000: uvm_test_top.env.master_agent.drv [axi4_master_driver] Driving AXI4_READ  ID=0x5  ADDR=0x636cd967  LEN=7
# UVM_INFO ../src/mst/axi4_master_driver.sv(73) @ 95000: uvm_test_top.env.master_agent.drv [axi4_master_driver] Driving AXI4_WRITE  ID=0x3  ADDR=0xc5559596  LEN=7
# UVM_INFO ../src/mst/axi4_master_driver.sv(73) @ 95000: uvm_test_top.env.master_agent.drv [axi4_master_driver] Driving AXI4_READ  ID=0xa  ADDR=0x3a766a48  LEN=7
# UVM_INFO ../src/mst/axi4_master_driver.sv(73) @ 95000: uvm_test_top.env.master_agent.drv [axi4_master_driver] Driving AXI4_WRITE  ID=0xf  ADDR=0xbccf0748  LEN=7
# UVM_INFO ../src/mst/axi4_master_driver.sv(73) @ 95000: uvm_test_top.env.master_agent.drv [axi4_master_driver] Driving AXI4_READ  ID=0xd  ADDR=0x89ad7010  LEN=7
# UVM_INFO ../src/mst/axi4_master_driver.sv(73) @ 95000: uvm_test_top.env.master_agent.drv [axi4_master_driver] Driving AXI4_WRITE  ID=0xd  ADDR=0x95bd7dca  LEN=15
# UVM_INFO ../src/mst/axi4_master_driver.sv(73) @ 95000: uvm_test_top.env.master_agent.drv [axi4_master_driver] Driving AXI4_READ  ID=0x8  ADDR=0xd8b9ffcb  LEN=15
# UVM_INFO ../src/mst/axi4_master_driver.sv(73) @ 95000: uvm_test_top.env.master_agent.drv [axi4_master_driver] Driving AXI4_WRITE  ID=0x3  ADDR=0x3c3e1a5a  LEN=15
# UVM_INFO ../src/mst/axi4_master_driver.sv(73) @ 95000: uvm_test_top.env.master_agent.drv [axi4_master_driver] Driving AXI4_READ  ID=0x6  ADDR=0x513e38a6  LEN=15
# UVM_INFO ../src/mst/axi4_master_driver.sv(73) @ 95000: uvm_test_top.env.master_agent.drv [axi4_master_driver] Driving AXI4_WRITE  ID=0x2  ADDR=0x89f89cf0  LEN=15
# UVM_INFO ../src/mst/axi4_master_driver.sv(73) @ 95000: uvm_test_top.env.master_agent.drv [axi4_master_driver] Driving AXI4_READ  ID=0xe  ADDR=0xc069c4a8  LEN=15
# UVM_INFO ../src/mst/axi4_master_driver.sv(73) @ 95000: uvm_test_top.env.master_agent.drv [axi4_master_driver] Driving AXI4_WRITE  ID=0x9  ADDR=0x91781257  LEN=0
# UVM_INFO ../src/mst/axi4_master_driver.sv(73) @ 95000: uvm_test_top.env.master_agent.drv [axi4_master_driver] Driving AXI4_READ  ID=0x4  ADDR=0xa1994b7d  LEN=0
# UVM_INFO ../src/mst/axi4_master_driver.sv(73) @ 95000: uvm_test_top.env.master_agent.drv [axi4_master_driver] Driving AXI4_WRITE  ID=0xd  ADDR=0xcb55907d  LEN=0
# UVM_INFO ../src/mst/axi4_master_driver.sv(73) @ 95000: uvm_test_top.env.master_agent.drv [axi4_master_driver] Driving AXI4_READ  ID=0x4  ADDR=0x8c4cf696  LEN=0
# UVM_INFO ../src/mst/axi4_master_driver.sv(73) @ 95000: uvm_test_top.env.master_agent.drv [axi4_master_driver] Driving AXI4_WRITE  ID=0x5  ADDR=0x7a5996f5  LEN=0
# UVM_INFO ../src/mst/axi4_master_driver.sv(73) @ 95000: uvm_test_top.env.master_agent.drv [axi4_master_driver] Driving AXI4_READ  ID=0x2  ADDR=0x1dfbfa77  LEN=0
# UVM_INFO ../src/mst/axi4_master_driver.sv(73) @ 95000: uvm_test_top.env.master_agent.drv [axi4_master_driver] Driving AXI4_WRITE  ID=0x0  ADDR=0x23abeaa5  LEN=2
# UVM_INFO ../src/mst/axi4_master_driver.sv(73) @ 95000: uvm_test_top.env.master_agent.drv [axi4_master_driver] Driving AXI4_READ  ID=0x5  ADDR=0x109e92c8  LEN=2
# UVM_INFO ../src/mst/axi4_master_driver.sv(73) @ 95000: uvm_test_top.env.master_agent.drv [axi4_master_driver] Driving AXI4_WRITE  ID=0xd  ADDR=0x9d5ca9c3  LEN=2
# UVM_INFO ../src/mst/axi4_master_driver.sv(73) @ 95000: uvm_test_top.env.master_agent.drv [axi4_master_driver] Driving AXI4_READ  ID=0xb  ADDR=0x26003ad2  LEN=2
# UVM_INFO ../src/mst/axi4_master_driver.sv(73) @ 95000: uvm_test_top.env.master_agent.drv [axi4_master_driver] Driving AXI4_WRITE  ID=0xb  ADDR=0x86bd7965  LEN=2
# UVM_INFO ../src/mst/axi4_master_driver.sv(73) @ 95000: uvm_test_top.env.master_agent.drv [axi4_master_driver] Driving AXI4_READ  ID=0x8  ADDR=0xc253aee0  LEN=2
# UVM_INFO ../src/mst/axi4_master_driver.sv(73) @ 95000: uvm_test_top.env.master_agent.drv [axi4_master_driver] Driving AXI4_WRITE  ID=0x7  ADDR=0xcdf2ae16  LEN=10
# UVM_INFO ../src/mst/axi4_master_driver.sv(73) @ 95000: uvm_test_top.env.master_agent.drv [axi4_master_driver] Driving AXI4_READ  ID=0xf  ADDR=0x2bf8682c  LEN=10
# UVM_INFO ../src/mst/axi4_master_driver.sv(73) @ 95000: uvm_test_top.env.master_agent.drv [axi4_master_driver] Driving AXI4_WRITE  ID=0xa  ADDR=0x3b9a8ee0  LEN=10
# UVM_INFO ../src/mst/axi4_master_driver.sv(73) @ 95000: uvm_test_top.env.master_agent.drv [axi4_master_driver] Driving AXI4_READ  ID=0x8  ADDR=0xa58fac49  LEN=10
# UVM_INFO ../src/mst/axi4_master_driver.sv(73) @ 95000: uvm_test_top.env.master_agent.drv [axi4_master_driver] Driving AXI4_WRITE  ID=0xc  ADDR=0x768899e4  LEN=10
# UVM_INFO ../src/mst/axi4_master_driver.sv(73) @ 95000: uvm_test_top.env.master_agent.drv [axi4_master_driver] Driving AXI4_READ  ID=0x2  ADDR=0x1cc3a3d3  LEN=10
# UVM_INFO ../src/mst/axi4_master_driver.sv(73) @ 95000: uvm_test_top.env.master_agent.drv [axi4_master_driver] Driving AXI4_WRITE  ID=0x0  ADDR=0xc21760ae  LEN=32
# UVM_INFO ../src/mst/axi4_master_driver.sv(73) @ 95000: uvm_test_top.env.master_agent.drv [axi4_master_driver] Driving AXI4_READ  ID=0x5  ADDR=0x7ca03ea9  LEN=32
# UVM_INFO ../src/mst/axi4_master_driver.sv(73) @ 95000: uvm_test_top.env.master_agent.drv [axi4_master_driver] Driving AXI4_WRITE  ID=0x1  ADDR=0x30ab6d78  LEN=32
# UVM_INFO ../src/mst/axi4_master_driver.sv(73) @ 95000: uvm_test_top.env.master_agent.drv [axi4_master_driver] Driving AXI4_READ  ID=0xc  ADDR=0xc690b1e8  LEN=32
# UVM_INFO ../src/mst/axi4_master_driver.sv(73) @ 95000: uvm_test_top.env.master_agent.drv [axi4_master_driver] Driving AXI4_WRITE  ID=0x1  ADDR=0x14279895  LEN=32
# UVM_INFO ../src/mst/axi4_master_driver.sv(73) @ 95000: uvm_test_top.env.master_agent.drv [axi4_master_driver] Driving AXI4_READ  ID=0x8  ADDR=0x30d37102  LEN=32
# UVM_INFO ../src/mst/axi4_master_driver.sv(73) @ 95000: uvm_test_top.env.master_agent.drv [axi4_master_driver] Driving AXI4_WRITE  ID=0xe  ADDR=0xd884824d  LEN=100
# UVM_INFO ../src/mst/axi4_master_driver.sv(73) @ 95000: uvm_test_top.env.master_agent.drv [axi4_master_driver] Driving AXI4_READ  ID=0xf  ADDR=0xd14335da  LEN=100
# UVM_INFO ../src/mst/axi4_master_driver.sv(73) @ 95000: uvm_test_top.env.master_agent.drv [axi4_master_driver] Driving AXI4_WRITE  ID=0xa  ADDR=0x7da13642  LEN=100
# UVM_INFO ../src/mst/axi4_master_driver.sv(73) @ 95000: uvm_test_top.env.master_agent.drv [axi4_master_driver] Driving AXI4_READ  ID=0x0  ADDR=0x905986e9  LEN=100
# UVM_INFO ../src/mst/axi4_master_driver.sv(73) @ 95000: uvm_test_top.env.master_agent.drv [axi4_master_driver] Driving AXI4_WRITE  ID=0x0  ADDR=0xa5032d4a  LEN=100
# UVM_INFO ../src/mst/axi4_master_driver.sv(73) @ 95000: uvm_test_top.env.master_agent.drv [axi4_master_driver] Driving AXI4_READ  ID=0x8  ADDR=0x9a79acab  LEN=100
# UVM_INFO ../src/mst/axi4_master_driver.sv(73) @ 95000: uvm_test_top.env.master_agent.drv [axi4_master_driver] Driving AXI4_WRITE  ID=0x9  ADDR=0x069bbaad  LEN=255
# UVM_INFO ../src/mst/axi4_master_driver.sv(73) @ 95000: uvm_test_top.env.master_agent.drv [axi4_master_driver] Driving AXI4_READ  ID=0x4  ADDR=0x63433e2e  LEN=255
# UVM_INFO ../src/mst/axi4_master_driver.sv(73) @ 95000: uvm_test_top.env.master_agent.drv [axi4_master_driver] Driving AXI4_WRITE  ID=0xf  ADDR=0x38c581e8  LEN=255
# UVM_INFO ../src/mst/axi4_master_driver.sv(73) @ 95000: uvm_test_top.env.master_agent.drv [axi4_master_driver] Driving AXI4_READ  ID=0x5  ADDR=0xba1a273f  LEN=255
# UVM_INFO ../src/mst/axi4_master_driver.sv(73) @ 95000: uvm_test_top.env.master_agent.drv [axi4_master_driver] Driving AXI4_WRITE  ID=0xe  ADDR=0x526ba893  LEN=255
# UVM_INFO ../src/mst/axi4_master_driver.sv(73) @ 95000: uvm_test_top.env.master_agent.drv [axi4_master_driver] Driving AXI4_READ  ID=0x9  ADDR=0x3a7f064b  LEN=255
# UVM_INFO ../src/mst/axi4_master_driver.sv(73) @ 95000: uvm_test_top.env.master_agent.drv [axi4_master_driver] Driving AXI4_WRITE  ID=0x3  ADDR=0xe0000000  LEN=0
# UVM_INFO ../src/mst/axi4_master_driver.sv(73) @ 95000: uvm_test_top.env.master_agent.drv [axi4_master_driver] Driving AXI4_READ  ID=0xa  ADDR=0xe0000000  LEN=0
# UVM_INFO ../src/mst/axi4_master_driver.sv(73) @ 95000: uvm_test_top.env.master_agent.drv [axi4_master_driver] Driving AXI4_WRITE  ID=0xe  ADDR=0xf0000000  LEN=0
# UVM_INFO ../src/mst/axi4_master_driver.sv(73) @ 95000: uvm_test_top.env.master_agent.drv [axi4_master_driver] Driving AXI4_READ  ID=0x2  ADDR=0xf0000000  LEN=0
# UVM_INFO ../src/seq/axi4_burst_sweep_seq.sv(176) @ 95000: uvm_test_top.env.master_agent.sqr@@sweep_seq [axi4_burst_sweep_seq] Burst sweep sequence complete: sent 94 transactions
# UVM_INFO ../src/slv/axi4_slave_driver.sv(386) @ 115000: uvm_test_top.env.slave_agent.drv [axi4_slave_driver] AR received: ID=0x5 ADDR=0x68654a21 LEN=0 LOCK=AXI4_LOCK_NORMAL
# UVM_INFO ../src/slv/axi4_slave_driver.sv(228) @ 115000: uvm_test_top.env.slave_agent.drv [axi4_slave_driver] AW received: ID=0x7 ADDR=0xc3765d7c LEN=0 LOCK=AXI4_LOCK_NORMAL
# UVM_INFO ../src/slv/axi4_slave_monitor.sv(224) @ 115000: uvm_test_top.env.slave_agent.mon [axi4_slave_monitor] AR received: ID=0x5 ADDR=0x68654a21 LEN=0
# UVM_INFO ../src/slv/axi4_slave_monitor.sv(116) @ 115000: uvm_test_top.env.slave_agent.mon [axi4_slave_monitor] AW received: ID=0x7 ADDR=0xc3765d7c LEN=0
# UVM_INFO ../src/mst/axi4_master_monitor.sv(246) @ 115000: uvm_test_top.env.master_agent.mon [axi4_master_monitor] AR observed: ID=0x5 ADDR=0x68654a21 LEN=0
# UVM_INFO ../src/mst/axi4_master_monitor.sv(124) @ 115000: uvm_test_top.env.master_agent.mon [axi4_master_monitor] AW observed: ID=0x7 ADDR=0xc3765d7c LEN=0
# UVM_INFO ../src/slv/axi4_slave_monitor.sv(167) @ 115000: uvm_test_top.env.slave_agent.mon [axi4_slave_monitor] W data assembled: ID=0x7 ADDR=0xc3765d7c 1 beats
# UVM_INFO ../src/mst/axi4_master_monitor.sv(184) @ 115000: uvm_test_top.env.master_agent.mon [axi4_master_monitor] W data assembled: ID=0x7 ADDR=0xc3765d7c 1 beats
# UVM_INFO ../src/mst/axi4_master_driver.sv(348) @ 135000: uvm_test_top.env.master_agent.drv [axi4_master_driver] Master driver received all R beats for ID=0x5
# UVM_INFO ../src/mst/axi4_master_driver.sv(289) @ 135000: uvm_test_top.env.master_agent.drv [axi4_master_driver] Master driver received B response: ID=0x7 RESP=AXI4_RESP_OKAY
# UVM_INFO ../src/slv/axi4_slave_driver.sv(501) @ 135000: uvm_test_top.env.slave_agent.drv [axi4_slave_driver] Read complete: ID=0x5 ADDR=0x68654a21 RESP=AXI4_RESP_OKAY  1 beats sent
# UVM_INFO ../src/slv/axi4_slave_driver.sv(348) @ 135000: uvm_test_top.env.slave_agent.drv [axi4_slave_driver] Write complete: ID=0x7 RESP=AXI4_RESP_OKAY
# UVM_INFO ../src/slv/axi4_slave_monitor.sv(287) @ 135000: uvm_test_top.env.slave_agent.mon [axi4_slave_monitor] Read data sent: ID=0x5 ADDR=0x68654a21 1 beats
# UVM_INFO ../src/env/axi4_scoreboard.sv(108) @ 135000: uvm_test_top.env.scb [axi4_scoreboard] Slave AXI4_READ received: ID=0x5 ADDR=0x68654a21 LEN=0
# UVM_INFO ../src/slv/axi4_slave_monitor.sv(189) @ 135000: uvm_test_top.env.slave_agent.mon [axi4_slave_monitor] Write response sent: ID=0x7 ADDR=0xc3765d7c RESP=AXI4_RESP_OKAY
# UVM_INFO ../src/env/axi4_scoreboard.sv(108) @ 135000: uvm_test_top.env.scb [axi4_scoreboard] Slave AXI4_WRITE received: ID=0x7 ADDR=0xc3765d7c LEN=0
# UVM_INFO ../src/mst/axi4_master_monitor.sv(314) @ 135000: uvm_test_top.env.master_agent.mon [axi4_master_monitor] Read complete: ID=0x5 ADDR=0x68654a21 1 beats
# UVM_INFO ../src/env/axi4_scoreboard.sv(87) @ 135000: uvm_test_top.env.scb [axi4_scoreboard] Master AXI4_READ received: ID=0x5 ADDR=0x68654a21 LEN=0
# UVM_INFO ../src/env/axi4_scoreboard.sv(291) @ 135000: uvm_test_top.env.scb [axi4_scoreboard] [READ] MATCH #1: ID=0x5 ADDR=0x68654a21 LEN=0
# UVM_INFO ../src/mst/axi4_master_monitor.sv(210) @ 135000: uvm_test_top.env.master_agent.mon [axi4_master_monitor] Write complete: ID=0x7 ADDR=0xc3765d7c RESP=AXI4_RESP_OKAY
# UVM_INFO ../src/env/axi4_scoreboard.sv(87) @ 135000: uvm_test_top.env.scb [axi4_scoreboard] Master AXI4_WRITE received: ID=0x7 ADDR=0xc3765d7c LEN=0
# UVM_INFO ../src/env/axi4_scoreboard.sv(291) @ 135000: uvm_test_top.env.scb [axi4_scoreboard] [WRITE] MATCH #2: ID=0x7 ADDR=0xc3765d7c LEN=0
# UVM_INFO ../src/env/axi4_scoreboard.sv(219) @ 135000: uvm_test_top.env.scb [axi4_scoreboard] [REF_MEM_WRITE] Addr=0xc3765d7d Data=0xab
# UVM_INFO ../src/env/axi4_scoreboard.sv(219) @ 135000: uvm_test_top.env.scb [axi4_scoreboard] [REF_MEM_WRITE] Addr=0xc3765d7e Data=0xd1
# UVM_INFO ../src/slv/axi4_slave_driver.sv(228) @ 145000: uvm_test_top.env.slave_agent.drv [axi4_slave_driver] AW received: ID=0x5 ADDR=0xc86ca7c2 LEN=0 LOCK=AXI4_LOCK_NORMAL
# UVM_INFO ../src/slv/axi4_slave_driver.sv(386) @ 145000: uvm_test_top.env.slave_agent.drv [axi4_slave_driver] AR received: ID=0x4 ADDR=0xb0789607 LEN=0 LOCK=AXI4_LOCK_NORMAL
# UVM_INFO ../src/mst/axi4_master_monitor.sv(124) @ 145000: uvm_test_top.env.master_agent.mon [axi4_master_monitor] AW observed: ID=0x5 ADDR=0xc86ca7c2 LEN=0
# UVM_INFO ../src/mst/axi4_master_monitor.sv(246) @ 145000: uvm_test_top.env.master_agent.mon [axi4_master_monitor] AR observed: ID=0x4 ADDR=0xb0789607 LEN=0
# UVM_INFO ../src/slv/axi4_slave_monitor.sv(116) @ 145000: uvm_test_top.env.slave_agent.mon [axi4_slave_monitor] AW received: ID=0x5 ADDR=0xc86ca7c2 LEN=0
# UVM_INFO ../src/slv/axi4_slave_monitor.sv(224) @ 145000: uvm_test_top.env.slave_agent.mon [axi4_slave_monitor] AR received: ID=0x4 ADDR=0xb0789607 LEN=0
# UVM_INFO ../src/mst/axi4_master_monitor.sv(184) @ 145000: uvm_test_top.env.master_agent.mon [axi4_master_monitor] W data assembled: ID=0x5 ADDR=0xc86ca7c2 1 beats
# UVM_INFO ../src/slv/axi4_slave_monitor.sv(167) @ 145000: uvm_test_top.env.slave_agent.mon [axi4_slave_monitor] W data assembled: ID=0x5 ADDR=0xc86ca7c2 1 beats
# UVM_INFO ../src/mst/axi4_master_driver.sv(289) @ 165000: uvm_test_top.env.master_agent.drv [axi4_master_driver] Master driver received B response: ID=0x5 RESP=AXI4_RESP_OKAY
# UVM_INFO ../src/mst/axi4_master_driver.sv(348) @ 165000: uvm_test_top.env.master_agent.drv [axi4_master_driver] Master driver received all R beats for ID=0x4
# UVM_INFO ../src/slv/axi4_slave_driver.sv(501) @ 165000: uvm_test_top.env.slave_agent.drv [axi4_slave_driver] Read complete: ID=0x4 ADDR=0xb0789607 RESP=AXI4_RESP_OKAY  1 beats sent
# UVM_INFO ../src/slv/axi4_slave_driver.sv(348) @ 165000: uvm_test_top.env.slave_agent.drv [axi4_slave_driver] Write complete: ID=0x5 RESP=AXI4_RESP_OKAY
# UVM_INFO ../src/mst/axi4_master_monitor.sv(210) @ 165000: uvm_test_top.env.master_agent.mon [axi4_master_monitor] Write complete: ID=0x5 ADDR=0xc86ca7c2 RESP=AXI4_RESP_OKAY
# UVM_INFO ../src/env/axi4_scoreboard.sv(87) @ 165000: uvm_test_top.env.scb [axi4_scoreboard] Master AXI4_WRITE received: ID=0x5 ADDR=0xc86ca7c2 LEN=0
# UVM_INFO ../src/mst/axi4_master_monitor.sv(314) @ 165000: uvm_test_top.env.master_agent.mon [axi4_master_monitor] Read complete: ID=0x4 ADDR=0xb0789607 1 beats
# UVM_INFO ../src/env/axi4_scoreboard.sv(87) @ 165000: uvm_test_top.env.scb [axi4_scoreboard] Master AXI4_READ received: ID=0x4 ADDR=0xb0789607 LEN=0
# UVM_INFO ../src/slv/axi4_slave_monitor.sv(189) @ 165000: uvm_test_top.env.slave_agent.mon [axi4_slave_monitor] Write response sent: ID=0x5 ADDR=0xc86ca7c2 RESP=AXI4_RESP_OKAY
# UVM_INFO ../src/env/axi4_scoreboard.sv(108) @ 165000: uvm_test_top.env.scb [axi4_scoreboard] Slave AXI4_WRITE received: ID=0x5 ADDR=0xc86ca7c2 LEN=0
# UVM_INFO ../src/env/axi4_scoreboard.sv(291) @ 165000: uvm_test_top.env.scb [axi4_scoreboard] [WRITE] MATCH #3: ID=0x5 ADDR=0xc86ca7c2 LEN=0
# UVM_INFO ../src/env/axi4_scoreboard.sv(219) @ 165000: uvm_test_top.env.scb [axi4_scoreboard] [REF_MEM_WRITE] Addr=0xc86ca7c0 Data=0x35
# UVM_INFO ../src/env/axi4_scoreboard.sv(219) @ 165000: uvm_test_top.env.scb [axi4_scoreboard] [REF_MEM_WRITE] Addr=0xc86ca7c3 Data=0x44
# UVM_INFO ../src/slv/axi4_slave_monitor.sv(287) @ 165000: uvm_test_top.env.slave_agent.mon [axi4_slave_monitor] Read data sent: ID=0x4 ADDR=0xb0789607 1 beats
# UVM_INFO ../src/env/axi4_scoreboard.sv(108) @ 165000: uvm_test_top.env.scb [axi4_scoreboard] Slave AXI4_READ received: ID=0x4 ADDR=0xb0789607 LEN=0
# UVM_INFO ../src/env/axi4_scoreboard.sv(291) @ 165000: uvm_test_top.env.scb [axi4_scoreboard] [READ] MATCH #4: ID=0x4 ADDR=0xb0789607 LEN=0
# UVM_INFO ../src/slv/axi4_slave_driver.sv(386) @ 175000: uvm_test_top.env.slave_agent.drv [axi4_slave_driver] AR received: ID=0x9 ADDR=0x6b1e7508 LEN=0 LOCK=AXI4_LOCK_NORMAL
# UVM_INFO ../src/slv/axi4_slave_monitor.sv(224) @ 175000: uvm_test_top.env.slave_agent.mon [axi4_slave_monitor] AR received: ID=0x9 ADDR=0x6b1e7508 LEN=0
# UVM_INFO ../src/mst/axi4_master_monitor.sv(246) @ 175000: uvm_test_top.env.master_agent.mon [axi4_master_monitor] AR observed: ID=0x9 ADDR=0x6b1e7508 LEN=0
# UVM_INFO ../src/mst/axi4_master_driver.sv(348) @ 195000: uvm_test_top.env.master_agent.drv [axi4_master_driver] Master driver received all R beats for ID=0x9
# UVM_INFO ../src/slv/axi4_slave_driver.sv(501) @ 195000: uvm_test_top.env.slave_agent.drv [axi4_slave_driver] Read complete: ID=0x9 ADDR=0x6b1e7508 RESP=AXI4_RESP_OKAY  1 beats sent
# UVM_INFO ../src/slv/axi4_slave_monitor.sv(287) @ 195000: uvm_test_top.env.slave_agent.mon [axi4_slave_monitor] Read data sent: ID=0x9 ADDR=0x6b1e7508 1 beats
# UVM_INFO ../src/env/axi4_scoreboard.sv(108) @ 195000: uvm_test_top.env.scb [axi4_scoreboard] Slave AXI4_READ received: ID=0x9 ADDR=0x6b1e7508 LEN=0
# UVM_INFO ../src/mst/axi4_master_monitor.sv(314) @ 195000: uvm_test_top.env.master_agent.mon [axi4_master_monitor] Read complete: ID=0x9 ADDR=0x6b1e7508 1 beats
# UVM_INFO ../src/env/axi4_scoreboard.sv(87) @ 195000: uvm_test_top.env.scb [axi4_scoreboard] Master AXI4_READ received: ID=0x9 ADDR=0x6b1e7508 LEN=0
# UVM_INFO ../src/env/axi4_scoreboard.sv(291) @ 195000: uvm_test_top.env.scb [axi4_scoreboard] [READ] MATCH #5: ID=0x9 ADDR=0x6b1e7508 LEN=0
# UVM_INFO ../src/slv/axi4_slave_driver.sv(228) @ 205000: uvm_test_top.env.slave_agent.drv [axi4_slave_driver] AW received: ID=0xa ADDR=0x34abc01c LEN=0 LOCK=AXI4_LOCK_NORMAL
# UVM_INFO ../src/slv/axi4_slave_driver.sv(386) @ 205000: uvm_test_top.env.slave_agent.drv [axi4_slave_driver] AR received: ID=0xc ADDR=0x7e7f4bfb LEN=1 LOCK=AXI4_LOCK_NORMAL
# UVM_INFO ../src/mst/axi4_master_monitor.sv(124) @ 205000: uvm_test_top.env.master_agent.mon [axi4_master_monitor] AW observed: ID=0xa ADDR=0x34abc01c LEN=0
# UVM_INFO ../src/mst/axi4_master_monitor.sv(246) @ 205000: uvm_test_top.env.master_agent.mon [axi4_master_monitor] AR observed: ID=0xc ADDR=0x7e7f4bfb LEN=1
# UVM_INFO ../src/slv/axi4_slave_monitor.sv(116) @ 205000: uvm_test_top.env.slave_agent.mon [axi4_slave_monitor] AW received: ID=0xa ADDR=0x34abc01c LEN=0
# UVM_INFO ../src/slv/axi4_slave_monitor.sv(224) @ 205000: uvm_test_top.env.slave_agent.mon [axi4_slave_monitor] AR received: ID=0xc ADDR=0x7e7f4bfb LEN=1
# UVM_INFO ../src/mst/axi4_master_monitor.sv(184) @ 205000: uvm_test_top.env.master_agent.mon [axi4_master_monitor] W data assembled: ID=0xa ADDR=0x34abc01c 1 beats
# UVM_INFO ../src/slv/axi4_slave_monitor.sv(167) @ 205000: uvm_test_top.env.slave_agent.mon [axi4_slave_monitor] W data assembled: ID=0xa ADDR=0x34abc01c 1 beats
# UVM_INFO ../src/mst/axi4_master_driver.sv(289) @ 225000: uvm_test_top.env.master_agent.drv [axi4_master_driver] Master driver received B response: ID=0xa RESP=AXI4_RESP_OKAY
# UVM_INFO ../src/slv/axi4_slave_driver.sv(348) @ 225000: uvm_test_top.env.slave_agent.drv [axi4_slave_driver] Write complete: ID=0xa RESP=AXI4_RESP_OKAY
# UVM_INFO ../src/mst/axi4_master_monitor.sv(210) @ 225000: uvm_test_top.env.master_agent.mon [axi4_master_monitor] Write complete: ID=0xa ADDR=0x34abc01c RESP=AXI4_RESP_OKAY
# UVM_INFO ../src/env/axi4_scoreboard.sv(87) @ 225000: uvm_test_top.env.scb [axi4_scoreboard] Master AXI4_WRITE received: ID=0xa ADDR=0x34abc01c LEN=0
# UVM_INFO ../src/slv/axi4_slave_monitor.sv(189) @ 225000: uvm_test_top.env.slave_agent.mon [axi4_slave_monitor] Write response sent: ID=0xa ADDR=0x34abc01c RESP=AXI4_RESP_OKAY
# UVM_INFO ../src/env/axi4_scoreboard.sv(108) @ 225000: uvm_test_top.env.scb [axi4_scoreboard] Slave AXI4_WRITE received: ID=0xa ADDR=0x34abc01c LEN=0
# UVM_INFO ../src/env/axi4_scoreboard.sv(291) @ 225000: uvm_test_top.env.scb [axi4_scoreboard] [WRITE] MATCH #6: ID=0xa ADDR=0x34abc01c LEN=0
# UVM_INFO ../src/env/axi4_scoreboard.sv(219) @ 225000: uvm_test_top.env.scb [axi4_scoreboard] [REF_MEM_WRITE] Addr=0x34abc01e Data=0x3b
# UVM_INFO ../src/env/axi4_scoreboard.sv(219) @ 225000: uvm_test_top.env.scb [axi4_scoreboard] [REF_MEM_WRITE] Addr=0x34abc01f Data=0xbe
# UVM_INFO ../src/slv/axi4_slave_driver.sv(386) @ 235000: uvm_test_top.env.slave_agent.drv [axi4_slave_driver] AR received: ID=0xf ADDR=0xd6a212ca LEN=1 LOCK=AXI4_LOCK_NORMAL
# UVM_INFO ../src/slv/axi4_slave_monitor.sv(224) @ 235000: uvm_test_top.env.slave_agent.mon [axi4_slave_monitor] AR received: ID=0xf ADDR=0xd6a212ca LEN=1
# UVM_INFO ../src/mst/axi4_master_monitor.sv(246) @ 235000: uvm_test_top.env.master_agent.mon [axi4_master_monitor] AR observed: ID=0xf ADDR=0xd6a212ca LEN=1
# UVM_INFO ../src/mst/axi4_master_driver.sv(348) @ 245000: uvm_test_top.env.master_agent.drv [axi4_master_driver] Master driver received all R beats for ID=0xc
# UVM_INFO ../src/slv/axi4_slave_driver.sv(501) @ 245000: uvm_test_top.env.slave_agent.drv [axi4_slave_driver] Read complete: ID=0xc ADDR=0x7e7f4bfb RESP=AXI4_RESP_OKAY  2 beats sent
# UVM_INFO ../src/mst/axi4_master_monitor.sv(314) @ 245000: uvm_test_top.env.master_agent.mon [axi4_master_monitor] Read complete: ID=0xc ADDR=0x7e7f4bfb 2 beats
# UVM_INFO ../src/env/axi4_scoreboard.sv(87) @ 245000: uvm_test_top.env.scb [axi4_scoreboard] Master AXI4_READ received: ID=0xc ADDR=0x7e7f4bfb LEN=1
# UVM_INFO ../src/slv/axi4_slave_monitor.sv(287) @ 245000: uvm_test_top.env.slave_agent.mon [axi4_slave_monitor] Read data sent: ID=0xc ADDR=0x7e7f4bfb 2 beats
# UVM_INFO ../src/env/axi4_scoreboard.sv(108) @ 245000: uvm_test_top.env.scb [axi4_scoreboard] Slave AXI4_READ received: ID=0xc ADDR=0x7e7f4bfb LEN=1
# UVM_INFO ../src/env/axi4_scoreboard.sv(291) @ 245000: uvm_test_top.env.scb [axi4_scoreboard] [READ] MATCH #7: ID=0xc ADDR=0x7e7f4bfb LEN=1
# UVM_INFO ../src/slv/axi4_slave_driver.sv(386) @ 265000: uvm_test_top.env.slave_agent.drv [axi4_slave_driver] AR received: ID=0x8 ADDR=0x80a12fd2 LEN=1 LOCK=AXI4_LOCK_NORMAL
# UVM_INFO ../src/mst/axi4_master_monitor.sv(246) @ 265000: uvm_test_top.env.master_agent.mon [axi4_master_monitor] AR observed: ID=0x8 ADDR=0x80a12fd2 LEN=1
# UVM_INFO ../src/slv/axi4_slave_monitor.sv(224) @ 265000: uvm_test_top.env.slave_agent.mon [axi4_slave_monitor] AR received: ID=0x8 ADDR=0x80a12fd2 LEN=1
# UVM_INFO ../src/slv/axi4_slave_driver.sv(228) @ 275000: uvm_test_top.env.slave_agent.drv [axi4_slave_driver] AW received: ID=0x6 ADDR=0xca7645e9 LEN=1 LOCK=AXI4_LOCK_NORMAL
# UVM_INFO ../src/slv/axi4_slave_monitor.sv(116) @ 275000: uvm_test_top.env.slave_agent.mon [axi4_slave_monitor] AW received: ID=0x6 ADDR=0xca7645e9 LEN=1
# UVM_INFO ../src/mst/axi4_master_monitor.sv(124) @ 275000: uvm_test_top.env.master_agent.mon [axi4_master_monitor] AW observed: ID=0x6 ADDR=0xca7645e9 LEN=1
# UVM_INFO ../src/slv/axi4_slave_monitor.sv(167) @ 275000: uvm_test_top.env.slave_agent.mon [axi4_slave_monitor] W data assembled: ID=0x6 ADDR=0xca7645e9 2 beats
# UVM_INFO ../src/mst/axi4_master_monitor.sv(184) @ 275000: uvm_test_top.env.master_agent.mon [axi4_master_monitor] W data assembled: ID=0x6 ADDR=0xca7645e9 2 beats
# UVM_INFO ../src/mst/axi4_master_driver.sv(348) @ 285000: uvm_test_top.env.master_agent.drv [axi4_master_driver] Master driver received all R beats for ID=0xf
# UVM_INFO ../src/slv/axi4_slave_driver.sv(501) @ 285000: uvm_test_top.env.slave_agent.drv [axi4_slave_driver] Read complete: ID=0xf ADDR=0xd6a212ca RESP=AXI4_RESP_OKAY  2 beats sent
# UVM_INFO ../src/mst/axi4_master_monitor.sv(314) @ 285000: uvm_test_top.env.master_agent.mon [axi4_master_monitor] Read complete: ID=0xf ADDR=0xd6a212ca 2 beats
# UVM_INFO ../src/env/axi4_scoreboard.sv(87) @ 285000: uvm_test_top.env.scb [axi4_scoreboard] Master AXI4_READ received: ID=0xf ADDR=0xd6a212ca LEN=1
# UVM_INFO ../src/slv/axi4_slave_monitor.sv(287) @ 285000: uvm_test_top.env.slave_agent.mon [axi4_slave_monitor] Read data sent: ID=0xf ADDR=0xd6a212ca 2 beats
# UVM_INFO ../src/env/axi4_scoreboard.sv(108) @ 285000: uvm_test_top.env.scb [axi4_scoreboard] Slave AXI4_READ received: ID=0xf ADDR=0xd6a212ca LEN=1
# UVM_INFO ../src/env/axi4_scoreboard.sv(291) @ 285000: uvm_test_top.env.scb [axi4_scoreboard] [READ] MATCH #8: ID=0xf ADDR=0xd6a212ca LEN=1
# UVM_INFO ../src/mst/axi4_master_driver.sv(289) @ 295000: uvm_test_top.env.master_agent.drv [axi4_master_driver] Master driver received B response: ID=0x6 RESP=AXI4_RESP_OKAY
# UVM_INFO ../src/slv/axi4_slave_driver.sv(386) @ 295000: uvm_test_top.env.slave_agent.drv [axi4_slave_driver] AR received: ID=0xf ADDR=0x6ea4305f LEN=3 LOCK=AXI4_LOCK_NORMAL
# UVM_INFO ../src/slv/axi4_slave_driver.sv(348) @ 295000: uvm_test_top.env.slave_agent.drv [axi4_slave_driver] Write complete: ID=0x6 RESP=AXI4_RESP_OKAY
# UVM_INFO ../src/slv/axi4_slave_monitor.sv(224) @ 295000: uvm_test_top.env.slave_agent.mon [axi4_slave_monitor] AR received: ID=0xf ADDR=0x6ea4305f LEN=3
# UVM_INFO ../src/slv/axi4_slave_monitor.sv(189) @ 295000: uvm_test_top.env.slave_agent.mon [axi4_slave_monitor] Write response sent: ID=0x6 ADDR=0xca7645e9 RESP=AXI4_RESP_OKAY
# UVM_INFO ../src/env/axi4_scoreboard.sv(108) @ 295000: uvm_test_top.env.scb [axi4_scoreboard] Slave AXI4_WRITE received: ID=0x6 ADDR=0xca7645e9 LEN=1
# UVM_INFO ../src/mst/axi4_master_monitor.sv(246) @ 295000: uvm_test_top.env.master_agent.mon [axi4_master_monitor] AR observed: ID=0xf ADDR=0x6ea4305f LEN=3
# UVM_INFO ../src/mst/axi4_master_monitor.sv(210) @ 295000: uvm_test_top.env.master_agent.mon [axi4_master_monitor] Write complete: ID=0x6 ADDR=0xca7645e9 RESP=AXI4_RESP_OKAY
# UVM_INFO ../src/env/axi4_scoreboard.sv(87) @ 295000: uvm_test_top.env.scb [axi4_scoreboard] Master AXI4_WRITE received: ID=0x6 ADDR=0xca7645e9 LEN=1
# UVM_INFO ../src/env/axi4_scoreboard.sv(291) @ 295000: uvm_test_top.env.scb [axi4_scoreboard] [WRITE] MATCH #9: ID=0x6 ADDR=0xca7645e9 LEN=1
# UVM_INFO ../src/env/axi4_scoreboard.sv(219) @ 295000: uvm_test_top.env.scb [axi4_scoreboard] [REF_MEM_WRITE] Addr=0xca7645e8 Data=0xef
# UVM_INFO ../src/env/axi4_scoreboard.sv(219) @ 295000: uvm_test_top.env.scb [axi4_scoreboard] [REF_MEM_WRITE] Addr=0xca7645e9 Data=0xea
# UVM_INFO ../src/env/axi4_scoreboard.sv(219) @ 295000: uvm_test_top.env.scb [axi4_scoreboard] [REF_MEM_WRITE] Addr=0xca7645eb Data=0xc0
# UVM_INFO ../src/env/axi4_scoreboard.sv(219) @ 295000: uvm_test_top.env.scb [axi4_scoreboard] [REF_MEM_WRITE] Addr=0xca7645ea Data=0xc7
# UVM_INFO ../src/slv/axi4_slave_driver.sv(228) @ 305000: uvm_test_top.env.slave_agent.drv [axi4_slave_driver] AW received: ID=0x6 ADDR=0xd5bfe0e4 LEN=1 LOCK=AXI4_LOCK_NORMAL
# UVM_INFO ../src/mst/axi4_master_monitor.sv(124) @ 305000: uvm_test_top.env.master_agent.mon [axi4_master_monitor] AW observed: ID=0x6 ADDR=0xd5bfe0e4 LEN=1
# UVM_INFO ../src/slv/axi4_slave_monitor.sv(116) @ 305000: uvm_test_top.env.slave_agent.mon [axi4_slave_monitor] AW received: ID=0x6 ADDR=0xd5bfe0e4 LEN=1
# UVM_INFO ../src/mst/axi4_master_driver.sv(348) @ 325000: uvm_test_top.env.master_agent.drv [axi4_master_driver] Master driver received all R beats for ID=0x8
# UVM_INFO ../src/slv/axi4_slave_driver.sv(386) @ 325000: uvm_test_top.env.slave_agent.drv [axi4_slave_driver] AR received: ID=0xb ADDR=0x14846480 LEN=3 LOCK=AXI4_LOCK_NORMAL
# UVM_INFO ../src/slv/axi4_slave_driver.sv(501) @ 325000: uvm_test_top.env.slave_agent.drv [axi4_slave_driver] Read complete: ID=0x8 ADDR=0x80a12fd2 RESP=AXI4_RESP_OKAY  2 beats sent
# UVM_INFO ../src/mst/axi4_master_monitor.sv(246) @ 325000: uvm_test_top.env.master_agent.mon [axi4_master_monitor] AR observed: ID=0xb ADDR=0x14846480 LEN=3
# UVM_INFO ../src/mst/axi4_master_monitor.sv(314) @ 325000: uvm_test_top.env.master_agent.mon [axi4_master_monitor] Read complete: ID=0x8 ADDR=0x80a12fd2 2 beats
# UVM_INFO ../src/env/axi4_scoreboard.sv(87) @ 325000: uvm_test_top.env.scb [axi4_scoreboard] Master AXI4_READ received: ID=0x8 ADDR=0x80a12fd2 LEN=1
# UVM_INFO ../src/slv/axi4_slave_monitor.sv(224) @ 325000: uvm_test_top.env.slave_agent.mon [axi4_slave_monitor] AR received: ID=0xb ADDR=0x14846480 LEN=3
# UVM_INFO ../src/slv/axi4_slave_monitor.sv(287) @ 325000: uvm_test_top.env.slave_agent.mon [axi4_slave_monitor] Read data sent: ID=0x8 ADDR=0x80a12fd2 2 beats
# UVM_INFO ../src/env/axi4_scoreboard.sv(108) @ 325000: uvm_test_top.env.scb [axi4_scoreboard] Slave AXI4_READ received: ID=0x8 ADDR=0x80a12fd2 LEN=1
# UVM_INFO ../src/env/axi4_scoreboard.sv(291) @ 325000: uvm_test_top.env.scb [axi4_scoreboard] [READ] MATCH #10: ID=0x8 ADDR=0x80a12fd2 LEN=1
# UVM_INFO ../src/slv/axi4_slave_driver.sv(228) @ 335000: uvm_test_top.env.slave_agent.drv [axi4_slave_driver] AW received: ID=0x8 ADDR=0x69ac08b4 LEN=1 LOCK=AXI4_LOCK_NORMAL
# UVM_INFO ../src/slv/axi4_slave_monitor.sv(116) @ 335000: uvm_test_top.env.slave_agent.mon [axi4_slave_monitor] AW received: ID=0x8 ADDR=0x69ac08b4 LEN=1
# UVM_INFO ../src/mst/axi4_master_monitor.sv(124) @ 335000: uvm_test_top.env.master_agent.mon [axi4_master_monitor] AW observed: ID=0x8 ADDR=0x69ac08b4 LEN=1
# UVM_INFO ../src/mst/axi4_master_monitor.sv(184) @ 345000: uvm_test_top.env.master_agent.mon [axi4_master_monitor] W data assembled: ID=0x6 ADDR=0xd5bfe0e4 2 beats
# UVM_INFO ../src/slv/axi4_slave_monitor.sv(167) @ 345000: uvm_test_top.env.slave_agent.mon [axi4_slave_monitor] W data assembled: ID=0x6 ADDR=0xd5bfe0e4 2 beats
# UVM_INFO ../src/slv/axi4_slave_driver.sv(386) @ 355000: uvm_test_top.env.slave_agent.drv [axi4_slave_driver] AR received: ID=0xe ADDR=0x85d5a4db LEN=3 LOCK=AXI4_LOCK_NORMAL
# UVM_INFO ../src/slv/axi4_slave_monitor.sv(224) @ 355000: uvm_test_top.env.slave_agent.mon [axi4_slave_monitor] AR received: ID=0xe ADDR=0x85d5a4db LEN=3
# UVM_INFO ../src/mst/axi4_master_monitor.sv(246) @ 355000: uvm_test_top.env.master_agent.mon [axi4_master_monitor] AR observed: ID=0xe ADDR=0x85d5a4db LEN=3
# UVM_INFO ../src/mst/axi4_master_driver.sv(289) @ 375000: uvm_test_top.env.master_agent.drv [axi4_master_driver] Master driver received B response: ID=0x6 RESP=AXI4_RESP_OKAY
# UVM_INFO ../src/slv/axi4_slave_driver.sv(348) @ 375000: uvm_test_top.env.slave_agent.drv [axi4_slave_driver] Write complete: ID=0x6 RESP=AXI4_RESP_OKAY
# UVM_INFO ../src/slv/axi4_slave_monitor.sv(189) @ 375000: uvm_test_top.env.slave_agent.mon [axi4_slave_monitor] Write response sent: ID=0x6 ADDR=0xd5bfe0e4 RESP=AXI4_RESP_OKAY
# UVM_INFO ../src/env/axi4_scoreboard.sv(108) @ 375000: uvm_test_top.env.scb [axi4_scoreboard] Slave AXI4_WRITE received: ID=0x6 ADDR=0xd5bfe0e4 LEN=1
# UVM_INFO ../src/mst/axi4_master_monitor.sv(210) @ 375000: uvm_test_top.env.master_agent.mon [axi4_master_monitor] Write complete: ID=0x6 ADDR=0xd5bfe0e4 RESP=AXI4_RESP_OKAY
# UVM_INFO ../src/env/axi4_scoreboard.sv(87) @ 375000: uvm_test_top.env.scb [axi4_scoreboard] Master AXI4_WRITE received: ID=0x6 ADDR=0xd5bfe0e4 LEN=1
# UVM_INFO ../src/env/axi4_scoreboard.sv(291) @ 375000: uvm_test_top.env.scb [axi4_scoreboard] [WRITE] MATCH #11: ID=0x6 ADDR=0xd5bfe0e4 LEN=1
# UVM_INFO ../src/env/axi4_scoreboard.sv(219) @ 375000: uvm_test_top.env.scb [axi4_scoreboard] [REF_MEM_WRITE] Addr=0xd5bfe0e5 Data=0x23
# UVM_INFO ../src/env/axi4_scoreboard.sv(219) @ 375000: uvm_test_top.env.scb [axi4_scoreboard] [REF_MEM_WRITE] Addr=0xd5bfe0e6 Data=0xf5
# UVM_INFO ../src/env/axi4_scoreboard.sv(219) @ 375000: uvm_test_top.env.scb [axi4_scoreboard] [REF_MEM_WRITE] Addr=0xd5bfe0e4 Data=0xc3
# UVM_INFO ../src/slv/axi4_slave_driver.sv(386) @ 385000: uvm_test_top.env.slave_agent.drv [axi4_slave_driver] AR received: ID=0x5 ADDR=0x3950d7f3 LEN=7 LOCK=AXI4_LOCK_NORMAL
# UVM_INFO ../src/mst/axi4_master_monitor.sv(246) @ 385000: uvm_test_top.env.master_agent.mon [axi4_master_monitor] AR observed: ID=0x5 ADDR=0x3950d7f3 LEN=7
# UVM_INFO ../src/slv/axi4_slave_monitor.sv(224) @ 385000: uvm_test_top.env.slave_agent.mon [axi4_slave_monitor] AR received: ID=0x5 ADDR=0x3950d7f3 LEN=7
# UVM_INFO ../src/mst/axi4_master_monitor.sv(184) @ 385000: uvm_test_top.env.master_agent.mon [axi4_master_monitor] W data assembled: ID=0x8 ADDR=0x69ac08b4 2 beats
# UVM_INFO ../src/slv/axi4_slave_monitor.sv(167) @ 385000: uvm_test_top.env.slave_agent.mon [axi4_slave_monitor] W data assembled: ID=0x8 ADDR=0x69ac08b4 2 beats
# UVM_INFO ../src/mst/axi4_master_driver.sv(348) @ 405000: uvm_test_top.env.master_agent.drv [axi4_master_driver] Master driver received all R beats for ID=0xf
# UVM_INFO ../src/slv/axi4_slave_driver.sv(501) @ 405000: uvm_test_top.env.slave_agent.drv [axi4_slave_driver] Read complete: ID=0xf ADDR=0x6ea4305f RESP=AXI4_RESP_OKAY  4 beats sent
# UVM_INFO ../src/mst/axi4_master_monitor.sv(314) @ 405000: uvm_test_top.env.master_agent.mon [axi4_master_monitor] Read complete: ID=0xf ADDR=0x6ea4305f 4 beats
# UVM_INFO ../src/env/axi4_scoreboard.sv(87) @ 405000: uvm_test_top.env.scb [axi4_scoreboard] Master AXI4_READ received: ID=0xf ADDR=0x6ea4305f LEN=3
# UVM_INFO ../src/slv/axi4_slave_monitor.sv(287) @ 405000: uvm_test_top.env.slave_agent.mon [axi4_slave_monitor] Read data sent: ID=0xf ADDR=0x6ea4305f 4 beats
# UVM_INFO ../src/env/axi4_scoreboard.sv(108) @ 405000: uvm_test_top.env.scb [axi4_scoreboard] Slave AXI4_READ received: ID=0xf ADDR=0x6ea4305f LEN=3
# UVM_INFO ../src/env/axi4_scoreboard.sv(291) @ 405000: uvm_test_top.env.scb [axi4_scoreboard] [READ] MATCH #12: ID=0xf ADDR=0x6ea4305f LEN=3
# UVM_INFO ../src/mst/axi4_master_driver.sv(289) @ 415000: uvm_test_top.env.master_agent.drv [axi4_master_driver] Master driver received B response: ID=0x8 RESP=AXI4_RESP_OKAY
# UVM_INFO ../src/slv/axi4_slave_driver.sv(386) @ 415000: uvm_test_top.env.slave_agent.drv [axi4_slave_driver] AR received: ID=0x1 ADDR=0xc956314d LEN=7 LOCK=AXI4_LOCK_NORMAL
# UVM_INFO ../src/slv/axi4_slave_driver.sv(348) @ 415000: uvm_test_top.env.slave_agent.drv [axi4_slave_driver] Write complete: ID=0x8 RESP=AXI4_RESP_OKAY
# UVM_INFO ../src/slv/axi4_slave_monitor.sv(224) @ 415000: uvm_test_top.env.slave_agent.mon [axi4_slave_monitor] AR received: ID=0x1 ADDR=0xc956314d LEN=7
# UVM_INFO ../src/slv/axi4_slave_monitor.sv(189) @ 415000: uvm_test_top.env.slave_agent.mon [axi4_slave_monitor] Write response sent: ID=0x8 ADDR=0x69ac08b4 RESP=AXI4_RESP_OKAY
# UVM_INFO ../src/env/axi4_scoreboard.sv(108) @ 415000: uvm_test_top.env.scb [axi4_scoreboard] Slave AXI4_WRITE received: ID=0x8 ADDR=0x69ac08b4 LEN=1
# UVM_INFO ../src/mst/axi4_master_monitor.sv(246) @ 415000: uvm_test_top.env.master_agent.mon [axi4_master_monitor] AR observed: ID=0x1 ADDR=0xc956314d LEN=7
# UVM_INFO ../src/mst/axi4_master_monitor.sv(210) @ 415000: uvm_test_top.env.master_agent.mon [axi4_master_monitor] Write complete: ID=0x8 ADDR=0x69ac08b4 RESP=AXI4_RESP_OKAY
# UVM_INFO ../src/env/axi4_scoreboard.sv(87) @ 415000: uvm_test_top.env.scb [axi4_scoreboard] Master AXI4_WRITE received: ID=0x8 ADDR=0x69ac08b4 LEN=1
# UVM_INFO ../src/env/axi4_scoreboard.sv(291) @ 415000: uvm_test_top.env.scb [axi4_scoreboard] [WRITE] MATCH #13: ID=0x8 ADDR=0x69ac08b4 LEN=1
# UVM_INFO ../src/env/axi4_scoreboard.sv(219) @ 415000: uvm_test_top.env.scb [axi4_scoreboard] [REF_MEM_WRITE] Addr=0x69ac08b4 Data=0xd8
# UVM_INFO ../src/env/axi4_scoreboard.sv(219) @ 415000: uvm_test_top.env.scb [axi4_scoreboard] [REF_MEM_WRITE] Addr=0x69ac08b5 Data=0x9b
# UVM_INFO ../src/slv/axi4_slave_driver.sv(386) @ 445000: uvm_test_top.env.slave_agent.drv [axi4_slave_driver] AR received: ID=0x5 ADDR=0x85e9be4a LEN=7 LOCK=AXI4_LOCK_NORMAL
# UVM_INFO ../src/mst/axi4_master_monitor.sv(246) @ 445000: uvm_test_top.env.master_agent.mon [axi4_master_monitor] AR observed: ID=0x5 ADDR=0x85e9be4a LEN=7
# UVM_INFO ../src/slv/axi4_slave_monitor.sv(224) @ 445000: uvm_test_top.env.slave_agent.mon [axi4_slave_monitor] AR received: ID=0x5 ADDR=0x85e9be4a LEN=7
# UVM_INFO ../src/slv/axi4_slave_driver.sv(228) @ 465000: uvm_test_top.env.slave_agent.drv [axi4_slave_driver] AW received: ID=0xf ADDR=0xc7346e22 LEN=3 LOCK=AXI4_LOCK_NORMAL
# UVM_INFO ../src/mst/axi4_master_monitor.sv(124) @ 465000: uvm_test_top.env.master_agent.mon [axi4_master_monitor] AW observed: ID=0xf ADDR=0xc7346e22 LEN=3
# UVM_INFO ../src/slv/axi4_slave_monitor.sv(116) @ 465000: uvm_test_top.env.slave_agent.mon [axi4_slave_monitor] AW received: ID=0xf ADDR=0xc7346e22 LEN=3
# UVM_INFO ../src/mst/axi4_master_monitor.sv(184) @ 465000: uvm_test_top.env.master_agent.mon [axi4_master_monitor] W data assembled: ID=0xf ADDR=0xc7346e22 4 beats
# UVM_INFO ../src/slv/axi4_slave_monitor.sv(167) @ 465000: uvm_test_top.env.slave_agent.mon [axi4_slave_monitor] W data assembled: ID=0xf ADDR=0xc7346e22 4 beats
# UVM_INFO ../src/slv/axi4_slave_driver.sv(386) @ 475000: uvm_test_top.env.slave_agent.drv [axi4_slave_driver] AR received: ID=0x6 ADDR=0xa78acbcd LEN=15 LOCK=AXI4_LOCK_NORMAL
# UVM_INFO ../src/slv/axi4_slave_monitor.sv(224) @ 475000: uvm_test_top.env.slave_agent.mon [axi4_slave_monitor] AR received: ID=0x6 ADDR=0xa78acbcd LEN=15
# UVM_INFO ../src/mst/axi4_master_monitor.sv(246) @ 475000: uvm_test_top.env.master_agent.mon [axi4_master_monitor] AR observed: ID=0x6 ADDR=0xa78acbcd LEN=15
# UVM_INFO ../src/mst/axi4_master_driver.sv(348) @ 485000: uvm_test_top.env.master_agent.drv [axi4_master_driver] Master driver received all R beats for ID=0xb
# UVM_INFO ../src/slv/axi4_slave_driver.sv(501) @ 485000: uvm_test_top.env.slave_agent.drv [axi4_slave_driver] Read complete: ID=0xb ADDR=0x14846480 RESP=AXI4_RESP_OKAY  4 beats sent
# UVM_INFO ../src/mst/axi4_master_monitor.sv(314) @ 485000: uvm_test_top.env.master_agent.mon [axi4_master_monitor] Read complete: ID=0xb ADDR=0x14846480 4 beats
# UVM_INFO ../src/env/axi4_scoreboard.sv(87) @ 485000: uvm_test_top.env.scb [axi4_scoreboard] Master AXI4_READ received: ID=0xb ADDR=0x14846480 LEN=3
# UVM_INFO ../src/slv/axi4_slave_monitor.sv(287) @ 485000: uvm_test_top.env.slave_agent.mon [axi4_slave_monitor] Read data sent: ID=0xb ADDR=0x14846480 4 beats
# UVM_INFO ../src/env/axi4_scoreboard.sv(108) @ 485000: uvm_test_top.env.scb [axi4_scoreboard] Slave AXI4_READ received: ID=0xb ADDR=0x14846480 LEN=3
# UVM_INFO ../src/env/axi4_scoreboard.sv(291) @ 485000: uvm_test_top.env.scb [axi4_scoreboard] [READ] MATCH #14: ID=0xb ADDR=0x14846480 LEN=3
# UVM_INFO ../src/mst/axi4_master_driver.sv(289) @ 495000: uvm_test_top.env.master_agent.drv [axi4_master_driver] Master driver received B response: ID=0xf RESP=AXI4_RESP_OKAY
# UVM_INFO ../src/slv/axi4_slave_driver.sv(228) @ 495000: uvm_test_top.env.slave_agent.drv [axi4_slave_driver] AW received: ID=0xb ADDR=0x1f012c9d LEN=3 LOCK=AXI4_LOCK_NORMAL
# UVM_INFO ../src/slv/axi4_slave_driver.sv(348) @ 495000: uvm_test_top.env.slave_agent.drv [axi4_slave_driver] Write complete: ID=0xf RESP=AXI4_RESP_OKAY
# UVM_INFO ../src/slv/axi4_slave_monitor.sv(189) @ 495000: uvm_test_top.env.slave_agent.mon [axi4_slave_monitor] Write response sent: ID=0xf ADDR=0xc7346e22 RESP=AXI4_RESP_OKAY
# UVM_INFO ../src/env/axi4_scoreboard.sv(108) @ 495000: uvm_test_top.env.scb [axi4_scoreboard] Slave AXI4_WRITE received: ID=0xf ADDR=0xc7346e22 LEN=3
# UVM_INFO ../src/slv/axi4_slave_monitor.sv(116) @ 495000: uvm_test_top.env.slave_agent.mon [axi4_slave_monitor] AW received: ID=0xb ADDR=0x1f012c9d LEN=3
# UVM_INFO ../src/mst/axi4_master_monitor.sv(210) @ 495000: uvm_test_top.env.master_agent.mon [axi4_master_monitor] Write complete: ID=0xf ADDR=0xc7346e22 RESP=AXI4_RESP_OKAY
# UVM_INFO ../src/env/axi4_scoreboard.sv(87) @ 495000: uvm_test_top.env.scb [axi4_scoreboard] Master AXI4_WRITE received: ID=0xf ADDR=0xc7346e22 LEN=3
# UVM_INFO ../src/env/axi4_scoreboard.sv(291) @ 495000: uvm_test_top.env.scb [axi4_scoreboard] [WRITE] MATCH #15: ID=0xf ADDR=0xc7346e22 LEN=3
# UVM_INFO ../src/env/axi4_scoreboard.sv(219) @ 495000: uvm_test_top.env.scb [axi4_scoreboard] [REF_MEM_WRITE] Addr=0xc7346e21 Data=0xc6
# UVM_INFO ../src/env/axi4_scoreboard.sv(219) @ 495000: uvm_test_top.env.scb [axi4_scoreboard] [REF_MEM_WRITE] Addr=0xc7346e23 Data=0x71
# UVM_INFO ../src/env/axi4_scoreboard.sv(219) @ 495000: uvm_test_top.env.scb [axi4_scoreboard] [REF_MEM_WRITE] Addr=0xc7346e23 Data=0xf9
# UVM_INFO ../src/env/axi4_scoreboard.sv(219) @ 495000: uvm_test_top.env.scb [axi4_scoreboard] [REF_MEM_WRITE] Addr=0xc7346e21 Data=0x5b
# UVM_INFO ../src/env/axi4_scoreboard.sv(219) @ 495000: uvm_test_top.env.scb [axi4_scoreboard] [REF_MEM_WRITE] Addr=0xc7346e23 Data=0xb6
# UVM_INFO ../src/env/axi4_scoreboard.sv(219) @ 495000: uvm_test_top.env.scb [axi4_scoreboard] [REF_MEM_WRITE] Addr=0xc7346e20 Data=0x45
# UVM_INFO ../src/env/axi4_scoreboard.sv(219) @ 495000: uvm_test_top.env.scb [axi4_scoreboard] [REF_MEM_WRITE] Addr=0xc7346e23 Data=0x3f
# UVM_INFO ../src/mst/axi4_master_monitor.sv(124) @ 495000: uvm_test_top.env.master_agent.mon [axi4_master_monitor] AW observed: ID=0xb ADDR=0x1f012c9d LEN=3
# UVM_INFO ../src/slv/axi4_slave_driver.sv(386) @ 505000: uvm_test_top.env.slave_agent.drv [axi4_slave_driver] AR received: ID=0x5 ADDR=0x2c676a2f LEN=15 LOCK=AXI4_LOCK_NORMAL
# UVM_INFO ../src/mst/axi4_master_monitor.sv(246) @ 505000: uvm_test_top.env.master_agent.mon [axi4_master_monitor] AR observed: ID=0x5 ADDR=0x2c676a2f LEN=15
# UVM_INFO ../src/slv/axi4_slave_monitor.sv(224) @ 505000: uvm_test_top.env.slave_agent.mon [axi4_slave_monitor] AR received: ID=0x5 ADDR=0x2c676a2f LEN=15
# UVM_INFO ../src/slv/axi4_slave_driver.sv(386) @ 535000: uvm_test_top.env.slave_agent.drv [axi4_slave_driver] AR received: ID=0xb ADDR=0x8cab238e LEN=15 LOCK=AXI4_LOCK_NORMAL
# UVM_INFO ../src/slv/axi4_slave_monitor.sv(224) @ 535000: uvm_test_top.env.slave_agent.mon [axi4_slave_monitor] AR received: ID=0xb ADDR=0x8cab238e LEN=15
# UVM_INFO ../src/mst/axi4_master_monitor.sv(246) @ 535000: uvm_test_top.env.master_agent.mon [axi4_master_monitor] AR observed: ID=0xb ADDR=0x8cab238e LEN=15
# UVM_INFO ../src/mst/axi4_master_monitor.sv(184) @ 545000: uvm_test_top.env.master_agent.mon [axi4_master_monitor] W data assembled: ID=0xb ADDR=0x1f012c9d 4 beats
# UVM_INFO ../src/slv/axi4_slave_monitor.sv(167) @ 545000: uvm_test_top.env.slave_agent.mon [axi4_slave_monitor] W data assembled: ID=0xb ADDR=0x1f012c9d 4 beats
# UVM_INFO ../src/mst/axi4_master_driver.sv(348) @ 565000: uvm_test_top.env.master_agent.drv [axi4_master_driver] Master driver received all R beats for ID=0xe
# UVM_INFO ../src/slv/axi4_slave_driver.sv(386) @ 565000: uvm_test_top.env.slave_agent.drv [axi4_slave_driver] AR received: ID=0x0 ADDR=0x368e91a7 LEN=1 LOCK=AXI4_LOCK_NORMAL
# UVM_INFO ../src/slv/axi4_slave_driver.sv(501) @ 565000: uvm_test_top.env.slave_agent.drv [axi4_slave_driver] Read complete: ID=0xe ADDR=0x85d5a4db RESP=AXI4_RESP_OKAY  4 beats sent
# UVM_INFO ../src/mst/axi4_master_monitor.sv(246) @ 565000: uvm_test_top.env.master_agent.mon [axi4_master_monitor] AR observed: ID=0x0 ADDR=0x368e91a7 LEN=1
# UVM_INFO ../src/mst/axi4_master_monitor.sv(314) @ 565000: uvm_test_top.env.master_agent.mon [axi4_master_monitor] Read complete: ID=0xe ADDR=0x85d5a4db 4 beats
# UVM_INFO ../src/env/axi4_scoreboard.sv(87) @ 565000: uvm_test_top.env.scb [axi4_scoreboard] Master AXI4_READ received: ID=0xe ADDR=0x85d5a4db LEN=3
# UVM_INFO ../src/slv/axi4_slave_monitor.sv(224) @ 565000: uvm_test_top.env.slave_agent.mon [axi4_slave_monitor] AR received: ID=0x0 ADDR=0x368e91a7 LEN=1
# UVM_INFO ../src/slv/axi4_slave_monitor.sv(287) @ 565000: uvm_test_top.env.slave_agent.mon [axi4_slave_monitor] Read data sent: ID=0xe ADDR=0x85d5a4db 4 beats
# UVM_INFO ../src/env/axi4_scoreboard.sv(108) @ 565000: uvm_test_top.env.scb [axi4_scoreboard] Slave AXI4_READ received: ID=0xe ADDR=0x85d5a4db LEN=3
# UVM_INFO ../src/env/axi4_scoreboard.sv(291) @ 565000: uvm_test_top.env.scb [axi4_scoreboard] [READ] MATCH #16: ID=0xe ADDR=0x85d5a4db LEN=3
# UVM_INFO ../src/mst/axi4_master_driver.sv(289) @ 575000: uvm_test_top.env.master_agent.drv [axi4_master_driver] Master driver received B response: ID=0xb RESP=AXI4_RESP_OKAY
# UVM_INFO ../src/slv/axi4_slave_driver.sv(348) @ 575000: uvm_test_top.env.slave_agent.drv [axi4_slave_driver] Write complete: ID=0xb RESP=AXI4_RESP_OKAY
# UVM_INFO ../src/slv/axi4_slave_monitor.sv(189) @ 575000: uvm_test_top.env.slave_agent.mon [axi4_slave_monitor] Write response sent: ID=0xb ADDR=0x1f012c9d RESP=AXI4_RESP_OKAY
# UVM_INFO ../src/env/axi4_scoreboard.sv(108) @ 575000: uvm_test_top.env.scb [axi4_scoreboard] Slave AXI4_WRITE received: ID=0xb ADDR=0x1f012c9d LEN=3
# UVM_INFO ../src/mst/axi4_master_monitor.sv(210) @ 575000: uvm_test_top.env.master_agent.mon [axi4_master_monitor] Write complete: ID=0xb ADDR=0x1f012c9d RESP=AXI4_RESP_OKAY
# UVM_INFO ../src/env/axi4_scoreboard.sv(87) @ 575000: uvm_test_top.env.scb [axi4_scoreboard] Master AXI4_WRITE received: ID=0xb ADDR=0x1f012c9d LEN=3
# UVM_INFO ../src/env/axi4_scoreboard.sv(291) @ 575000: uvm_test_top.env.scb [axi4_scoreboard] [WRITE] MATCH #17: ID=0xb ADDR=0x1f012c9d LEN=3
# UVM_INFO ../src/env/axi4_scoreboard.sv(219) @ 575000: uvm_test_top.env.scb [axi4_scoreboard] [REF_MEM_WRITE] Addr=0x1f012c9f Data=0x2d
# UVM_INFO ../src/env/axi4_scoreboard.sv(219) @ 575000: uvm_test_top.env.scb [axi4_scoreboard] [REF_MEM_WRITE] Addr=0x1f012c9d Data=0xd7
# UVM_INFO ../src/env/axi4_scoreboard.sv(219) @ 575000: uvm_test_top.env.scb [axi4_scoreboard] [REF_MEM_WRITE] Addr=0x1f012c9e Data=0xd7
# UVM_INFO ../src/env/axi4_scoreboard.sv(219) @ 575000: uvm_test_top.env.scb [axi4_scoreboard] [REF_MEM_WRITE] Addr=0x1f012c9f Data=0x32
# UVM_INFO ../src/env/axi4_scoreboard.sv(219) @ 575000: uvm_test_top.env.scb [axi4_scoreboard] [REF_MEM_WRITE] Addr=0x1f012c9d Data=0x59
# UVM_INFO ../src/env/axi4_scoreboard.sv(219) @ 575000: uvm_test_top.env.scb [axi4_scoreboard] [REF_MEM_WRITE] Addr=0x1f012c9c Data=0x47
# UVM_INFO ../src/env/axi4_scoreboard.sv(219) @ 575000: uvm_test_top.env.scb [axi4_scoreboard] [REF_MEM_WRITE] Addr=0x1f012c9d Data=0x9f
# UVM_INFO ../src/env/axi4_scoreboard.sv(219) @ 575000: uvm_test_top.env.scb [axi4_scoreboard] [REF_MEM_WRITE] Addr=0x1f012c9e Data=0xd9
# UVM_INFO ../src/env/axi4_scoreboard.sv(219) @ 575000: uvm_test_top.env.scb [axi4_scoreboard] [REF_MEM_WRITE] Addr=0x1f012c9f Data=0x48
# UVM_INFO ../src/slv/axi4_slave_driver.sv(386) @ 595000: uvm_test_top.env.slave_agent.drv [axi4_slave_driver] AR received: ID=0x8 ADDR=0x76251f34 LEN=1 LOCK=AXI4_LOCK_NORMAL
# UVM_INFO ../src/slv/axi4_slave_monitor.sv(224) @ 595000: uvm_test_top.env.slave_agent.mon [axi4_slave_monitor] AR received: ID=0x8 ADDR=0x76251f34 LEN=1
# UVM_INFO ../src/mst/axi4_master_monitor.sv(246) @ 595000: uvm_test_top.env.master_agent.mon [axi4_master_monitor] AR observed: ID=0x8 ADDR=0x76251f34 LEN=1
# UVM_INFO ../src/slv/axi4_slave_driver.sv(228) @ 625000: uvm_test_top.env.slave_agent.drv [axi4_slave_driver] AW received: ID=0xd ADDR=0x5f0b98d7 LEN=3 LOCK=AXI4_LOCK_NORMAL
# UVM_INFO ../src/slv/axi4_slave_driver.sv(386) @ 625000: uvm_test_top.env.slave_agent.drv [axi4_slave_driver] AR received: ID=0xc ADDR=0x5ad22f80 LEN=1 LOCK=AXI4_LOCK_NORMAL
# UVM_INFO ../src/mst/axi4_master_monitor.sv(124) @ 625000: uvm_test_top.env.master_agent.mon [axi4_master_monitor] AW observed: ID=0xd ADDR=0x5f0b98d7 LEN=3
# UVM_INFO ../src/mst/axi4_master_monitor.sv(246) @ 625000: uvm_test_top.env.master_agent.mon [axi4_master_monitor] AR observed: ID=0xc ADDR=0x5ad22f80 LEN=1
# UVM_INFO ../src/slv/axi4_slave_monitor.sv(116) @ 625000: uvm_test_top.env.slave_agent.mon [axi4_slave_monitor] AW received: ID=0xd ADDR=0x5f0b98d7 LEN=3
# UVM_INFO ../src/slv/axi4_slave_monitor.sv(224) @ 625000: uvm_test_top.env.slave_agent.mon [axi4_slave_monitor] AR received: ID=0xc ADDR=0x5ad22f80 LEN=1
# UVM_INFO ../src/mst/axi4_master_monitor.sv(184) @ 625000: uvm_test_top.env.master_agent.mon [axi4_master_monitor] W data assembled: ID=0xd ADDR=0x5f0b98d7 4 beats
# UVM_INFO ../src/slv/axi4_slave_monitor.sv(167) @ 625000: uvm_test_top.env.slave_agent.mon [axi4_slave_monitor] W data assembled: ID=0xd ADDR=0x5f0b98d7 4 beats
# UVM_INFO ../src/mst/axi4_master_driver.sv(289) @ 655000: uvm_test_top.env.master_agent.drv [axi4_master_driver] Master driver received B response: ID=0xd RESP=AXI4_RESP_OKAY
# UVM_INFO ../src/slv/axi4_slave_driver.sv(386) @ 655000: uvm_test_top.env.slave_agent.drv [axi4_slave_driver] AR received: ID=0xd ADDR=0x6764decb LEN=3 LOCK=AXI4_LOCK_NORMAL
# UVM_INFO ../src/slv/axi4_slave_driver.sv(228) @ 655000: uvm_test_top.env.slave_agent.drv [axi4_slave_driver] AW received: ID=0xd ADDR=0x16ddd876 LEN=7 LOCK=AXI4_LOCK_NORMAL
# UVM_INFO ../src/slv/axi4_slave_driver.sv(348) @ 655000: uvm_test_top.env.slave_agent.drv [axi4_slave_driver] Write complete: ID=0xd RESP=AXI4_RESP_OKAY
# UVM_INFO ../src/slv/axi4_slave_monitor.sv(224) @ 655000: uvm_test_top.env.slave_agent.mon [axi4_slave_monitor] AR received: ID=0xd ADDR=0x6764decb LEN=3
# UVM_INFO ../src/slv/axi4_slave_monitor.sv(189) @ 655000: uvm_test_top.env.slave_agent.mon [axi4_slave_monitor] Write response sent: ID=0xd ADDR=0x5f0b98d7 RESP=AXI4_RESP_OKAY
# UVM_INFO ../src/env/axi4_scoreboard.sv(108) @ 655000: uvm_test_top.env.scb [axi4_scoreboard] Slave AXI4_WRITE received: ID=0xd ADDR=0x5f0b98d7 LEN=3
# UVM_INFO ../src/slv/axi4_slave_monitor.sv(116) @ 655000: uvm_test_top.env.slave_agent.mon [axi4_slave_monitor] AW received: ID=0xd ADDR=0x16ddd876 LEN=7
# UVM_INFO ../src/mst/axi4_master_monitor.sv(246) @ 655000: uvm_test_top.env.master_agent.mon [axi4_master_monitor] AR observed: ID=0xd ADDR=0x6764decb LEN=3
# UVM_INFO ../src/mst/axi4_master_monitor.sv(210) @ 655000: uvm_test_top.env.master_agent.mon [axi4_master_monitor] Write complete: ID=0xd ADDR=0x5f0b98d7 RESP=AXI4_RESP_OKAY
# UVM_INFO ../src/env/axi4_scoreboard.sv(87) @ 655000: uvm_test_top.env.scb [axi4_scoreboard] Master AXI4_WRITE received: ID=0xd ADDR=0x5f0b98d7 LEN=3
# UVM_INFO ../src/env/axi4_scoreboard.sv(291) @ 655000: uvm_test_top.env.scb [axi4_scoreboard] [WRITE] MATCH #18: ID=0xd ADDR=0x5f0b98d7 LEN=3
# UVM_INFO ../src/env/axi4_scoreboard.sv(219) @ 655000: uvm_test_top.env.scb [axi4_scoreboard] [REF_MEM_WRITE] Addr=0x5f0b98d4 Data=0x99
# UVM_INFO ../src/env/axi4_scoreboard.sv(219) @ 655000: uvm_test_top.env.scb [axi4_scoreboard] [REF_MEM_WRITE] Addr=0x5f0b98d7 Data=0xfa
# UVM_INFO ../src/env/axi4_scoreboard.sv(219) @ 655000: uvm_test_top.env.scb [axi4_scoreboard] [REF_MEM_WRITE] Addr=0x5f0b98d4 Data=0x12
# UVM_INFO ../src/env/axi4_scoreboard.sv(219) @ 655000: uvm_test_top.env.scb [axi4_scoreboard] [REF_MEM_WRITE] Addr=0x5f0b98d6 Data=0xa8
# UVM_INFO ../src/env/axi4_scoreboard.sv(219) @ 655000: uvm_test_top.env.scb [axi4_scoreboard] [REF_MEM_WRITE] Addr=0x5f0b98d7 Data=0x06
# UVM_INFO ../src/env/axi4_scoreboard.sv(219) @ 655000: uvm_test_top.env.scb [axi4_scoreboard] [REF_MEM_WRITE] Addr=0x5f0b98d5 Data=0x28
# UVM_INFO ../src/mst/axi4_master_monitor.sv(124) @ 655000: uvm_test_top.env.master_agent.mon [axi4_master_monitor] AW observed: ID=0xd ADDR=0x16ddd876 LEN=7
# UVM_INFO ../src/slv/axi4_slave_driver.sv(386) @ 685000: uvm_test_top.env.slave_agent.drv [axi4_slave_driver] AR received: ID=0xe ADDR=0xc4f50ec6 LEN=3 LOCK=AXI4_LOCK_NORMAL
# UVM_INFO ../src/mst/axi4_master_monitor.sv(246) @ 685000: uvm_test_top.env.master_agent.mon [axi4_master_monitor] AR observed: ID=0xe ADDR=0xc4f50ec6 LEN=3
# UVM_INFO ../src/slv/axi4_slave_monitor.sv(224) @ 685000: uvm_test_top.env.slave_agent.mon [axi4_slave_monitor] AR received: ID=0xe ADDR=0xc4f50ec6 LEN=3
# UVM_INFO ../src/slv/axi4_slave_driver.sv(386) @ 715000: uvm_test_top.env.slave_agent.drv [axi4_slave_driver] AR received: ID=0xc ADDR=0xceed557c LEN=3 LOCK=AXI4_LOCK_NORMAL
# UVM_INFO ../src/slv/axi4_slave_monitor.sv(224) @ 715000: uvm_test_top.env.slave_agent.mon [axi4_slave_monitor] AR received: ID=0xc ADDR=0xceed557c LEN=3
# UVM_INFO ../src/mst/axi4_master_monitor.sv(246) @ 715000: uvm_test_top.env.master_agent.mon [axi4_master_monitor] AR observed: ID=0xc ADDR=0xceed557c LEN=3
# UVM_INFO ../src/mst/axi4_master_driver.sv(348) @ 725000: uvm_test_top.env.master_agent.drv [axi4_master_driver] Master driver received all R beats for ID=0x5
# UVM_INFO ../src/slv/axi4_slave_driver.sv(501) @ 725000: uvm_test_top.env.slave_agent.drv [axi4_slave_driver] Read complete: ID=0x5 ADDR=0x3950d7f3 RESP=AXI4_RESP_OKAY  8 beats sent
# UVM_INFO ../src/mst/axi4_master_monitor.sv(314) @ 725000: uvm_test_top.env.master_agent.mon [axi4_master_monitor] Read complete: ID=0x5 ADDR=0x3950d7f3 8 beats
# UVM_INFO ../src/env/axi4_scoreboard.sv(87) @ 725000: uvm_test_top.env.scb [axi4_scoreboard] Master AXI4_READ received: ID=0x5 ADDR=0x3950d7f3 LEN=7
# UVM_INFO ../src/slv/axi4_slave_monitor.sv(287) @ 725000: uvm_test_top.env.slave_agent.mon [axi4_slave_monitor] Read data sent: ID=0x5 ADDR=0x3950d7f3 8 beats
# UVM_INFO ../src/env/axi4_scoreboard.sv(108) @ 725000: uvm_test_top.env.scb [axi4_scoreboard] Slave AXI4_READ received: ID=0x5 ADDR=0x3950d7f3 LEN=7
# UVM_INFO ../src/env/axi4_scoreboard.sv(291) @ 725000: uvm_test_top.env.scb [axi4_scoreboard] [READ] MATCH #19: ID=0x5 ADDR=0x3950d7f3 LEN=7
# UVM_INFO ../src/slv/axi4_slave_driver.sv(386) @ 745000: uvm_test_top.env.slave_agent.drv [axi4_slave_driver] AR received: ID=0x5 ADDR=0x636cd967 LEN=7 LOCK=AXI4_LOCK_NORMAL
# UVM_INFO ../src/mst/axi4_master_monitor.sv(246) @ 745000: uvm_test_top.env.master_agent.mon [axi4_master_monitor] AR observed: ID=0x5 ADDR=0x636cd967 LEN=7
# UVM_INFO ../src/slv/axi4_slave_monitor.sv(224) @ 745000: uvm_test_top.env.slave_agent.mon [axi4_slave_monitor] AR received: ID=0x5 ADDR=0x636cd967 LEN=7
# UVM_INFO ../src/slv/axi4_slave_driver.sv(386) @ 775000: uvm_test_top.env.slave_agent.drv [axi4_slave_driver] AR received: ID=0xa ADDR=0x3a766a48 LEN=7 LOCK=AXI4_LOCK_NORMAL
# UVM_INFO ../src/slv/axi4_slave_monitor.sv(224) @ 775000: uvm_test_top.env.slave_agent.mon [axi4_slave_monitor] AR received: ID=0xa ADDR=0x3a766a48 LEN=7
# UVM_INFO ../src/mst/axi4_master_monitor.sv(246) @ 775000: uvm_test_top.env.master_agent.mon [axi4_master_monitor] AR observed: ID=0xa ADDR=0x3a766a48 LEN=7
# UVM_INFO ../src/slv/axi4_slave_driver.sv(386) @ 805000: uvm_test_top.env.slave_agent.drv [axi4_slave_driver] AR received: ID=0xd ADDR=0x89ad7010 LEN=7 LOCK=AXI4_LOCK_NORMAL
# UVM_INFO ../src/mst/axi4_master_monitor.sv(246) @ 805000: uvm_test_top.env.master_agent.mon [axi4_master_monitor] AR observed: ID=0xd ADDR=0x89ad7010 LEN=7
# UVM_INFO ../src/slv/axi4_slave_monitor.sv(224) @ 805000: uvm_test_top.env.slave_agent.mon [axi4_slave_monitor] AR received: ID=0xd ADDR=0x89ad7010 LEN=7
# UVM_INFO ../src/slv/axi4_slave_monitor.sv(167) @ 815000: uvm_test_top.env.slave_agent.mon [axi4_slave_monitor] W data assembled: ID=0xd ADDR=0x16ddd876 8 beats
# UVM_INFO ../src/mst/axi4_master_monitor.sv(184) @ 815000: uvm_test_top.env.master_agent.mon [axi4_master_monitor] W data assembled: ID=0xd ADDR=0x16ddd876 8 beats
# UVM_INFO ../src/slv/axi4_slave_driver.sv(386) @ 835000: uvm_test_top.env.slave_agent.drv [axi4_slave_driver] AR received: ID=0x8 ADDR=0xd8b9ffcb LEN=15 LOCK=AXI4_LOCK_NORMAL
# UVM_INFO ../src/slv/axi4_slave_monitor.sv(224) @ 835000: uvm_test_top.env.slave_agent.mon [axi4_slave_monitor] AR received: ID=0x8 ADDR=0xd8b9ffcb LEN=15
# UVM_INFO ../src/mst/axi4_master_monitor.sv(246) @ 835000: uvm_test_top.env.master_agent.mon [axi4_master_monitor] AR observed: ID=0x8 ADDR=0xd8b9ffcb LEN=15
# UVM_INFO ../src/mst/axi4_master_driver.sv(289) @ 845000: uvm_test_top.env.master_agent.drv [axi4_master_driver] Master driver received B response: ID=0xd RESP=AXI4_RESP_OKAY
# UVM_INFO ../src/slv/axi4_slave_driver.sv(348) @ 845000: uvm_test_top.env.slave_agent.drv [axi4_slave_driver] Write complete: ID=0xd RESP=AXI4_RESP_OKAY
# UVM_INFO ../src/mst/axi4_master_monitor.sv(210) @ 845000: uvm_test_top.env.master_agent.mon [axi4_master_monitor] Write complete: ID=0xd ADDR=0x16ddd876 RESP=AXI4_RESP_OKAY
# UVM_INFO ../src/env/axi4_scoreboard.sv(87) @ 845000: uvm_test_top.env.scb [axi4_scoreboard] Master AXI4_WRITE received: ID=0xd ADDR=0x16ddd876 LEN=7
# UVM_INFO ../src/slv/axi4_slave_monitor.sv(189) @ 845000: uvm_test_top.env.slave_agent.mon [axi4_slave_monitor] Write response sent: ID=0xd ADDR=0x16ddd876 RESP=AXI4_RESP_OKAY
# UVM_INFO ../src/env/axi4_scoreboard.sv(108) @ 845000: uvm_test_top.env.scb [axi4_scoreboard] Slave AXI4_WRITE received: ID=0xd ADDR=0x16ddd876 LEN=7
# UVM_INFO ../src/env/axi4_scoreboard.sv(291) @ 845000: uvm_test_top.env.scb [axi4_scoreboard] [WRITE] MATCH #20: ID=0xd ADDR=0x16ddd876 LEN=7
# UVM_INFO ../src/env/axi4_scoreboard.sv(219) @ 845000: uvm_test_top.env.scb [axi4_scoreboard] [REF_MEM_WRITE] Addr=0x16ddd874 Data=0x3f
# UVM_INFO ../src/env/axi4_scoreboard.sv(219) @ 845000: uvm_test_top.env.scb [axi4_scoreboard] [REF_MEM_WRITE] Addr=0x16ddd875 Data=0x59
# UVM_INFO ../src/env/axi4_scoreboard.sv(219) @ 845000: uvm_test_top.env.scb [axi4_scoreboard] [REF_MEM_WRITE] Addr=0x16ddd877 Data=0xb2
# UVM_INFO ../src/env/axi4_scoreboard.sv(219) @ 845000: uvm_test_top.env.scb [axi4_scoreboard] [REF_MEM_WRITE] Addr=0x16ddd876 Data=0x66
# UVM_INFO ../src/env/axi4_scoreboard.sv(219) @ 845000: uvm_test_top.env.scb [axi4_scoreboard] [REF_MEM_WRITE] Addr=0x16ddd876 Data=0x50
# UVM_INFO ../src/env/axi4_scoreboard.sv(219) @ 845000: uvm_test_top.env.scb [axi4_scoreboard] [REF_MEM_WRITE] Addr=0x16ddd874 Data=0x91
# UVM_INFO ../src/env/axi4_scoreboard.sv(219) @ 845000: uvm_test_top.env.scb [axi4_scoreboard] [REF_MEM_WRITE] Addr=0x16ddd875 Data=0xfb
# UVM_INFO ../src/env/axi4_scoreboard.sv(219) @ 845000: uvm_test_top.env.scb [axi4_scoreboard] [REF_MEM_WRITE] Addr=0x16ddd874 Data=0xec
# UVM_INFO ../src/env/axi4_scoreboard.sv(219) @ 845000: uvm_test_top.env.scb [axi4_scoreboard] [REF_MEM_WRITE] Addr=0x16ddd875 Data=0xf2
# UVM_INFO ../src/env/axi4_scoreboard.sv(219) @ 845000: uvm_test_top.env.scb [axi4_scoreboard] [REF_MEM_WRITE] Addr=0x16ddd877 Data=0x09
# UVM_INFO ../src/env/axi4_scoreboard.sv(219) @ 845000: uvm_test_top.env.scb [axi4_scoreboard] [REF_MEM_WRITE] Addr=0x16ddd874 Data=0x24
# UVM_INFO ../src/env/axi4_scoreboard.sv(219) @ 845000: uvm_test_top.env.scb [axi4_scoreboard] [REF_MEM_WRITE] Addr=0x16ddd875 Data=0x78
# UVM_INFO ../src/env/axi4_scoreboard.sv(219) @ 845000: uvm_test_top.env.scb [axi4_scoreboard] [REF_MEM_WRITE] Addr=0x16ddd876 Data=0xb9
# UVM_INFO ../src/slv/axi4_slave_driver.sv(228) @ 865000: uvm_test_top.env.slave_agent.drv [axi4_slave_driver] AW received: ID=0xe ADDR=0x62df3c76 LEN=7 LOCK=AXI4_LOCK_NORMAL
# UVM_INFO ../src/slv/axi4_slave_driver.sv(386) @ 865000: uvm_test_top.env.slave_agent.drv [axi4_slave_driver] AR received: ID=0x6 ADDR=0x513e38a6 LEN=15 LOCK=AXI4_LOCK_NORMAL
# UVM_INFO ../src/mst/axi4_master_monitor.sv(124) @ 865000: uvm_test_top.env.master_agent.mon [axi4_master_monitor] AW observed: ID=0xe ADDR=0x62df3c76 LEN=7
# UVM_INFO ../src/mst/axi4_master_monitor.sv(246) @ 865000: uvm_test_top.env.master_agent.mon [axi4_master_monitor] AR observed: ID=0x6 ADDR=0x513e38a6 LEN=15
# UVM_INFO ../src/slv/axi4_slave_monitor.sv(116) @ 865000: uvm_test_top.env.slave_agent.mon [axi4_slave_monitor] AW received: ID=0xe ADDR=0x62df3c76 LEN=7
# UVM_INFO ../src/slv/axi4_slave_monitor.sv(224) @ 865000: uvm_test_top.env.slave_agent.mon [axi4_slave_monitor] AR received: ID=0x6 ADDR=0x513e38a6 LEN=15
# UVM_INFO ../src/mst/axi4_master_driver.sv(348) @ 885000: uvm_test_top.env.master_agent.drv [axi4_master_driver] Master driver received all R beats for ID=0x1
# UVM_INFO ../src/slv/axi4_slave_driver.sv(501) @ 885000: uvm_test_top.env.slave_agent.drv [axi4_slave_driver] Read complete: ID=0x1 ADDR=0xc956314d RESP=AXI4_RESP_OKAY  8 beats sent
# UVM_INFO ../src/mst/axi4_master_monitor.sv(314) @ 885000: uvm_test_top.env.master_agent.mon [axi4_master_monitor] Read complete: ID=0x1 ADDR=0xc956314d 8 beats
# UVM_INFO ../src/env/axi4_scoreboard.sv(87) @ 885000: uvm_test_top.env.scb [axi4_scoreboard] Master AXI4_READ received: ID=0x1 ADDR=0xc956314d LEN=7
# UVM_INFO ../src/slv/axi4_slave_monitor.sv(287) @ 885000: uvm_test_top.env.slave_agent.mon [axi4_slave_monitor] Read data sent: ID=0x1 ADDR=0xc956314d 8 beats
# UVM_INFO ../src/env/axi4_scoreboard.sv(108) @ 885000: uvm_test_top.env.scb [axi4_scoreboard] Slave AXI4_READ received: ID=0x1 ADDR=0xc956314d LEN=7
# UVM_INFO ../src/env/axi4_scoreboard.sv(291) @ 885000: uvm_test_top.env.scb [axi4_scoreboard] [READ] MATCH #21: ID=0x1 ADDR=0xc956314d LEN=7
# UVM_INFO ../src/slv/axi4_slave_driver.sv(386) @ 895000: uvm_test_top.env.slave_agent.drv [axi4_slave_driver] AR received: ID=0xe ADDR=0xc069c4a8 LEN=15 LOCK=AXI4_LOCK_NORMAL
# UVM_INFO ../src/slv/axi4_slave_driver.sv(228) @ 895000: uvm_test_top.env.slave_agent.drv [axi4_slave_driver] AW received: ID=0xb ADDR=0x7bb0b3b3 LEN=7 LOCK=AXI4_LOCK_NORMAL
# UVM_INFO ../src/slv/axi4_slave_monitor.sv(224) @ 895000: uvm_test_top.env.slave_agent.mon [axi4_slave_monitor] AR received: ID=0xe ADDR=0xc069c4a8 LEN=15
# UVM_INFO ../src/slv/axi4_slave_monitor.sv(116) @ 895000: uvm_test_top.env.slave_agent.mon [axi4_slave_monitor] AW received: ID=0xb ADDR=0x7bb0b3b3 LEN=7
# UVM_INFO ../src/mst/axi4_master_monitor.sv(246) @ 895000: uvm_test_top.env.master_agent.mon [axi4_master_monitor] AR observed: ID=0xe ADDR=0xc069c4a8 LEN=15
# UVM_INFO ../src/mst/axi4_master_monitor.sv(124) @ 895000: uvm_test_top.env.master_agent.mon [axi4_master_monitor] AW observed: ID=0xb ADDR=0x7bb0b3b3 LEN=7
# UVM_INFO ../src/slv/axi4_slave_driver.sv(228) @ 925000: uvm_test_top.env.slave_agent.drv [axi4_slave_driver] AW received: ID=0xf ADDR=0xaccf8300 LEN=15 LOCK=AXI4_LOCK_NORMAL
# UVM_INFO ../src/slv/axi4_slave_driver.sv(386) @ 925000: uvm_test_top.env.slave_agent.drv [axi4_slave_driver] AR received: ID=0x4 ADDR=0xa1994b7d LEN=0 LOCK=AXI4_LOCK_NORMAL
# UVM_INFO ../src/mst/axi4_master_monitor.sv(124) @ 925000: uvm_test_top.env.master_agent.mon [axi4_master_monitor] AW observed: ID=0xf ADDR=0xaccf8300 LEN=15
# UVM_INFO ../src/mst/axi4_master_monitor.sv(246) @ 925000: uvm_test_top.env.master_agent.mon [axi4_master_monitor] AR observed: ID=0x4 ADDR=0xa1994b7d LEN=0
# UVM_INFO ../src/slv/axi4_slave_monitor.sv(116) @ 925000: uvm_test_top.env.slave_agent.mon [axi4_slave_monitor] AW received: ID=0xf ADDR=0xaccf8300 LEN=15
# UVM_INFO ../src/slv/axi4_slave_monitor.sv(224) @ 925000: uvm_test_top.env.slave_agent.mon [axi4_slave_monitor] AR received: ID=0x4 ADDR=0xa1994b7d LEN=0
# UVM_INFO ../src/slv/axi4_slave_driver.sv(386) @ 955000: uvm_test_top.env.slave_agent.drv [axi4_slave_driver] AR received: ID=0x4 ADDR=0x8c4cf696 LEN=0 LOCK=AXI4_LOCK_NORMAL
# UVM_INFO ../src/slv/axi4_slave_driver.sv(228) @ 955000: uvm_test_top.env.slave_agent.drv [axi4_slave_driver] AW received: ID=0x3 ADDR=0x57df978d LEN=15 LOCK=AXI4_LOCK_NORMAL
# UVM_INFO ../src/slv/axi4_slave_monitor.sv(224) @ 955000: uvm_test_top.env.slave_agent.mon [axi4_slave_monitor] AR received: ID=0x4 ADDR=0x8c4cf696 LEN=0
# UVM_INFO ../src/slv/axi4_slave_monitor.sv(116) @ 955000: uvm_test_top.env.slave_agent.mon [axi4_slave_monitor] AW received: ID=0x3 ADDR=0x57df978d LEN=15
# UVM_INFO ../src/mst/axi4_master_monitor.sv(246) @ 955000: uvm_test_top.env.master_agent.mon [axi4_master_monitor] AR observed: ID=0x4 ADDR=0x8c4cf696 LEN=0
# UVM_INFO ../src/mst/axi4_master_monitor.sv(124) @ 955000: uvm_test_top.env.master_agent.mon [axi4_master_monitor] AW observed: ID=0x3 ADDR=0x57df978d LEN=15
# UVM_INFO ../src/slv/axi4_slave_monitor.sv(167) @ 975000: uvm_test_top.env.slave_agent.mon [axi4_slave_monitor] W data assembled: ID=0xe ADDR=0x62df3c76 8 beats
# UVM_INFO ../src/mst/axi4_master_monitor.sv(184) @ 975000: uvm_test_top.env.master_agent.mon [axi4_master_monitor] W data assembled: ID=0xe ADDR=0x62df3c76 8 beats
# UVM_INFO ../src/slv/axi4_slave_driver.sv(228) @ 985000: uvm_test_top.env.slave_agent.drv [axi4_slave_driver] AW received: ID=0x8 ADDR=0x870170f1 LEN=15 LOCK=AXI4_LOCK_NORMAL
# UVM_INFO ../src/slv/axi4_slave_driver.sv(386) @ 985000: uvm_test_top.env.slave_agent.drv [axi4_slave_driver] AR received: ID=0x2 ADDR=0x1dfbfa77 LEN=0 LOCK=AXI4_LOCK_NORMAL
# UVM_INFO ../src/mst/axi4_master_monitor.sv(124) @ 985000: uvm_test_top.env.master_agent.mon [axi4_master_monitor] AW observed: ID=0x8 ADDR=0x870170f1 LEN=15
# UVM_INFO ../src/mst/axi4_master_monitor.sv(246) @ 985000: uvm_test_top.env.master_agent.mon [axi4_master_monitor] AR observed: ID=0x2 ADDR=0x1dfbfa77 LEN=0
# UVM_INFO ../src/slv/axi4_slave_monitor.sv(116) @ 985000: uvm_test_top.env.slave_agent.mon [axi4_slave_monitor] AW received: ID=0x8 ADDR=0x870170f1 LEN=15
# UVM_INFO ../src/slv/axi4_slave_monitor.sv(224) @ 985000: uvm_test_top.env.slave_agent.mon [axi4_slave_monitor] AR received: ID=0x2 ADDR=0x1dfbfa77 LEN=0
# UVM_INFO ../src/mst/axi4_master_driver.sv(289) @ 1005000: uvm_test_top.env.master_agent.drv [axi4_master_driver] Master driver received B response: ID=0xe RESP=AXI4_RESP_OKAY
# UVM_INFO ../src/slv/axi4_slave_driver.sv(348) @ 1005000: uvm_test_top.env.slave_agent.drv [axi4_slave_driver] Write complete: ID=0xe RESP=AXI4_RESP_OKAY
# UVM_INFO ../src/mst/axi4_master_monitor.sv(210) @ 1005000: uvm_test_top.env.master_agent.mon [axi4_master_monitor] Write complete: ID=0xe ADDR=0x62df3c76 RESP=AXI4_RESP_OKAY
# UVM_INFO ../src/env/axi4_scoreboard.sv(87) @ 1005000: uvm_test_top.env.scb [axi4_scoreboard] Master AXI4_WRITE received: ID=0xe ADDR=0x62df3c76 LEN=7
# UVM_INFO ../src/slv/axi4_slave_monitor.sv(189) @ 1005000: uvm_test_top.env.slave_agent.mon [axi4_slave_monitor] Write response sent: ID=0xe ADDR=0x62df3c76 RESP=AXI4_RESP_OKAY
# UVM_INFO ../src/env/axi4_scoreboard.sv(108) @ 1005000: uvm_test_top.env.scb [axi4_scoreboard] Slave AXI4_WRITE received: ID=0xe ADDR=0x62df3c76 LEN=7
# UVM_INFO ../src/env/axi4_scoreboard.sv(291) @ 1005000: uvm_test_top.env.scb [axi4_scoreboard] [WRITE] MATCH #22: ID=0xe ADDR=0x62df3c76 LEN=7
# UVM_INFO ../src/env/axi4_scoreboard.sv(219) @ 1005000: uvm_test_top.env.scb [axi4_scoreboard] [REF_MEM_WRITE] Addr=0x62df3c76 Data=0x16
# UVM_INFO ../src/env/axi4_scoreboard.sv(219) @ 1005000: uvm_test_top.env.scb [axi4_scoreboard] [REF_MEM_WRITE] Addr=0x62df3c77 Data=0xf1
# UVM_INFO ../src/env/axi4_scoreboard.sv(219) @ 1005000: uvm_test_top.env.scb [axi4_scoreboard] [REF_MEM_WRITE] Addr=0x62df3c74 Data=0x0c
# UVM_INFO ../src/env/axi4_scoreboard.sv(219) @ 1005000: uvm_test_top.env.scb [axi4_scoreboard] [REF_MEM_WRITE] Addr=0x62df3c75 Data=0x90
# UVM_INFO ../src/env/axi4_scoreboard.sv(219) @ 1005000: uvm_test_top.env.scb [axi4_scoreboard] [REF_MEM_WRITE] Addr=0x62df3c74 Data=0x7e
# UVM_INFO ../src/env/axi4_scoreboard.sv(219) @ 1005000: uvm_test_top.env.scb [axi4_scoreboard] [REF_MEM_WRITE] Addr=0x62df3c75 Data=0x51
# UVM_INFO ../src/env/axi4_scoreboard.sv(219) @ 1005000: uvm_test_top.env.scb [axi4_scoreboard] [REF_MEM_WRITE] Addr=0x62df3c74 Data=0x26
# UVM_INFO ../src/env/axi4_scoreboard.sv(219) @ 1005000: uvm_test_top.env.scb [axi4_scoreboard] [REF_MEM_WRITE] Addr=0x62df3c75 Data=0x60
# UVM_INFO ../src/env/axi4_scoreboard.sv(219) @ 1005000: uvm_test_top.env.scb [axi4_scoreboard] [REF_MEM_WRITE] Addr=0x62df3c74 Data=0x90
# UVM_INFO ../src/env/axi4_scoreboard.sv(219) @ 1005000: uvm_test_top.env.scb [axi4_scoreboard] [REF_MEM_WRITE] Addr=0x62df3c75 Data=0x3b
# UVM_INFO ../src/env/axi4_scoreboard.sv(219) @ 1005000: uvm_test_top.env.scb [axi4_scoreboard] [REF_MEM_WRITE] Addr=0x62df3c76 Data=0x49
# UVM_INFO ../src/env/axi4_scoreboard.sv(219) @ 1005000: uvm_test_top.env.scb [axi4_scoreboard] [REF_MEM_WRITE] Addr=0x62df3c75 Data=0xc9
# UVM_INFO ../src/env/axi4_scoreboard.sv(219) @ 1005000: uvm_test_top.env.scb [axi4_scoreboard] [REF_MEM_WRITE] Addr=0x62df3c76 Data=0xf0
# UVM_INFO ../src/env/axi4_scoreboard.sv(219) @ 1005000: uvm_test_top.env.scb [axi4_scoreboard] [REF_MEM_WRITE] Addr=0x62df3c76 Data=0x18
# UVM_INFO ../src/slv/axi4_slave_driver.sv(386) @ 1015000: uvm_test_top.env.slave_agent.drv [axi4_slave_driver] AR received: ID=0x5 ADDR=0x109e92c8 LEN=2 LOCK=AXI4_LOCK_NORMAL
# UVM_INFO ../src/slv/axi4_slave_driver.sv(228) @ 1015000: uvm_test_top.env.slave_agent.drv [axi4_slave_driver] AW received: ID=0x8 ADDR=0x218ce540 LEN=1 LOCK=AXI4_LOCK_NORMAL
# UVM_INFO ../src/slv/axi4_slave_monitor.sv(224) @ 1015000: uvm_test_top.env.slave_agent.mon [axi4_slave_monitor] AR received: ID=0x5 ADDR=0x109e92c8 LEN=2
# UVM_INFO ../src/slv/axi4_slave_monitor.sv(116) @ 1015000: uvm_test_top.env.slave_agent.mon [axi4_slave_monitor] AW received: ID=0x8 ADDR=0x218ce540 LEN=1
# UVM_INFO ../src/mst/axi4_master_monitor.sv(246) @ 1015000: uvm_test_top.env.master_agent.mon [axi4_master_monitor] AR observed: ID=0x5 ADDR=0x109e92c8 LEN=2
# UVM_INFO ../src/mst/axi4_master_monitor.sv(124) @ 1015000: uvm_test_top.env.master_agent.mon [axi4_master_monitor] AW observed: ID=0x8 ADDR=0x218ce540 LEN=1
# UVM_INFO ../src/slv/axi4_slave_driver.sv(386) @ 1045000: uvm_test_top.env.slave_agent.drv [axi4_slave_driver] AR received: ID=0xb ADDR=0x26003ad2 LEN=2 LOCK=AXI4_LOCK_NORMAL
# UVM_INFO ../src/mst/axi4_master_monitor.sv(246) @ 1045000: uvm_test_top.env.master_agent.mon [axi4_master_monitor] AR observed: ID=0xb ADDR=0x26003ad2 LEN=2
# UVM_INFO ../src/slv/axi4_slave_monitor.sv(224) @ 1045000: uvm_test_top.env.slave_agent.mon [axi4_slave_monitor] AR received: ID=0xb ADDR=0x26003ad2 LEN=2
# UVM_INFO ../src/slv/axi4_slave_driver.sv(386) @ 1075000: uvm_test_top.env.slave_agent.drv [axi4_slave_driver] AR received: ID=0x8 ADDR=0xc253aee0 LEN=2 LOCK=AXI4_LOCK_NORMAL
# UVM_INFO ../src/slv/axi4_slave_monitor.sv(224) @ 1075000: uvm_test_top.env.slave_agent.mon [axi4_slave_monitor] AR received: ID=0x8 ADDR=0xc253aee0 LEN=2
# UVM_INFO ../src/mst/axi4_master_monitor.sv(246) @ 1075000: uvm_test_top.env.master_agent.mon [axi4_master_monitor] AR observed: ID=0x8 ADDR=0xc253aee0 LEN=2
# UVM_INFO ../src/test/axi4_burst_sweep_test.sv(32) @ 1095000: uvm_test_top [axi4_burst_sweep_test] Burst sweep test complete
# UVM_INFO ../src/slv/axi4_slave_driver.sv(386) @ 1105000: uvm_test_top.env.slave_agent.drv [axi4_slave_driver] AR received: ID=0xf ADDR=0x2bf8682c LEN=10 LOCK=AXI4_LOCK_NORMAL
# UVM_INFO ../src/mst/axi4_master_monitor.sv(246) @ 1105000: uvm_test_top.env.master_agent.mon [axi4_master_monitor] AR observed: ID=0xf ADDR=0x2bf8682c LEN=10
# UVM_INFO ../src/slv/axi4_slave_monitor.sv(224) @ 1105000: uvm_test_top.env.slave_agent.mon [axi4_slave_monitor] AR received: ID=0xf ADDR=0x2bf8682c LEN=10
# UVM_INFO ../src/slv/axi4_slave_driver.sv(386) @ 1135000: uvm_test_top.env.slave_agent.drv [axi4_slave_driver] AR received: ID=0x8 ADDR=0xa58fac49 LEN=10 LOCK=AXI4_LOCK_NORMAL
# UVM_INFO ../src/slv/axi4_slave_monitor.sv(224) @ 1135000: uvm_test_top.env.slave_agent.mon [axi4_slave_monitor] AR received: ID=0x8 ADDR=0xa58fac49 LEN=10
# UVM_INFO ../src/mst/axi4_master_monitor.sv(246) @ 1135000: uvm_test_top.env.master_agent.mon [axi4_master_monitor] AR observed: ID=0x8 ADDR=0xa58fac49 LEN=10
# UVM_INFO ../src/slv/axi4_slave_monitor.sv(167) @ 1135000: uvm_test_top.env.slave_agent.mon [axi4_slave_monitor] W data assembled: ID=0xb ADDR=0x7bb0b3b3 8 beats
# UVM_INFO ../src/mst/axi4_master_monitor.sv(184) @ 1135000: uvm_test_top.env.master_agent.mon [axi4_master_monitor] W data assembled: ID=0xb ADDR=0x7bb0b3b3 8 beats
# UVM_INFO ../src/mst/axi4_master_driver.sv(289) @ 1165000: uvm_test_top.env.master_agent.drv [axi4_master_driver] Master driver received B response: ID=0xb RESP=AXI4_RESP_OKAY
# UVM_INFO ../src/slv/axi4_slave_driver.sv(386) @ 1165000: uvm_test_top.env.slave_agent.drv [axi4_slave_driver] AR received: ID=0x2 ADDR=0x1cc3a3d3 LEN=10 LOCK=AXI4_LOCK_NORMAL
# UVM_INFO ../src/slv/axi4_slave_driver.sv(348) @ 1165000: uvm_test_top.env.slave_agent.drv [axi4_slave_driver] Write complete: ID=0xb RESP=AXI4_RESP_OKAY
# UVM_INFO ../src/mst/axi4_master_monitor.sv(210) @ 1165000: uvm_test_top.env.master_agent.mon [axi4_master_monitor] Write complete: ID=0xb ADDR=0x7bb0b3b3 RESP=AXI4_RESP_OKAY
# UVM_INFO ../src/env/axi4_scoreboard.sv(87) @ 1165000: uvm_test_top.env.scb [axi4_scoreboard] Master AXI4_WRITE received: ID=0xb ADDR=0x7bb0b3b3 LEN=7
# UVM_INFO ../src/mst/axi4_master_monitor.sv(246) @ 1165000: uvm_test_top.env.master_agent.mon [axi4_master_monitor] AR observed: ID=0x2 ADDR=0x1cc3a3d3 LEN=10
# UVM_INFO ../src/slv/axi4_slave_monitor.sv(189) @ 1165000: uvm_test_top.env.slave_agent.mon [axi4_slave_monitor] Write response sent: ID=0xb ADDR=0x7bb0b3b3 RESP=AXI4_RESP_OKAY
# UVM_INFO ../src/env/axi4_scoreboard.sv(108) @ 1165000: uvm_test_top.env.scb [axi4_scoreboard] Slave AXI4_WRITE received: ID=0xb ADDR=0x7bb0b3b3 LEN=7
# UVM_INFO ../src/env/axi4_scoreboard.sv(291) @ 1165000: uvm_test_top.env.scb [axi4_scoreboard] [WRITE] MATCH #23: ID=0xb ADDR=0x7bb0b3b3 LEN=7
# UVM_INFO ../src/env/axi4_scoreboard.sv(219) @ 1165000: uvm_test_top.env.scb [axi4_scoreboard] [REF_MEM_WRITE] Addr=0x7bb0b3b0 Data=0xc7
# UVM_INFO ../src/env/axi4_scoreboard.sv(219) @ 1165000: uvm_test_top.env.scb [axi4_scoreboard] [REF_MEM_WRITE] Addr=0x7bb0b3b1 Data=0xa4
# UVM_INFO ../src/env/axi4_scoreboard.sv(219) @ 1165000: uvm_test_top.env.scb [axi4_scoreboard] [REF_MEM_WRITE] Addr=0x7bb0b3b3 Data=0xe7
# UVM_INFO ../src/env/axi4_scoreboard.sv(219) @ 1165000: uvm_test_top.env.scb [axi4_scoreboard] [REF_MEM_WRITE] Addr=0x7bb0b3b2 Data=0x47
# UVM_INFO ../src/env/axi4_scoreboard.sv(219) @ 1165000: uvm_test_top.env.scb [axi4_scoreboard] [REF_MEM_WRITE] Addr=0x7bb0b3b3 Data=0xd1
# UVM_INFO ../src/env/axi4_scoreboard.sv(219) @ 1165000: uvm_test_top.env.scb [axi4_scoreboard] [REF_MEM_WRITE] Addr=0x7bb0b3b2 Data=0x0e
# UVM_INFO ../src/env/axi4_scoreboard.sv(219) @ 1165000: uvm_test_top.env.scb [axi4_scoreboard] [REF_MEM_WRITE] Addr=0x7bb0b3b2 Data=0x2c
# UVM_INFO ../src/env/axi4_scoreboard.sv(219) @ 1165000: uvm_test_top.env.scb [axi4_scoreboard] [REF_MEM_WRITE] Addr=0x7bb0b3b3 Data=0x8e
# UVM_INFO ../src/env/axi4_scoreboard.sv(219) @ 1165000: uvm_test_top.env.scb [axi4_scoreboard] [REF_MEM_WRITE] Addr=0x7bb0b3b0 Data=0x2e
# UVM_INFO ../src/env/axi4_scoreboard.sv(219) @ 1165000: uvm_test_top.env.scb [axi4_scoreboard] [REF_MEM_WRITE] Addr=0x7bb0b3b3 Data=0xb5
# UVM_INFO ../src/env/axi4_scoreboard.sv(219) @ 1165000: uvm_test_top.env.scb [axi4_scoreboard] [REF_MEM_WRITE] Addr=0x7bb0b3b0 Data=0xd6
# UVM_INFO ../src/env/axi4_scoreboard.sv(219) @ 1165000: uvm_test_top.env.scb [axi4_scoreboard] [REF_MEM_WRITE] Addr=0x7bb0b3b2 Data=0xa4
# UVM_INFO ../src/slv/axi4_slave_monitor.sv(224) @ 1165000: uvm_test_top.env.slave_agent.mon [axi4_slave_monitor] AR received: ID=0x2 ADDR=0x1cc3a3d3 LEN=10
# UVM_INFO ../src/slv/axi4_slave_driver.sv(386) @ 1195000: uvm_test_top.env.slave_agent.drv [axi4_slave_driver] AR received: ID=0x5 ADDR=0x7ca03ea9 LEN=32 LOCK=AXI4_LOCK_NORMAL
# UVM_INFO ../src/slv/axi4_slave_monitor.sv(224) @ 1195000: uvm_test_top.env.slave_agent.mon [axi4_slave_monitor] AR received: ID=0x5 ADDR=0x7ca03ea9 LEN=32
# UVM_INFO ../src/mst/axi4_master_monitor.sv(246) @ 1195000: uvm_test_top.env.master_agent.mon [axi4_master_monitor] AR observed: ID=0x5 ADDR=0x7ca03ea9 LEN=32
# UVM_INFO ../src/mst/axi4_master_driver.sv(348) @ 1205000: uvm_test_top.env.master_agent.drv [axi4_master_driver] Master driver received all R beats for ID=0x6
# UVM_INFO ../src/slv/axi4_slave_driver.sv(501) @ 1205000: uvm_test_top.env.slave_agent.drv [axi4_slave_driver] Read complete: ID=0x6 ADDR=0xa78acbcd RESP=AXI4_RESP_OKAY  16 beats sent
# UVM_INFO ../src/mst/axi4_master_monitor.sv(314) @ 1205000: uvm_test_top.env.master_agent.mon [axi4_master_monitor] Read complete: ID=0x6 ADDR=0xa78acbcd 16 beats
# UVM_INFO ../src/env/axi4_scoreboard.sv(87) @ 1205000: uvm_test_top.env.scb [axi4_scoreboard] Master AXI4_READ received: ID=0x6 ADDR=0xa78acbcd LEN=15
# UVM_INFO ../src/slv/axi4_slave_monitor.sv(287) @ 1205000: uvm_test_top.env.slave_agent.mon [axi4_slave_monitor] Read data sent: ID=0x6 ADDR=0xa78acbcd 16 beats
# UVM_INFO ../src/env/axi4_scoreboard.sv(108) @ 1205000: uvm_test_top.env.scb [axi4_scoreboard] Slave AXI4_READ received: ID=0x6 ADDR=0xa78acbcd LEN=15
# UVM_INFO ../src/env/axi4_scoreboard.sv(291) @ 1205000: uvm_test_top.env.scb [axi4_scoreboard] [READ] MATCH #24: ID=0x6 ADDR=0xa78acbcd LEN=15
# UVM_INFO ../src/slv/axi4_slave_driver.sv(386) @ 1225000: uvm_test_top.env.slave_agent.drv [axi4_slave_driver] AR received: ID=0xc ADDR=0xc690b1e8 LEN=32 LOCK=AXI4_LOCK_NORMAL
# UVM_INFO ../src/mst/axi4_master_monitor.sv(246) @ 1225000: uvm_test_top.env.master_agent.mon [axi4_master_monitor] AR observed: ID=0xc ADDR=0xc690b1e8 LEN=32
# UVM_INFO ../src/slv/axi4_slave_monitor.sv(224) @ 1225000: uvm_test_top.env.slave_agent.mon [axi4_slave_monitor] AR received: ID=0xc ADDR=0xc690b1e8 LEN=32
# UVM_INFO ../src/slv/axi4_slave_driver.sv(386) @ 1255000: uvm_test_top.env.slave_agent.drv [axi4_slave_driver] AR received: ID=0x8 ADDR=0x30d37102 LEN=32 LOCK=AXI4_LOCK_NORMAL
# UVM_INFO ../src/slv/axi4_slave_monitor.sv(224) @ 1255000: uvm_test_top.env.slave_agent.mon [axi4_slave_monitor] AR received: ID=0x8 ADDR=0x30d37102 LEN=32
# UVM_INFO ../src/mst/axi4_master_monitor.sv(246) @ 1255000: uvm_test_top.env.master_agent.mon [axi4_master_monitor] AR observed: ID=0x8 ADDR=0x30d37102 LEN=32
# UVM_INFO ../src/slv/axi4_slave_driver.sv(386) @ 1285000: uvm_test_top.env.slave_agent.drv [axi4_slave_driver] AR received: ID=0xf ADDR=0xd14335da LEN=100 LOCK=AXI4_LOCK_NORMAL
# UVM_INFO ../src/mst/axi4_master_monitor.sv(246) @ 1285000: uvm_test_top.env.master_agent.mon [axi4_master_monitor] AR observed: ID=0xf ADDR=0xd14335da LEN=100
# UVM_INFO ../src/slv/axi4_slave_monitor.sv(224) @ 1285000: uvm_test_top.env.slave_agent.mon [axi4_slave_monitor] AR received: ID=0xf ADDR=0xd14335da LEN=100
# UVM_INFO ../src/slv/axi4_slave_driver.sv(386) @ 1315000: uvm_test_top.env.slave_agent.drv [axi4_slave_driver] AR received: ID=0x0 ADDR=0x905986e9 LEN=100 LOCK=AXI4_LOCK_NORMAL
# UVM_INFO ../src/slv/axi4_slave_monitor.sv(224) @ 1315000: uvm_test_top.env.slave_agent.mon [axi4_slave_monitor] AR received: ID=0x0 ADDR=0x905986e9 LEN=100
# UVM_INFO ../src/mst/axi4_master_monitor.sv(246) @ 1315000: uvm_test_top.env.master_agent.mon [axi4_master_monitor] AR observed: ID=0x0 ADDR=0x905986e9 LEN=100
# UVM_INFO ../src/slv/axi4_slave_driver.sv(386) @ 1345000: uvm_test_top.env.slave_agent.drv [axi4_slave_driver] AR received: ID=0x8 ADDR=0x9a79acab LEN=100 LOCK=AXI4_LOCK_NORMAL
# UVM_INFO ../src/mst/axi4_master_monitor.sv(246) @ 1345000: uvm_test_top.env.master_agent.mon [axi4_master_monitor] AR observed: ID=0x8 ADDR=0x9a79acab LEN=100
# UVM_INFO ../src/slv/axi4_slave_monitor.sv(224) @ 1345000: uvm_test_top.env.slave_agent.mon [axi4_slave_monitor] AR received: ID=0x8 ADDR=0x9a79acab LEN=100
# UVM_INFO ../src/mst/axi4_master_driver.sv(348) @ 1365000: uvm_test_top.env.master_agent.drv [axi4_master_driver] Master driver received all R beats for ID=0x5
# UVM_INFO ../src/slv/axi4_slave_driver.sv(501) @ 1365000: uvm_test_top.env.slave_agent.drv [axi4_slave_driver] Read complete: ID=0x5 ADDR=0x85e9be4a RESP=AXI4_RESP_OKAY  8 beats sent
# UVM_INFO ../src/mst/axi4_master_monitor.sv(314) @ 1365000: uvm_test_top.env.master_agent.mon [axi4_master_monitor] Read complete: ID=0x5 ADDR=0x85e9be4a 8 beats
# UVM_INFO ../src/env/axi4_scoreboard.sv(87) @ 1365000: uvm_test_top.env.scb [axi4_scoreboard] Master AXI4_READ received: ID=0x5 ADDR=0x85e9be4a LEN=7
# UVM_INFO ../src/slv/axi4_slave_monitor.sv(287) @ 1365000: uvm_test_top.env.slave_agent.mon [axi4_slave_monitor] Read data sent: ID=0x5 ADDR=0x85e9be4a 8 beats
# UVM_INFO ../src/env/axi4_scoreboard.sv(108) @ 1365000: uvm_test_top.env.scb [axi4_scoreboard] Slave AXI4_READ received: ID=0x5 ADDR=0x85e9be4a LEN=7
# UVM_INFO ../src/env/axi4_scoreboard.sv(291) @ 1365000: uvm_test_top.env.scb [axi4_scoreboard] [READ] MATCH #25: ID=0x5 ADDR=0x85e9be4a LEN=7
# UVM_INFO ../src/slv/axi4_slave_driver.sv(386) @ 1375000: uvm_test_top.env.slave_agent.drv [axi4_slave_driver] AR received: ID=0x4 ADDR=0x63433e2e LEN=255 LOCK=AXI4_LOCK_NORMAL
# UVM_INFO ../src/slv/axi4_slave_monitor.sv(224) @ 1375000: uvm_test_top.env.slave_agent.mon [axi4_slave_monitor] AR received: ID=0x4 ADDR=0x63433e2e LEN=255
# UVM_INFO ../src/mst/axi4_master_monitor.sv(246) @ 1375000: uvm_test_top.env.master_agent.mon [axi4_master_monitor] AR observed: ID=0x4 ADDR=0x63433e2e LEN=255
# UVM_INFO ../src/slv/axi4_slave_driver.sv(386) @ 1405000: uvm_test_top.env.slave_agent.drv [axi4_slave_driver] AR received: ID=0x5 ADDR=0xba1a273f LEN=255 LOCK=AXI4_LOCK_NORMAL
# UVM_INFO ../src/mst/axi4_master_monitor.sv(246) @ 1405000: uvm_test_top.env.master_agent.mon [axi4_master_monitor] AR observed: ID=0x5 ADDR=0xba1a273f LEN=255
# UVM_INFO ../src/slv/axi4_slave_monitor.sv(224) @ 1405000: uvm_test_top.env.slave_agent.mon [axi4_slave_monitor] AR received: ID=0x5 ADDR=0xba1a273f LEN=255
# UVM_INFO ../src/slv/axi4_slave_driver.sv(386) @ 1435000: uvm_test_top.env.slave_agent.drv [axi4_slave_driver] AR received: ID=0x9 ADDR=0x3a7f064b LEN=255 LOCK=AXI4_LOCK_NORMAL
# UVM_INFO ../src/slv/axi4_slave_monitor.sv(224) @ 1435000: uvm_test_top.env.slave_agent.mon [axi4_slave_monitor] AR received: ID=0x9 ADDR=0x3a7f064b LEN=255
# UVM_INFO ../src/mst/axi4_master_monitor.sv(246) @ 1435000: uvm_test_top.env.master_agent.mon [axi4_master_monitor] AR observed: ID=0x9 ADDR=0x3a7f064b LEN=255
# UVM_INFO ../src/slv/axi4_slave_monitor.sv(167) @ 1455000: uvm_test_top.env.slave_agent.mon [axi4_slave_monitor] W data assembled: ID=0xf ADDR=0xaccf8300 16 beats
# UVM_INFO ../src/mst/axi4_master_monitor.sv(184) @ 1455000: uvm_test_top.env.master_agent.mon [axi4_master_monitor] W data assembled: ID=0xf ADDR=0xaccf8300 16 beats
# UVM_INFO ../src/slv/axi4_slave_driver.sv(386) @ 1465000: uvm_test_top.env.slave_agent.drv [axi4_slave_driver] AR received: ID=0xa ADDR=0xe0000000 LEN=0 LOCK=AXI4_LOCK_NORMAL
# UVM_INFO ../src/mst/axi4_master_monitor.sv(246) @ 1465000: uvm_test_top.env.master_agent.mon [axi4_master_monitor] AR observed: ID=0xa ADDR=0xe0000000 LEN=0
# UVM_INFO ../src/slv/axi4_slave_monitor.sv(224) @ 1465000: uvm_test_top.env.slave_agent.mon [axi4_slave_monitor] AR received: ID=0xa ADDR=0xe0000000 LEN=0
# UVM_INFO ../src/mst/axi4_master_driver.sv(289) @ 1485000: uvm_test_top.env.master_agent.drv [axi4_master_driver] Master driver received B response: ID=0xf RESP=AXI4_RESP_OKAY
# UVM_INFO ../src/slv/axi4_slave_driver.sv(348) @ 1485000: uvm_test_top.env.slave_agent.drv [axi4_slave_driver] Write complete: ID=0xf RESP=AXI4_RESP_OKAY
# UVM_INFO ../src/mst/axi4_master_monitor.sv(210) @ 1485000: uvm_test_top.env.master_agent.mon [axi4_master_monitor] Write complete: ID=0xf ADDR=0xaccf8300 RESP=AXI4_RESP_OKAY
# UVM_INFO ../src/env/axi4_scoreboard.sv(87) @ 1485000: uvm_test_top.env.scb [axi4_scoreboard] Master AXI4_WRITE received: ID=0xf ADDR=0xaccf8300 LEN=15
# UVM_INFO ../src/slv/axi4_slave_monitor.sv(189) @ 1485000: uvm_test_top.env.slave_agent.mon [axi4_slave_monitor] Write response sent: ID=0xf ADDR=0xaccf8300 RESP=AXI4_RESP_OKAY
# UVM_INFO ../src/env/axi4_scoreboard.sv(108) @ 1485000: uvm_test_top.env.scb [axi4_scoreboard] Slave AXI4_WRITE received: ID=0xf ADDR=0xaccf8300 LEN=15
# UVM_INFO ../src/env/axi4_scoreboard.sv(291) @ 1485000: uvm_test_top.env.scb [axi4_scoreboard] [WRITE] MATCH #26: ID=0xf ADDR=0xaccf8300 LEN=15
# UVM_INFO ../src/env/axi4_scoreboard.sv(219) @ 1485000: uvm_test_top.env.scb [axi4_scoreboard] [REF_MEM_WRITE] Addr=0xaccf8300 Data=0x4e
# UVM_INFO ../src/env/axi4_scoreboard.sv(219) @ 1485000: uvm_test_top.env.scb [axi4_scoreboard] [REF_MEM_WRITE] Addr=0xaccf8303 Data=0x08
# UVM_INFO ../src/env/axi4_scoreboard.sv(219) @ 1485000: uvm_test_top.env.scb [axi4_scoreboard] [REF_MEM_WRITE] Addr=0xaccf8301 Data=0x0a
# UVM_INFO ../src/env/axi4_scoreboard.sv(219) @ 1485000: uvm_test_top.env.scb [axi4_scoreboard] [REF_MEM_WRITE] Addr=0xaccf8302 Data=0x95
# UVM_INFO ../src/env/axi4_scoreboard.sv(219) @ 1485000: uvm_test_top.env.scb [axi4_scoreboard] [REF_MEM_WRITE] Addr=0xaccf8303 Data=0x06
# UVM_INFO ../src/env/axi4_scoreboard.sv(219) @ 1485000: uvm_test_top.env.scb [axi4_scoreboard] [REF_MEM_WRITE] Addr=0xaccf8302 Data=0x23
# UVM_INFO ../src/env/axi4_scoreboard.sv(219) @ 1485000: uvm_test_top.env.scb [axi4_scoreboard] [REF_MEM_WRITE] Addr=0xaccf8303 Data=0xbe
# UVM_INFO ../src/env/axi4_scoreboard.sv(219) @ 1485000: uvm_test_top.env.scb [axi4_scoreboard] [REF_MEM_WRITE] Addr=0xaccf8301 Data=0x4e
# UVM_INFO ../src/env/axi4_scoreboard.sv(219) @ 1485000: uvm_test_top.env.scb [axi4_scoreboard] [REF_MEM_WRITE] Addr=0xaccf8302 Data=0xed
# UVM_INFO ../src/env/axi4_scoreboard.sv(219) @ 1485000: uvm_test_top.env.scb [axi4_scoreboard] [REF_MEM_WRITE] Addr=0xaccf8300 Data=0x11
# UVM_INFO ../src/env/axi4_scoreboard.sv(219) @ 1485000: uvm_test_top.env.scb [axi4_scoreboard] [REF_MEM_WRITE] Addr=0xaccf8301 Data=0xb6
# UVM_INFO ../src/env/axi4_scoreboard.sv(219) @ 1485000: uvm_test_top.env.scb [axi4_scoreboard] [REF_MEM_WRITE] Addr=0xaccf8300 Data=0x22
# UVM_INFO ../src/env/axi4_scoreboard.sv(219) @ 1485000: uvm_test_top.env.scb [axi4_scoreboard] [REF_MEM_WRITE] Addr=0xaccf8302 Data=0x28
# UVM_INFO ../src/env/axi4_scoreboard.sv(219) @ 1485000: uvm_test_top.env.scb [axi4_scoreboard] [REF_MEM_WRITE] Addr=0xaccf8303 Data=0x36
# UVM_INFO ../src/env/axi4_scoreboard.sv(219) @ 1485000: uvm_test_top.env.scb [axi4_scoreboard] [REF_MEM_WRITE] Addr=0xaccf8300 Data=0x06
# UVM_INFO ../src/env/axi4_scoreboard.sv(219) @ 1485000: uvm_test_top.env.scb [axi4_scoreboard] [REF_MEM_WRITE] Addr=0xaccf8301 Data=0x86
# UVM_INFO ../src/env/axi4_scoreboard.sv(219) @ 1485000: uvm_test_top.env.scb [axi4_scoreboard] [REF_MEM_WRITE] Addr=0xaccf8302 Data=0x8e
# UVM_INFO ../src/env/axi4_scoreboard.sv(219) @ 1485000: uvm_test_top.env.scb [axi4_scoreboard] [REF_MEM_WRITE] Addr=0xaccf8300 Data=0xd4
# UVM_INFO ../src/env/axi4_scoreboard.sv(219) @ 1485000: uvm_test_top.env.scb [axi4_scoreboard] [REF_MEM_WRITE] Addr=0xaccf8301 Data=0x68
# UVM_INFO ../src/env/axi4_scoreboard.sv(219) @ 1485000: uvm_test_top.env.scb [axi4_scoreboard] [REF_MEM_WRITE] Addr=0xaccf8300 Data=0xa7
