# vsim -c -coverage -sv_seed 93868347 "+UVM_TESTNAME=axi4_cache_prot_test" "+UVM_VERBOSITY=UVM_HIGH" "+DUMP_VCD" -l ./report/logs/axi4_cache_prot_test_run_5_seed_93868347.log -do "coverage save -onexit ./report/coverage/axi4_cache_prot_test_run_5_seed_93868347.ucdb; run -all; quit -f" opt_tb_top 
# Start time: 14:04:48 on Jul 06,2026
# //  Questa Sim-64
# //  Version 10.6b linux_x86_64 May 25 2017
# //
# //  Copyright 1991-2017 Mentor Graphics Corporation
# //  All Rights Reserved.
# //
# //  QuestaSim and its associated documentation contain trade
# //  secrets and commercial or financial information that are the property of
# //  Mentor Graphics Corporation and are privileged, confidential,
# //  and exempt from disclosure under the Freedom of Information Act,
# //  5 U.S.C. Section 552. Furthermore, this information
# //  is prohibited from disclosure under the Trade Secrets Act,
# //  18 U.S.C. Section 1905.
# //
# Loading sv_std.std
# Loading work.axi4_if(fast)
# Loading mtiUvm.uvm_pkg
# Loading work.axi4_pkg(fast)
# Loading work.axi4_test_pkg(fast)
# Loading work.tb_top(fast)
# Loading work.axi4_if(fast)
# Loading work.axi4_sva(fast)
# Loading mtiUvm.questa_uvm_pkg(fast)
# Loading /cadtools/mentor/Questa_10.6b/questasim/uvm-1.1d/linux_x86_64/uvm_dpi.so
# coverage save -onexit ./report/coverage/axi4_cache_prot_test_run_5_seed_93868347.ucdb
#  run -all
# ----------------------------------------------------------------
# UVM-1.1d
# (C) 2007-2013 Mentor Graphics Corporation
# (C) 2007-2013 Cadence Design Systems, Inc.
# (C) 2006-2013 Synopsys, Inc.
# (C) 2011-2013 Cypress Semiconductor Corp.
# ----------------------------------------------------------------
# 
#   ***********       IMPORTANT RELEASE NOTES         ************
# 
#   You are using a version of the UVM library that has been compiled
#   with `UVM_NO_DEPRECATED undefined.
#   See http://www.eda.org/svdb/view.php?id=3313 for more details.
# 
#   You are using a version of the UVM library that has been compiled
#   with `UVM_OBJECT_MUST_HAVE_CONSTRUCTOR undefined.
#   See http://www.eda.org/svdb/view.php?id=3770 for more details.
# 
#       (Specify +UVM_NO_RELNOTES to turn off this notice)
# 
# UVM_INFO verilog_src/questa_uvm_pkg-1.2/src/questa_uvm_pkg.sv(215) @ 0: reporter [Questa UVM] QUESTA_UVM-1.2.3
# UVM_INFO verilog_src/questa_uvm_pkg-1.2/src/questa_uvm_pkg.sv(217) @ 0: reporter [Questa UVM]  questa_uvm::init(+struct)
# UVM_INFO ../src/tb_top.sv(147) @ 0: reporter [TB_TOP] Virtual interface set in config_db
# UVM_INFO @ 0: reporter [RNTST] Running test axi4_cache_prot_test...
# UVM_INFO ../src/tb_top.sv(161) @ 0: reporter [TB_TOP] Waveform VCD dumping enabled (axi4_vip.vcd)
# UVM_INFO ../src/env/axi4_vip_env.sv(83) @ 0: uvm_test_top.env [axi4_vip_env] slave_vif not set - reusing master_vif (passthrough mode)
# UVM_INFO ../src/env/axi4_vip_env.sv(93) @ 0: uvm_test_top.env [axi4_vip_env] Scoreboard created
# UVM_INFO ../src/env/axi4_vip_env.sv(100) @ 0: uvm_test_top.env [axi4_vip_env] Coverage collectors created
# UVM_INFO ../src/mst/axi4_master_agent.sv(69) @ 0: uvm_test_top.env.master_agent [axi4_master_agent] ACTIVE mode - driver + sequencer created
# UVM_INFO ../src/slv/axi4_slave_agent.sv(82) @ 0: uvm_test_top.env.slave_agent [axi4_slave_agent] ACTIVE mode — ready_delay=[0:0] resp_delay=[0:0]
# UVM_INFO ../src/env/axi4_vip_env.sv(116) @ 0: uvm_test_top.env [axi4_vip_env] Scoreboard connected: master_mon.ap -> scb, slave_mon.ap -> scb
# UVM_INFO ../src/env/axi4_vip_env.sv(124) @ 0: uvm_test_top.env [axi4_vip_env] Coverage connected: master_mon.ap -> master_cov, slave_mon.ap -> slave_cov
# UVM_INFO @ 0: reporter [UVMTOP] UVM testbench topology:
# ---------------------------------------------------------------
# Name                       Type                     Size  Value
# ---------------------------------------------------------------
# uvm_test_top               axi4_cache_prot_test     -     @475 
#   env                      axi4_vip_env             -     @490 
#     master_agent           axi4_master_agent        -     @505 
#       drv                  axi4_master_driver       -     @569 
#         rsp_port           uvm_analysis_port        -     @584 
#         seq_item_port      uvm_seq_item_pull_port   -     @576 
#       mon                  axi4_master_monitor      -     @561 
#         ap                 uvm_analysis_port        -     @702 
#       sqr                  axi4_master_sequencer    -     @592 
#         rsp_export         uvm_analysis_export      -     @599 
#         seq_item_export    uvm_seq_item_pull_imp    -     @693 
#         arbitration_queue  array                    0     -    
#         lock_queue         array                    0     -    
#         num_last_reqs      integral                 32    'd1  
#         num_last_rsps      integral                 32    'd1  
#     master_cov             axi4_coverage            -     @526 
#       analysis_imp         uvm_analysis_imp         -     @533 
#     scb                    axi4_scoreboard          -     @519 
#       master_export        uvm_analysis_imp_master  -     @716 
#       slave_export         uvm_analysis_imp_slave   -     @724 
#     slave_agent            axi4_slave_agent         -     @512 
#       drv                  axi4_slave_driver        -     @755 
#         rsp_port           uvm_analysis_port        -     @770 
#         seq_item_port      uvm_seq_item_pull_port   -     @762 
#       mon                  axi4_slave_monitor       -     @737 
#         ap                 uvm_analysis_port        -     @894 
#       sqr                  axi4_slave_sequencer     -     @778 
#         rsp_export         uvm_analysis_export      -     @785 
#         seq_item_export    uvm_seq_item_pull_imp    -     @879 
#         arbitration_queue  array                    0     -    
#         lock_queue         array                    0     -    
#         num_last_reqs      integral                 32    'd1  
#         num_last_rsps      integral                 32    'd1  
#     slave_cov              axi4_coverage            -     @541 
#       analysis_imp         uvm_analysis_imp         -     @548 
# ---------------------------------------------------------------
# 
# UVM_INFO verilog_src/questa_uvm_pkg-1.2/src/questa_uvm_pkg.sv(277) @ 0: reporter [Questa UVM] End Of Elaboration
# UVM_INFO ../src/test/axi4_cache_prot_test.sv(24) @ 0: uvm_test_top [axi4_cache_prot_test] Starting cache and protection attributes sweep test
# UVM_INFO ../src/seq/axi4_cache_prot_seq.sv(25) @ 0: uvm_test_top.env.master_agent.sqr@@cp_seq [axi4_cache_prot_seq] Starting cache and prot attribute sweep sequence
# UVM_INFO ../src/tb_top.sv(49) @ 95000: reporter [TOP_TB] Reset de-asserted
# UVM_INFO ../src/slv/axi4_slave_driver.sv(131) @ 95000: uvm_test_top.env.slave_agent.drv [axi4_slave_driver] Reset deasserted - slave driver active
# UVM_INFO ../src/mst/axi4_master_driver.sv(64) @ 95000: uvm_test_top.env.master_agent.drv [axi4_master_driver] Reset deasserted - master driver active
# UVM_INFO ../src/mst/axi4_master_monitor.sv(77) @ 95000: uvm_test_top.env.master_agent.mon [axi4_master_monitor] Reset deasserted - monitor active
# UVM_INFO ../src/slv/axi4_slave_monitor.sv(71) @ 95000: uvm_test_top.env.slave_agent.mon [axi4_slave_monitor] Reset deasserted - monitor active
# UVM_INFO ../src/mst/axi4_master_driver.sv(73) @ 95000: uvm_test_top.env.master_agent.drv [axi4_master_driver] Driving AXI4_WRITE  ID=0xa  ADDR=0x9e7d1f9c  LEN=249
# UVM_INFO ../src/mst/axi4_master_driver.sv(73) @ 95000: uvm_test_top.env.master_agent.drv [axi4_master_driver] Driving AXI4_READ  ID=0x6  ADDR=0x6495ef29  LEN=35
# UVM_INFO ../src/seq/axi4_cache_prot_seq.sv(60) @ 95000: uvm_test_top.env.master_agent.sqr@@cp_seq [axi4_cache_prot_seq] [1/16] Swept CACHE=0b0000 PROT=0b000 (Write & Read)
# UVM_INFO ../src/mst/axi4_master_driver.sv(73) @ 95000: uvm_test_top.env.master_agent.drv [axi4_master_driver] Driving AXI4_WRITE  ID=0x8  ADDR=0xb342a9be  LEN=134
# UVM_INFO ../src/mst/axi4_master_driver.sv(73) @ 95000: uvm_test_top.env.master_agent.drv [axi4_master_driver] Driving AXI4_READ  ID=0x7  ADDR=0x3a853047  LEN=71
# UVM_INFO ../src/seq/axi4_cache_prot_seq.sv(60) @ 95000: uvm_test_top.env.master_agent.sqr@@cp_seq [axi4_cache_prot_seq] [2/16] Swept CACHE=0b0001 PROT=0b001 (Write & Read)
# UVM_INFO ../src/mst/axi4_master_driver.sv(73) @ 95000: uvm_test_top.env.master_agent.drv [axi4_master_driver] Driving AXI4_WRITE  ID=0x3  ADDR=0x6a98f600  LEN=7
# UVM_INFO ../src/mst/axi4_master_driver.sv(73) @ 95000: uvm_test_top.env.master_agent.drv [axi4_master_driver] Driving AXI4_READ  ID=0x3  ADDR=0xb4536233  LEN=165
# UVM_INFO ../src/seq/axi4_cache_prot_seq.sv(60) @ 95000: uvm_test_top.env.master_agent.sqr@@cp_seq [axi4_cache_prot_seq] [3/16] Swept CACHE=0b0010 PROT=0b010 (Write & Read)
# UVM_INFO ../src/mst/axi4_master_driver.sv(73) @ 95000: uvm_test_top.env.master_agent.drv [axi4_master_driver] Driving AXI4_WRITE  ID=0xc  ADDR=0xcce78bcc  LEN=215
# UVM_INFO ../src/mst/axi4_master_driver.sv(73) @ 95000: uvm_test_top.env.master_agent.drv [axi4_master_driver] Driving AXI4_READ  ID=0x5  ADDR=0x734756de  LEN=159
# UVM_INFO ../src/seq/axi4_cache_prot_seq.sv(60) @ 95000: uvm_test_top.env.master_agent.sqr@@cp_seq [axi4_cache_prot_seq] [4/16] Swept CACHE=0b0011 PROT=0b011 (Write & Read)
# UVM_INFO ../src/mst/axi4_master_driver.sv(73) @ 95000: uvm_test_top.env.master_agent.drv [axi4_master_driver] Driving AXI4_WRITE  ID=0xc  ADDR=0xc6928d4f  LEN=79
# UVM_INFO ../src/mst/axi4_master_driver.sv(73) @ 95000: uvm_test_top.env.master_agent.drv [axi4_master_driver] Driving AXI4_READ  ID=0x3  ADDR=0x607c74e9  LEN=242
# UVM_INFO ../src/seq/axi4_cache_prot_seq.sv(60) @ 95000: uvm_test_top.env.master_agent.sqr@@cp_seq [axi4_cache_prot_seq] [5/16] Swept CACHE=0b0100 PROT=0b100 (Write & Read)
# UVM_INFO ../src/mst/axi4_master_driver.sv(73) @ 95000: uvm_test_top.env.master_agent.drv [axi4_master_driver] Driving AXI4_WRITE  ID=0x0  ADDR=0x6472ea22  LEN=247
# UVM_INFO ../src/mst/axi4_master_driver.sv(73) @ 95000: uvm_test_top.env.master_agent.drv [axi4_master_driver] Driving AXI4_READ  ID=0xa  ADDR=0x1202766b  LEN=53
# UVM_INFO ../src/seq/axi4_cache_prot_seq.sv(60) @ 95000: uvm_test_top.env.master_agent.sqr@@cp_seq [axi4_cache_prot_seq] [6/16] Swept CACHE=0b0101 PROT=0b101 (Write & Read)
# UVM_INFO ../src/mst/axi4_master_driver.sv(73) @ 95000: uvm_test_top.env.master_agent.drv [axi4_master_driver] Driving AXI4_WRITE  ID=0xa  ADDR=0xb46dd142  LEN=155
# UVM_INFO ../src/mst/axi4_master_driver.sv(73) @ 95000: uvm_test_top.env.master_agent.drv [axi4_master_driver] Driving AXI4_READ  ID=0x1  ADDR=0x5065fe26  LEN=10
# UVM_INFO ../src/seq/axi4_cache_prot_seq.sv(60) @ 95000: uvm_test_top.env.master_agent.sqr@@cp_seq [axi4_cache_prot_seq] [7/16] Swept CACHE=0b0110 PROT=0b110 (Write & Read)
# UVM_INFO ../src/mst/axi4_master_driver.sv(73) @ 95000: uvm_test_top.env.master_agent.drv [axi4_master_driver] Driving AXI4_WRITE  ID=0x9  ADDR=0x4b3795a6  LEN=47
# UVM_INFO ../src/mst/axi4_master_driver.sv(73) @ 95000: uvm_test_top.env.master_agent.drv [axi4_master_driver] Driving AXI4_READ  ID=0x6  ADDR=0x05b1c16e  LEN=181
# UVM_INFO ../src/seq/axi4_cache_prot_seq.sv(60) @ 95000: uvm_test_top.env.master_agent.sqr@@cp_seq [axi4_cache_prot_seq] [8/16] Swept CACHE=0b0111 PROT=0b111 (Write & Read)
# UVM_INFO ../src/mst/axi4_master_driver.sv(73) @ 95000: uvm_test_top.env.master_agent.drv [axi4_master_driver] Driving AXI4_WRITE  ID=0xe  ADDR=0xd54a5575  LEN=12
# UVM_INFO ../src/mst/axi4_master_driver.sv(73) @ 95000: uvm_test_top.env.master_agent.drv [axi4_master_driver] Driving AXI4_READ  ID=0x8  ADDR=0x305b562f  LEN=159
# UVM_INFO ../src/seq/axi4_cache_prot_seq.sv(60) @ 95000: uvm_test_top.env.master_agent.sqr@@cp_seq [axi4_cache_prot_seq] [9/16] Swept CACHE=0b1000 PROT=0b000 (Write & Read)
# UVM_INFO ../src/mst/axi4_master_driver.sv(73) @ 95000: uvm_test_top.env.master_agent.drv [axi4_master_driver] Driving AXI4_WRITE  ID=0xa  ADDR=0x0084f9de  LEN=67
# UVM_INFO ../src/mst/axi4_master_driver.sv(73) @ 95000: uvm_test_top.env.master_agent.drv [axi4_master_driver] Driving AXI4_READ  ID=0xc  ADDR=0x7e4aa2be  LEN=207
# UVM_INFO ../src/seq/axi4_cache_prot_seq.sv(60) @ 95000: uvm_test_top.env.master_agent.sqr@@cp_seq [axi4_cache_prot_seq] [10/16] Swept CACHE=0b1001 PROT=0b001 (Write & Read)
# UVM_INFO ../src/mst/axi4_master_driver.sv(73) @ 95000: uvm_test_top.env.master_agent.drv [axi4_master_driver] Driving AXI4_WRITE  ID=0x6  ADDR=0x1a391acb  LEN=32
# UVM_INFO ../src/mst/axi4_master_driver.sv(73) @ 95000: uvm_test_top.env.master_agent.drv [axi4_master_driver] Driving AXI4_READ  ID=0x3  ADDR=0x2d7e51a5  LEN=26
# UVM_INFO ../src/seq/axi4_cache_prot_seq.sv(60) @ 95000: uvm_test_top.env.master_agent.sqr@@cp_seq [axi4_cache_prot_seq] [11/16] Swept CACHE=0b1010 PROT=0b010 (Write & Read)
# UVM_INFO ../src/mst/axi4_master_driver.sv(73) @ 95000: uvm_test_top.env.master_agent.drv [axi4_master_driver] Driving AXI4_WRITE  ID=0x3  ADDR=0xda67f3a0  LEN=23
# UVM_INFO ../src/mst/axi4_master_driver.sv(73) @ 95000: uvm_test_top.env.master_agent.drv [axi4_master_driver] Driving AXI4_READ  ID=0x6  ADDR=0x63974bf5  LEN=247
# UVM_INFO ../src/seq/axi4_cache_prot_seq.sv(60) @ 95000: uvm_test_top.env.master_agent.sqr@@cp_seq [axi4_cache_prot_seq] [12/16] Swept CACHE=0b1011 PROT=0b011 (Write & Read)
# UVM_INFO ../src/mst/axi4_master_driver.sv(73) @ 95000: uvm_test_top.env.master_agent.drv [axi4_master_driver] Driving AXI4_WRITE  ID=0x6  ADDR=0x3ed98784  LEN=141
# UVM_INFO ../src/mst/axi4_master_driver.sv(73) @ 95000: uvm_test_top.env.master_agent.drv [axi4_master_driver] Driving AXI4_READ  ID=0xc  ADDR=0x6f5138b7  LEN=5
# UVM_INFO ../src/seq/axi4_cache_prot_seq.sv(60) @ 95000: uvm_test_top.env.master_agent.sqr@@cp_seq [axi4_cache_prot_seq] [13/16] Swept CACHE=0b1100 PROT=0b100 (Write & Read)
# UVM_INFO ../src/mst/axi4_master_driver.sv(73) @ 95000: uvm_test_top.env.master_agent.drv [axi4_master_driver] Driving AXI4_WRITE  ID=0x5  ADDR=0x85716599  LEN=243
# UVM_INFO ../src/mst/axi4_master_driver.sv(73) @ 95000: uvm_test_top.env.master_agent.drv [axi4_master_driver] Driving AXI4_READ  ID=0xa  ADDR=0x308aeeed  LEN=56
# UVM_INFO ../src/seq/axi4_cache_prot_seq.sv(60) @ 95000: uvm_test_top.env.master_agent.sqr@@cp_seq [axi4_cache_prot_seq] [14/16] Swept CACHE=0b1101 PROT=0b101 (Write & Read)
# UVM_INFO ../src/mst/axi4_master_driver.sv(73) @ 95000: uvm_test_top.env.master_agent.drv [axi4_master_driver] Driving AXI4_WRITE  ID=0x6  ADDR=0x83f8264b  LEN=216
# UVM_INFO ../src/mst/axi4_master_driver.sv(73) @ 95000: uvm_test_top.env.master_agent.drv [axi4_master_driver] Driving AXI4_READ  ID=0x3  ADDR=0x69090b94  LEN=213
# UVM_INFO ../src/seq/axi4_cache_prot_seq.sv(60) @ 95000: uvm_test_top.env.master_agent.sqr@@cp_seq [axi4_cache_prot_seq] [15/16] Swept CACHE=0b1110 PROT=0b110 (Write & Read)
# UVM_INFO ../src/mst/axi4_master_driver.sv(73) @ 95000: uvm_test_top.env.master_agent.drv [axi4_master_driver] Driving AXI4_WRITE  ID=0xb  ADDR=0x241137ce  LEN=127
# UVM_INFO ../src/mst/axi4_master_driver.sv(73) @ 95000: uvm_test_top.env.master_agent.drv [axi4_master_driver] Driving AXI4_READ  ID=0x4  ADDR=0x74f78950  LEN=201
# UVM_INFO ../src/seq/axi4_cache_prot_seq.sv(60) @ 95000: uvm_test_top.env.master_agent.sqr@@cp_seq [axi4_cache_prot_seq] [16/16] Swept CACHE=0b1111 PROT=0b111 (Write & Read)
# UVM_INFO ../src/seq/axi4_cache_prot_seq.sv(63) @ 95000: uvm_test_top.env.master_agent.sqr@@cp_seq [axi4_cache_prot_seq] Cache and prot attribute sweep sequence complete
# UVM_INFO ../src/slv/axi4_slave_driver.sv(386) @ 115000: uvm_test_top.env.slave_agent.drv [axi4_slave_driver] AR received: ID=0x6 ADDR=0x6495ef29 LEN=35 LOCK=AXI4_LOCK_NORMAL
# UVM_INFO ../src/slv/axi4_slave_driver.sv(228) @ 115000: uvm_test_top.env.slave_agent.drv [axi4_slave_driver] AW received: ID=0xa ADDR=0x9e7d1f9c LEN=249 LOCK=AXI4_LOCK_NORMAL
# UVM_INFO ../src/slv/axi4_slave_monitor.sv(224) @ 115000: uvm_test_top.env.slave_agent.mon [axi4_slave_monitor] AR received: ID=0x6 ADDR=0x6495ef29 LEN=35
# UVM_INFO ../src/slv/axi4_slave_monitor.sv(116) @ 115000: uvm_test_top.env.slave_agent.mon [axi4_slave_monitor] AW received: ID=0xa ADDR=0x9e7d1f9c LEN=249
# UVM_INFO ../src/mst/axi4_master_monitor.sv(246) @ 115000: uvm_test_top.env.master_agent.mon [axi4_master_monitor] AR observed: ID=0x6 ADDR=0x6495ef29 LEN=35
# UVM_INFO ../src/mst/axi4_master_monitor.sv(124) @ 115000: uvm_test_top.env.master_agent.mon [axi4_master_monitor] AW observed: ID=0xa ADDR=0x9e7d1f9c LEN=249
# UVM_INFO ../src/slv/axi4_slave_driver.sv(228) @ 145000: uvm_test_top.env.slave_agent.drv [axi4_slave_driver] AW received: ID=0x8 ADDR=0xb342a9be LEN=134 LOCK=AXI4_LOCK_NORMAL
# UVM_INFO ../src/slv/axi4_slave_driver.sv(386) @ 145000: uvm_test_top.env.slave_agent.drv [axi4_slave_driver] AR received: ID=0x7 ADDR=0x3a853047 LEN=71 LOCK=AXI4_LOCK_NORMAL
# UVM_INFO ../src/mst/axi4_master_monitor.sv(124) @ 145000: uvm_test_top.env.master_agent.mon [axi4_master_monitor] AW observed: ID=0x8 ADDR=0xb342a9be LEN=134
# UVM_INFO ../src/mst/axi4_master_monitor.sv(246) @ 145000: uvm_test_top.env.master_agent.mon [axi4_master_monitor] AR observed: ID=0x7 ADDR=0x3a853047 LEN=71
# UVM_INFO ../src/slv/axi4_slave_monitor.sv(116) @ 145000: uvm_test_top.env.slave_agent.mon [axi4_slave_monitor] AW received: ID=0x8 ADDR=0xb342a9be LEN=134
# UVM_INFO ../src/slv/axi4_slave_monitor.sv(224) @ 145000: uvm_test_top.env.slave_agent.mon [axi4_slave_monitor] AR received: ID=0x7 ADDR=0x3a853047 LEN=71
# UVM_INFO ../src/slv/axi4_slave_driver.sv(386) @ 175000: uvm_test_top.env.slave_agent.drv [axi4_slave_driver] AR received: ID=0x3 ADDR=0xb4536233 LEN=165 LOCK=AXI4_LOCK_NORMAL
# UVM_INFO ../src/slv/axi4_slave_driver.sv(228) @ 175000: uvm_test_top.env.slave_agent.drv [axi4_slave_driver] AW received: ID=0x3 ADDR=0x6a98f600 LEN=7 LOCK=AXI4_LOCK_EXCLUSIVE
# UVM_INFO ../src/slv/axi4_slave_monitor.sv(224) @ 175000: uvm_test_top.env.slave_agent.mon [axi4_slave_monitor] AR received: ID=0x3 ADDR=0xb4536233 LEN=165
# UVM_INFO ../src/slv/axi4_slave_monitor.sv(116) @ 175000: uvm_test_top.env.slave_agent.mon [axi4_slave_monitor] AW received: ID=0x3 ADDR=0x6a98f600 LEN=7
# UVM_INFO ../src/mst/axi4_master_monitor.sv(246) @ 175000: uvm_test_top.env.master_agent.mon [axi4_master_monitor] AR observed: ID=0x3 ADDR=0xb4536233 LEN=165
# UVM_INFO ../src/mst/axi4_master_monitor.sv(124) @ 175000: uvm_test_top.env.master_agent.mon [axi4_master_monitor] AW observed: ID=0x3 ADDR=0x6a98f600 LEN=7
# UVM_INFO ../src/slv/axi4_slave_driver.sv(228) @ 205000: uvm_test_top.env.slave_agent.drv [axi4_slave_driver] AW received: ID=0xc ADDR=0xcce78bcc LEN=215 LOCK=AXI4_LOCK_NORMAL
# UVM_INFO ../src/slv/axi4_slave_driver.sv(386) @ 205000: uvm_test_top.env.slave_agent.drv [axi4_slave_driver] AR received: ID=0x5 ADDR=0x734756de LEN=159 LOCK=AXI4_LOCK_NORMAL
# UVM_INFO ../src/mst/axi4_master_monitor.sv(124) @ 205000: uvm_test_top.env.master_agent.mon [axi4_master_monitor] AW observed: ID=0xc ADDR=0xcce78bcc LEN=215
# UVM_INFO ../src/mst/axi4_master_monitor.sv(246) @ 205000: uvm_test_top.env.master_agent.mon [axi4_master_monitor] AR observed: ID=0x5 ADDR=0x734756de LEN=159
# UVM_INFO ../src/slv/axi4_slave_monitor.sv(116) @ 205000: uvm_test_top.env.slave_agent.mon [axi4_slave_monitor] AW received: ID=0xc ADDR=0xcce78bcc LEN=215
# UVM_INFO ../src/slv/axi4_slave_monitor.sv(224) @ 205000: uvm_test_top.env.slave_agent.mon [axi4_slave_monitor] AR received: ID=0x5 ADDR=0x734756de LEN=159
# UVM_INFO ../src/slv/axi4_slave_driver.sv(386) @ 235000: uvm_test_top.env.slave_agent.drv [axi4_slave_driver] AR received: ID=0x3 ADDR=0x607c74e9 LEN=242 LOCK=AXI4_LOCK_NORMAL
# UVM_INFO ../src/slv/axi4_slave_driver.sv(228) @ 235000: uvm_test_top.env.slave_agent.drv [axi4_slave_driver] AW received: ID=0xc ADDR=0xc6928d4f LEN=79 LOCK=AXI4_LOCK_NORMAL
# UVM_INFO ../src/slv/axi4_slave_monitor.sv(224) @ 235000: uvm_test_top.env.slave_agent.mon [axi4_slave_monitor] AR received: ID=0x3 ADDR=0x607c74e9 LEN=242
# UVM_INFO ../src/slv/axi4_slave_monitor.sv(116) @ 235000: uvm_test_top.env.slave_agent.mon [axi4_slave_monitor] AW received: ID=0xc ADDR=0xc6928d4f LEN=79
# UVM_INFO ../src/mst/axi4_master_monitor.sv(246) @ 235000: uvm_test_top.env.master_agent.mon [axi4_master_monitor] AR observed: ID=0x3 ADDR=0x607c74e9 LEN=242
# UVM_INFO ../src/mst/axi4_master_monitor.sv(124) @ 235000: uvm_test_top.env.master_agent.mon [axi4_master_monitor] AW observed: ID=0xc ADDR=0xc6928d4f LEN=79
# UVM_INFO ../src/slv/axi4_slave_driver.sv(228) @ 265000: uvm_test_top.env.slave_agent.drv [axi4_slave_driver] AW received: ID=0x0 ADDR=0x6472ea22 LEN=247 LOCK=AXI4_LOCK_NORMAL
# UVM_INFO ../src/slv/axi4_slave_driver.sv(386) @ 265000: uvm_test_top.env.slave_agent.drv [axi4_slave_driver] AR received: ID=0xa ADDR=0x1202766b LEN=53 LOCK=AXI4_LOCK_NORMAL
# UVM_INFO ../src/mst/axi4_master_monitor.sv(124) @ 265000: uvm_test_top.env.master_agent.mon [axi4_master_monitor] AW observed: ID=0x0 ADDR=0x6472ea22 LEN=247
# UVM_INFO ../src/mst/axi4_master_monitor.sv(246) @ 265000: uvm_test_top.env.master_agent.mon [axi4_master_monitor] AR observed: ID=0xa ADDR=0x1202766b LEN=53
# UVM_INFO ../src/slv/axi4_slave_monitor.sv(116) @ 265000: uvm_test_top.env.slave_agent.mon [axi4_slave_monitor] AW received: ID=0x0 ADDR=0x6472ea22 LEN=247
# UVM_INFO ../src/slv/axi4_slave_monitor.sv(224) @ 265000: uvm_test_top.env.slave_agent.mon [axi4_slave_monitor] AR received: ID=0xa ADDR=0x1202766b LEN=53
# UVM_INFO ../src/slv/axi4_slave_driver.sv(386) @ 295000: uvm_test_top.env.slave_agent.drv [axi4_slave_driver] AR received: ID=0x1 ADDR=0x5065fe26 LEN=10 LOCK=AXI4_LOCK_NORMAL
# UVM_INFO ../src/slv/axi4_slave_monitor.sv(224) @ 295000: uvm_test_top.env.slave_agent.mon [axi4_slave_monitor] AR received: ID=0x1 ADDR=0x5065fe26 LEN=10
# UVM_INFO ../src/mst/axi4_master_monitor.sv(246) @ 295000: uvm_test_top.env.master_agent.mon [axi4_master_monitor] AR observed: ID=0x1 ADDR=0x5065fe26 LEN=10
# UVM_INFO ../src/slv/axi4_slave_driver.sv(386) @ 325000: uvm_test_top.env.slave_agent.drv [axi4_slave_driver] AR received: ID=0x6 ADDR=0x05b1c16e LEN=181 LOCK=AXI4_LOCK_NORMAL
# UVM_INFO ../src/mst/axi4_master_monitor.sv(246) @ 325000: uvm_test_top.env.master_agent.mon [axi4_master_monitor] AR observed: ID=0x6 ADDR=0x05b1c16e LEN=181
# UVM_INFO ../src/slv/axi4_slave_monitor.sv(224) @ 325000: uvm_test_top.env.slave_agent.mon [axi4_slave_monitor] AR received: ID=0x6 ADDR=0x05b1c16e LEN=181
# UVM_INFO ../src/slv/axi4_slave_driver.sv(386) @ 355000: uvm_test_top.env.slave_agent.drv [axi4_slave_driver] AR received: ID=0x8 ADDR=0x305b562f LEN=159 LOCK=AXI4_LOCK_NORMAL
# UVM_INFO ../src/slv/axi4_slave_monitor.sv(224) @ 355000: uvm_test_top.env.slave_agent.mon [axi4_slave_monitor] AR received: ID=0x8 ADDR=0x305b562f LEN=159
# UVM_INFO ../src/mst/axi4_master_monitor.sv(246) @ 355000: uvm_test_top.env.master_agent.mon [axi4_master_monitor] AR observed: ID=0x8 ADDR=0x305b562f LEN=159
# UVM_INFO ../src/slv/axi4_slave_driver.sv(386) @ 385000: uvm_test_top.env.slave_agent.drv [axi4_slave_driver] AR received: ID=0xc ADDR=0x7e4aa2be LEN=207 LOCK=AXI4_LOCK_NORMAL
# UVM_INFO ../src/mst/axi4_master_monitor.sv(246) @ 385000: uvm_test_top.env.master_agent.mon [axi4_master_monitor] AR observed: ID=0xc ADDR=0x7e4aa2be LEN=207
# UVM_INFO ../src/slv/axi4_slave_monitor.sv(224) @ 385000: uvm_test_top.env.slave_agent.mon [axi4_slave_monitor] AR received: ID=0xc ADDR=0x7e4aa2be LEN=207
# UVM_INFO ../src/slv/axi4_slave_driver.sv(386) @ 415000: uvm_test_top.env.slave_agent.drv [axi4_slave_driver] AR received: ID=0x3 ADDR=0x2d7e51a5 LEN=26 LOCK=AXI4_LOCK_NORMAL
# UVM_INFO ../src/slv/axi4_slave_monitor.sv(224) @ 415000: uvm_test_top.env.slave_agent.mon [axi4_slave_monitor] AR received: ID=0x3 ADDR=0x2d7e51a5 LEN=26
# UVM_INFO ../src/mst/axi4_master_monitor.sv(246) @ 415000: uvm_test_top.env.master_agent.mon [axi4_master_monitor] AR observed: ID=0x3 ADDR=0x2d7e51a5 LEN=26
# UVM_INFO ../src/slv/axi4_slave_driver.sv(386) @ 445000: uvm_test_top.env.slave_agent.drv [axi4_slave_driver] AR received: ID=0x6 ADDR=0x63974bf5 LEN=247 LOCK=AXI4_LOCK_NORMAL
# UVM_INFO ../src/mst/axi4_master_monitor.sv(246) @ 445000: uvm_test_top.env.master_agent.mon [axi4_master_monitor] AR observed: ID=0x6 ADDR=0x63974bf5 LEN=247
# UVM_INFO ../src/slv/axi4_slave_monitor.sv(224) @ 445000: uvm_test_top.env.slave_agent.mon [axi4_slave_monitor] AR received: ID=0x6 ADDR=0x63974bf5 LEN=247
# UVM_INFO ../src/slv/axi4_slave_driver.sv(386) @ 475000: uvm_test_top.env.slave_agent.drv [axi4_slave_driver] AR received: ID=0xc ADDR=0x6f5138b7 LEN=5 LOCK=AXI4_LOCK_NORMAL
# UVM_INFO ../src/slv/axi4_slave_monitor.sv(224) @ 475000: uvm_test_top.env.slave_agent.mon [axi4_slave_monitor] AR received: ID=0xc ADDR=0x6f5138b7 LEN=5
# UVM_INFO ../src/mst/axi4_master_monitor.sv(246) @ 475000: uvm_test_top.env.master_agent.mon [axi4_master_monitor] AR observed: ID=0xc ADDR=0x6f5138b7 LEN=5
# UVM_INFO ../src/slv/axi4_slave_driver.sv(386) @ 505000: uvm_test_top.env.slave_agent.drv [axi4_slave_driver] AR received: ID=0xa ADDR=0x308aeeed LEN=56 LOCK=AXI4_LOCK_NORMAL
# UVM_INFO ../src/mst/axi4_master_monitor.sv(246) @ 505000: uvm_test_top.env.master_agent.mon [axi4_master_monitor] AR observed: ID=0xa ADDR=0x308aeeed LEN=56
# UVM_INFO ../src/slv/axi4_slave_monitor.sv(224) @ 505000: uvm_test_top.env.slave_agent.mon [axi4_slave_monitor] AR received: ID=0xa ADDR=0x308aeeed LEN=56
# UVM_INFO ../src/slv/axi4_slave_driver.sv(386) @ 535000: uvm_test_top.env.slave_agent.drv [axi4_slave_driver] AR received: ID=0x3 ADDR=0x69090b94 LEN=213 LOCK=AXI4_LOCK_NORMAL
# UVM_INFO ../src/slv/axi4_slave_monitor.sv(224) @ 535000: uvm_test_top.env.slave_agent.mon [axi4_slave_monitor] AR received: ID=0x3 ADDR=0x69090b94 LEN=213
# UVM_INFO ../src/mst/axi4_master_monitor.sv(246) @ 535000: uvm_test_top.env.master_agent.mon [axi4_master_monitor] AR observed: ID=0x3 ADDR=0x69090b94 LEN=213
# UVM_INFO ../src/slv/axi4_slave_driver.sv(386) @ 565000: uvm_test_top.env.slave_agent.drv [axi4_slave_driver] AR received: ID=0x4 ADDR=0x74f78950 LEN=201 LOCK=AXI4_LOCK_NORMAL
# UVM_INFO ../src/mst/axi4_master_monitor.sv(246) @ 565000: uvm_test_top.env.master_agent.mon [axi4_master_monitor] AR observed: ID=0x4 ADDR=0x74f78950 LEN=201
# UVM_INFO ../src/slv/axi4_slave_monitor.sv(224) @ 565000: uvm_test_top.env.slave_agent.mon [axi4_slave_monitor] AR received: ID=0x4 ADDR=0x74f78950 LEN=201
# UVM_INFO ../src/mst/axi4_master_driver.sv(348) @ 835000: uvm_test_top.env.master_agent.drv [axi4_master_driver] Master driver received all R beats for ID=0x6
# UVM_INFO ../src/slv/axi4_slave_driver.sv(501) @ 835000: uvm_test_top.env.slave_agent.drv [axi4_slave_driver] Read complete: ID=0x6 ADDR=0x6495ef29 RESP=AXI4_RESP_OKAY  36 beats sent
# UVM_INFO ../src/slv/axi4_slave_monitor.sv(287) @ 835000: uvm_test_top.env.slave_agent.mon [axi4_slave_monitor] Read data sent: ID=0x6 ADDR=0x6495ef29 36 beats
# UVM_INFO ../src/env/axi4_scoreboard.sv(108) @ 835000: uvm_test_top.env.scb [axi4_scoreboard] Slave AXI4_READ received: ID=0x6 ADDR=0x6495ef29 LEN=35
# UVM_INFO ../src/mst/axi4_master_monitor.sv(314) @ 835000: uvm_test_top.env.master_agent.mon [axi4_master_monitor] Read complete: ID=0x6 ADDR=0x6495ef29 36 beats
# UVM_INFO ../src/env/axi4_scoreboard.sv(87) @ 835000: uvm_test_top.env.scb [axi4_scoreboard] Master AXI4_READ received: ID=0x6 ADDR=0x6495ef29 LEN=35
# UVM_INFO ../src/env/axi4_scoreboard.sv(291) @ 835000: uvm_test_top.env.scb [axi4_scoreboard] [READ] MATCH #1: ID=0x6 ADDR=0x6495ef29 LEN=35
# UVM_INFO ../src/test/axi4_cache_prot_test.sv(32) @ 1095000: uvm_test_top [axi4_cache_prot_test] Cache and protection sweep test complete
# UVM_INFO ../src/mst/axi4_master_driver.sv(348) @ 2275000: uvm_test_top.env.master_agent.drv [axi4_master_driver] Master driver received all R beats for ID=0x7
# UVM_INFO ../src/slv/axi4_slave_driver.sv(501) @ 2275000: uvm_test_top.env.slave_agent.drv [axi4_slave_driver] Read complete: ID=0x7 ADDR=0x3a853047 RESP=AXI4_RESP_OKAY  72 beats sent
# UVM_INFO ../src/slv/axi4_slave_monitor.sv(287) @ 2275000: uvm_test_top.env.slave_agent.mon [axi4_slave_monitor] Read data sent: ID=0x7 ADDR=0x3a853047 72 beats
# UVM_INFO ../src/env/axi4_scoreboard.sv(108) @ 2275000: uvm_test_top.env.scb [axi4_scoreboard] Slave AXI4_READ received: ID=0x7 ADDR=0x3a853047 LEN=71
# UVM_INFO ../src/mst/axi4_master_monitor.sv(314) @ 2275000: uvm_test_top.env.master_agent.mon [axi4_master_monitor] Read complete: ID=0x7 ADDR=0x3a853047 72 beats
# UVM_INFO ../src/env/axi4_scoreboard.sv(87) @ 2275000: uvm_test_top.env.scb [axi4_scoreboard] Master AXI4_READ received: ID=0x7 ADDR=0x3a853047 LEN=71
# UVM_INFO ../src/env/axi4_scoreboard.sv(291) @ 2275000: uvm_test_top.env.scb [axi4_scoreboard] [READ] MATCH #2: ID=0x7 ADDR=0x3a853047 LEN=71
# UVM_INFO ../src/slv/axi4_slave_monitor.sv(167) @ 5115000: uvm_test_top.env.slave_agent.mon [axi4_slave_monitor] W data assembled: ID=0xa ADDR=0x9e7d1f9c 250 beats
# UVM_INFO ../src/mst/axi4_master_monitor.sv(184) @ 5115000: uvm_test_top.env.master_agent.mon [axi4_master_monitor] W data assembled: ID=0xa ADDR=0x9e7d1f9c 250 beats
# UVM_INFO ../src/mst/axi4_master_driver.sv(289) @ 5145000: uvm_test_top.env.master_agent.drv [axi4_master_driver] Master driver received B response: ID=0xa RESP=AXI4_RESP_OKAY
# UVM_INFO ../src/slv/axi4_slave_driver.sv(348) @ 5145000: uvm_test_top.env.slave_agent.drv [axi4_slave_driver] Write complete: ID=0xa RESP=AXI4_RESP_OKAY
# UVM_INFO ../src/mst/axi4_master_monitor.sv(210) @ 5145000: uvm_test_top.env.master_agent.mon [axi4_master_monitor] Write complete: ID=0xa ADDR=0x9e7d1f9c RESP=AXI4_RESP_OKAY
# UVM_INFO ../src/env/axi4_scoreboard.sv(87) @ 5145000: uvm_test_top.env.scb [axi4_scoreboard] Master AXI4_WRITE received: ID=0xa ADDR=0x9e7d1f9c LEN=249
# UVM_INFO ../src/slv/axi4_slave_monitor.sv(189) @ 5145000: uvm_test_top.env.slave_agent.mon [axi4_slave_monitor] Write response sent: ID=0xa ADDR=0x9e7d1f9c RESP=AXI4_RESP_OKAY
# UVM_INFO ../src/env/axi4_scoreboard.sv(108) @ 5145000: uvm_test_top.env.scb [axi4_scoreboard] Slave AXI4_WRITE received: ID=0xa ADDR=0x9e7d1f9c LEN=249
# UVM_INFO ../src/env/axi4_scoreboard.sv(291) @ 5145000: uvm_test_top.env.scb [axi4_scoreboard] [WRITE] MATCH #3: ID=0xa ADDR=0x9e7d1f9c LEN=249
# UVM_INFO ../src/env/axi4_scoreboard.sv(219) @ 5145000: uvm_test_top.env.scb [axi4_scoreboard] [REF_MEM_WRITE] Addr=0x9e7d1f9c Data=0x38
# UVM_INFO ../src/env/axi4_scoreboard.sv(219) @ 5145000: uvm_test_top.env.scb [axi4_scoreboard] [REF_MEM_WRITE] Addr=0x9e7d1f9e Data=0x17
# UVM_INFO ../src/env/axi4_scoreboard.sv(219) @ 5145000: uvm_test_top.env.scb [axi4_scoreboard] [REF_MEM_WRITE] Addr=0x9e7d1fa0 Data=0x0a
# UVM_INFO ../src/env/axi4_scoreboard.sv(219) @ 5145000: uvm_test_top.env.scb [axi4_scoreboard] [REF_MEM_WRITE] Addr=0x9e7d1fa1 Data=0xc9
# UVM_INFO ../src/env/axi4_scoreboard.sv(219) @ 5145000: uvm_test_top.env.scb [axi4_scoreboard] [REF_MEM_WRITE] Addr=0x9e7d1fa2 Data=0x21
# UVM_INFO ../src/env/axi4_scoreboard.sv(219) @ 5145000: uvm_test_top.env.scb [axi4_scoreboard] [REF_MEM_WRITE] Addr=0x9e7d1fa3 Data=0x1c
# UVM_INFO ../src/env/axi4_scoreboard.sv(219) @ 5145000: uvm_test_top.env.scb [axi4_scoreboard] [REF_MEM_WRITE] Addr=0x9e7d1fa4 Data=0x01
# UVM_INFO ../src/env/axi4_scoreboard.sv(219) @ 5145000: uvm_test_top.env.scb [axi4_scoreboard] [REF_MEM_WRITE] Addr=0x9e7d1fa8 Data=0x42
# UVM_INFO ../src/env/axi4_scoreboard.sv(219) @ 5145000: uvm_test_top.env.scb [axi4_scoreboard] [REF_MEM_WRITE] Addr=0x9e7d1fa9 Data=0x24
# UVM_INFO ../src/env/axi4_scoreboard.sv(219) @ 5145000: uvm_test_top.env.scb [axi4_scoreboard] [REF_MEM_WRITE] Addr=0x9e7d1fac Data=0xd4
# UVM_INFO ../src/env/axi4_scoreboard.sv(219) @ 5145000: uvm_test_top.env.scb [axi4_scoreboard] [REF_MEM_WRITE] Addr=0x9e7d1fae Data=0x2d
# UVM_INFO ../src/env/axi4_scoreboard.sv(219) @ 5145000: uvm_test_top.env.scb [axi4_scoreboard] [REF_MEM_WRITE] Addr=0x9e7d1fb0 Data=0x95
# UVM_INFO ../src/env/axi4_scoreboard.sv(219) @ 5145000: uvm_test_top.env.scb [axi4_scoreboard] [REF_MEM_WRITE] Addr=0x9e7d1fb4 Data=0xa8
# UVM_INFO ../src/env/axi4_scoreboard.sv(219) @ 5145000: uvm_test_top.env.scb [axi4_scoreboard] [REF_MEM_WRITE] Addr=0x9e7d1fb5 Data=0xdb
# UVM_INFO ../src/env/axi4_scoreboard.sv(219) @ 5145000: uvm_test_top.env.scb [axi4_scoreboard] [REF_MEM_WRITE] Addr=0x9e7d1fb6 Data=0xc5
# UVM_INFO ../src/env/axi4_scoreboard.sv(219) @ 5145000: uvm_test_top.env.scb [axi4_scoreboard] [REF_MEM_WRITE] Addr=0x9e7d1fb7 Data=0x98
# UVM_INFO ../src/env/axi4_scoreboard.sv(219) @ 5145000: uvm_test_top.env.scb [axi4_scoreboard] [REF_MEM_WRITE] Addr=0x9e7d1fb8 Data=0xda
# UVM_INFO ../src/env/axi4_scoreboard.sv(219) @ 5145000: uvm_test_top.env.scb [axi4_scoreboard] [REF_MEM_WRITE] Addr=0x9e7d1fb9 Data=0xe0
# UVM_INFO ../src/env/axi4_scoreboard.sv(219) @ 5145000: uvm_test_top.env.scb [axi4_scoreboard] [REF_MEM_WRITE] Addr=0x9e7d1fbc Data=0xa7
# UVM_INFO ../src/env/axi4_scoreboard.sv(219) @ 5145000: uvm_test_top.env.scb [axi4_scoreboard] [REF_MEM_WRITE] Addr=0x9e7d1fbe Data=0xa5
# UVM_INFO ../src/env/axi4_scoreboard.sv(219) @ 5145000: uvm_test_top.env.scb [axi4_scoreboard] [REF_MEM_WRITE] Addr=0x9e7d1fc2 Data=0x42
# UVM_INFO ../src/env/axi4_scoreboard.sv(219) @ 5145000: uvm_test_top.env.scb [axi4_scoreboard] [REF_MEM_WRITE] Addr=0x9e7d1fc4 Data=0x69
# UVM_INFO ../src/env/axi4_scoreboard.sv(219) @ 5145000: uvm_test_top.env.scb [axi4_scoreboard] [REF_MEM_WRITE] Addr=0x9e7d1fc7 Data=0xef
# UVM_INFO ../src/env/axi4_scoreboard.sv(219) @ 5145000: uvm_test_top.env.scb [axi4_scoreboard] [REF_MEM_WRITE] Addr=0x9e7d1fc8 Data=0x1a
# UVM_INFO ../src/env/axi4_scoreboard.sv(219) @ 5145000: uvm_test_top.env.scb [axi4_scoreboard] [REF_MEM_WRITE] Addr=0x9e7d1fc9 Data=0x7d
# UVM_INFO ../src/env/axi4_scoreboard.sv(219) @ 5145000: uvm_test_top.env.scb [axi4_scoreboard] [REF_MEM_WRITE] Addr=0x9e7d1fcd Data=0x15
# UVM_INFO ../src/env/axi4_scoreboard.sv(219) @ 5145000: uvm_test_top.env.scb [axi4_scoreboard] [REF_MEM_WRITE] Addr=0x9e7d1fcf Data=0x25
# UVM_INFO ../src/env/axi4_scoreboard.sv(219) @ 5145000: uvm_test_top.env.scb [axi4_scoreboard] [REF_MEM_WRITE] Addr=0x9e7d1fd0 Data=0x70
# UVM_INFO ../src/env/axi4_scoreboard.sv(219) @ 5145000: uvm_test_top.env.scb [axi4_scoreboard] [REF_MEM_WRITE] Addr=0x9e7d1fd2 Data=0x34
# UVM_INFO ../src/env/axi4_scoreboard.sv(219) @ 5145000: uvm_test_top.env.scb [axi4_scoreboard] [REF_MEM_WRITE] Addr=0x9e7d1fd7 Data=0x14
# UVM_INFO ../src/env/axi4_scoreboard.sv(219) @ 5145000: uvm_test_top.env.scb [axi4_scoreboard] [REF_MEM_WRITE] Addr=0x9e7d1fd8 Data=0xb3
# UVM_INFO ../src/env/axi4_scoreboard.sv(219) @ 5145000: uvm_test_top.env.scb [axi4_scoreboard] [REF_MEM_WRITE] Addr=0x9e7d1fd9 Data=0x7c
# UVM_INFO ../src/env/axi4_scoreboard.sv(219) @ 5145000: uvm_test_top.env.scb [axi4_scoreboard] [REF_MEM_WRITE] Addr=0x9e7d1fda Data=0xff
# UVM_INFO ../src/env/axi4_scoreboard.sv(219) @ 5145000: uvm_test_top.env.scb [axi4_scoreboard] [REF_MEM_WRITE] Addr=0x9e7d1fdb Data=0xad
# UVM_INFO ../src/env/axi4_scoreboard.sv(219) @ 5145000: uvm_test_top.env.scb [axi4_scoreboard] [REF_MEM_WRITE] Addr=0x9e7d1fdc Data=0xfd
# UVM_INFO ../src/env/axi4_scoreboard.sv(219) @ 5145000: uvm_test_top.env.scb [axi4_scoreboard] [REF_MEM_WRITE] Addr=0x9e7d1fdf Data=0x7f
# UVM_INFO ../src/env/axi4_scoreboard.sv(219) @ 5145000: uvm_test_top.env.scb [axi4_scoreboard] [REF_MEM_WRITE] Addr=0x9e7d1fe0 Data=0x9d
# UVM_INFO ../src/env/axi4_scoreboard.sv(219) @ 5145000: uvm_test_top.env.scb [axi4_scoreboard] [REF_MEM_WRITE] Addr=0x9e7d1fe1 Data=0x54
# UVM_INFO ../src/env/axi4_scoreboard.sv(219) @ 5145000: uvm_test_top.env.scb [axi4_scoreboard] [REF_MEM_WRITE] Addr=0x9e7d1fe2 Data=0x24
# UVM_INFO ../src/env/axi4_scoreboard.sv(219) @ 5145000: uvm_test_top.env.scb [axi4_scoreboard] [REF_MEM_WRITE] Addr=0x9e7d1fe3 Data=0xd1
# UVM_INFO ../src/env/axi4_scoreboard.sv(219) @ 5145000: uvm_test_top.env.scb [axi4_scoreboard] [REF_MEM_WRITE] Addr=0x9e7d1fe8 Data=0x7d
# UVM_INFO ../src/env/axi4_scoreboard.sv(219) @ 5145000: uvm_test_top.env.scb [axi4_scoreboard] [REF_MEM_WRITE] Addr=0x9e7d1fea Data=0xf6
# UVM_INFO ../src/env/axi4_scoreboard.sv(219) @ 5145000: uvm_test_top.env.scb [axi4_scoreboard] [REF_MEM_WRITE] Addr=0x9e7d1ff4 Data=0xc6
# UVM_INFO ../src/env/axi4_scoreboard.sv(219) @ 5145000: uvm_test_top.env.scb [axi4_scoreboard] [REF_MEM_WRITE] Addr=0x9e7d1ff7 Data=0x64
# UVM_INFO ../src/env/axi4_scoreboard.sv(219) @ 5145000: uvm_test_top.env.scb [axi4_scoreboard] [REF_MEM_WRITE] Addr=0x9e7d1ffa Data=0x79
# UVM_INFO ../src/env/axi4_scoreboard.sv(219) @ 5145000: uvm_test_top.env.scb [axi4_scoreboard] [REF_MEM_WRITE] Addr=0x9e7d1ffd Data=0x4c
# UVM_INFO ../src/env/axi4_scoreboard.sv(219) @ 5145000: uvm_test_top.env.scb [axi4_scoreboard] [REF_MEM_WRITE] Addr=0x9e7d1ffe Data=0x83
# UVM_INFO ../src/env/axi4_scoreboard.sv(219) @ 5145000: uvm_test_top.env.scb [axi4_scoreboard] [REF_MEM_WRITE] Addr=0x9e7d1fff Data=0xce
# UVM_INFO ../src/env/axi4_scoreboard.sv(219) @ 5145000: uvm_test_top.env.scb [axi4_scoreboard] [REF_MEM_WRITE] Addr=0x9e7d2002 Data=0x6b
# UVM_INFO ../src/env/axi4_scoreboard.sv(219) @ 5145000: uvm_test_top.env.scb [axi4_scoreboard] [REF_MEM_WRITE] Addr=0x9e7d2003 Data=0xbc
# UVM_INFO ../src/env/axi4_scoreboard.sv(219) @ 5145000: uvm_test_top.env.scb [axi4_scoreboard] [REF_MEM_WRITE] Addr=0x9e7d2004 Data=0xb1
# UVM_INFO ../src/env/axi4_scoreboard.sv(219) @ 5145000: uvm_test_top.env.scb [axi4_scoreboard] [REF_MEM_WRITE] Addr=0x9e7d2006 Data=0xcb
# UVM_INFO ../src/env/axi4_scoreboard.sv(219) @ 5145000: uvm_test_top.env.scb [axi4_scoreboard] [REF_MEM_WRITE] Addr=0x9e7d2008 Data=0x4d
# UVM_INFO ../src/env/axi4_scoreboard.sv(219) @ 5145000: uvm_test_top.env.scb [axi4_scoreboard] [REF_MEM_WRITE] Addr=0x9e7d2009 Data=0xaa
# UVM_INFO ../src/env/axi4_scoreboard.sv(219) @ 5145000: uvm_test_top.env.scb [axi4_scoreboard] [REF_MEM_WRITE] Addr=0x9e7d200b Data=0x90
# UVM_INFO ../src/env/axi4_scoreboard.sv(219) @ 5145000: uvm_test_top.env.scb [axi4_scoreboard] [REF_MEM_WRITE] Addr=0x9e7d2013 Data=0x92
# UVM_INFO ../src/env/axi4_scoreboard.sv(219) @ 5145000: uvm_test_top.env.scb [axi4_scoreboard] [REF_MEM_WRITE] Addr=0x9e7d2017 Data=0x40
# UVM_INFO ../src/env/axi4_scoreboard.sv(219) @ 5145000: uvm_test_top.env.scb [axi4_scoreboard] [REF_MEM_WRITE] Addr=0x9e7d2019 Data=0x2d
# UVM_INFO ../src/env/axi4_scoreboard.sv(219) @ 5145000: uvm_test_top.env.scb [axi4_scoreboard] [REF_MEM_WRITE] Addr=0x9e7d201d Data=0xd6
# UVM_INFO ../src/env/axi4_scoreboard.sv(219) @ 5145000: uvm_test_top.env.scb [axi4_scoreboard] [REF_MEM_WRITE] Addr=0x9e7d201e Data=0xd0
# UVM_INFO ../src/env/axi4_scoreboard.sv(219) @ 5145000: uvm_test_top.env.scb [axi4_scoreboard] [REF_MEM_WRITE] Addr=0x9e7d201f Data=0x46
# UVM_INFO ../src/env/axi4_scoreboard.sv(219) @ 5145000: uvm_test_top.env.scb [axi4_scoreboard] [REF_MEM_WRITE] Addr=0x9e7d2020 Data=0x3b
# UVM_INFO ../src/env/axi4_scoreboard.sv(219) @ 5145000: uvm_test_top.env.scb [axi4_scoreboard] [REF_MEM_WRITE] Addr=0x9e7d2022 Data=0xef
# UVM_INFO ../src/env/axi4_scoreboard.sv(219) @ 5145000: uvm_test_top.env.scb [axi4_scoreboard] [REF_MEM_WRITE] Addr=0x9e7d2025 Data=0xcf
# UVM_INFO ../src/env/axi4_scoreboard.sv(219) @ 5145000: uvm_test_top.env.scb [axi4_scoreboard] [REF_MEM_WRITE] Addr=0x9e7d2028 Data=0xe5
# UVM_INFO ../src/env/axi4_scoreboard.sv(219) @ 5145000: uvm_test_top.env.scb [axi4_scoreboard] [REF_MEM_WRITE] Addr=0x9e7d202b Data=0x28
# UVM_INFO ../src/env/axi4_scoreboard.sv(219) @ 5145000: uvm_test_top.env.scb [axi4_scoreboard] [REF_MEM_WRITE] Addr=0x9e7d202d Data=0x87
# UVM_INFO ../src/env/axi4_scoreboard.sv(219) @ 5145000: uvm_test_top.env.scb [axi4_scoreboard] [REF_MEM_WRITE] Addr=0x9e7d202f Data=0x0e
# UVM_INFO ../src/env/axi4_scoreboard.sv(219) @ 5145000: uvm_test_top.env.scb [axi4_scoreboard] [REF_MEM_WRITE] Addr=0x9e7d2034 Data=0x16
# UVM_INFO ../src/env/axi4_scoreboard.sv(219) @ 5145000: uvm_test_top.env.scb [axi4_scoreboard] [REF_MEM_WRITE] Addr=0x9e7d2035 Data=0x81
# UVM_INFO ../src/env/axi4_scoreboard.sv(219) @ 5145000: uvm_test_top.env.scb [axi4_scoreboard] [REF_MEM_WRITE] Addr=0x9e7d2036 Data=0x1c
# UVM_INFO ../src/env/axi4_scoreboard.sv(219) @ 5145000: uvm_test_top.env.scb [axi4_scoreboard] [REF_MEM_WRITE] Addr=0x9e7d2037 Data=0x27
# UVM_INFO ../src/env/axi4_scoreboard.sv(219) @ 5145000: uvm_test_top.env.scb [axi4_scoreboard] [REF_MEM_WRITE] Addr=0x9e7d203b Data=0xb7
# UVM_INFO ../src/env/axi4_scoreboard.sv(219) @ 5145000: uvm_test_top.env.scb [axi4_scoreboard] [REF_MEM_WRITE] Addr=0x9e7d203d Data=0x48
# UVM_INFO ../src/env/axi4_scoreboard.sv(219) @ 5145000: uvm_test_top.env.scb [axi4_scoreboard] [REF_MEM_WRITE] Addr=0x9e7d203e Data=0x1f
# UVM_INFO ../src/env/axi4_scoreboard.sv(219) @ 5145000: uvm_test_top.env.scb [axi4_scoreboard] [REF_MEM_WRITE] Addr=0x9e7d2044 Data=0xd3
# UVM_INFO ../src/env/axi4_scoreboard.sv(219) @ 5145000: uvm_test_top.env.scb [axi4_scoreboard] [REF_MEM_WRITE] Addr=0x9e7d2047 Data=0x87
# UVM_INFO ../src/env/axi4_scoreboard.sv(219) @ 5145000: uvm_test_top.env.scb [axi4_scoreboard] [REF_MEM_WRITE] Addr=0x9e7d2048 Data=0x7d
# UVM_INFO ../src/env/axi4_scoreboard.sv(219) @ 5145000: uvm_test_top.env.scb [axi4_scoreboard] [REF_MEM_WRITE] Addr=0x9e7d2049 Data=0x8f
# UVM_INFO ../src/env/axi4_scoreboard.sv(219) @ 5145000: uvm_test_top.env.scb [axi4_scoreboard] [REF_MEM_WRITE] Addr=0x9e7d204a Data=0x49
# UVM_INFO ../src/env/axi4_scoreboard.sv(219) @ 5145000: uvm_test_top.env.scb [axi4_scoreboard] [REF_MEM_WRITE] Addr=0x9e7d204d Data=0x1b
# UVM_INFO ../src/env/axi4_scoreboard.sv(219) @ 5145000: uvm_test_top.env.scb [axi4_scoreboard] [REF_MEM_WRITE] Addr=0x9e7d2052 Data=0xf6
# UVM_INFO ../src/env/axi4_scoreboard.sv(219) @ 5145000: uvm_test_top.env.scb [axi4_scoreboard] [REF_MEM_WRITE] Addr=0x9e7d2057 Data=0xd8
# UVM_INFO ../src/env/axi4_scoreboard.sv(219) @ 5145000: uvm_test_top.env.scb [axi4_scoreboard] [REF_MEM_WRITE] Addr=0x9e7d2058 Data=0x06
# UVM_INFO ../src/env/axi4_scoreboard.sv(219) @ 5145000: uvm_test_top.env.scb [axi4_scoreboard] [REF_MEM_WRITE] Addr=0x9e7d2059 Data=0xd5
# UVM_INFO ../src/env/axi4_scoreboard.sv(219) @ 5145000: uvm_test_top.env.scb [axi4_scoreboard] [REF_MEM_WRITE] Addr=0x9e7d205b Data=0xd6
# UVM_INFO ../src/env/axi4_scoreboard.sv(219) @ 5145000: uvm_test_top.env.scb [axi4_scoreboard] [REF_MEM_WRITE] Addr=0x9e7d205c Data=0x12
# UVM_INFO ../src/env/axi4_scoreboard.sv(219) @ 5145000: uvm_test_top.env.scb [axi4_scoreboard] [REF_MEM_WRITE] Addr=0x9e7d205d Data=0x40
# UVM_INFO ../src/env/axi4_scoreboard.sv(219) @ 5145000: uvm_test_top.env.scb [axi4_scoreboard] [REF_MEM_WRITE] Addr=0x9e7d205e Data=0xc5
# UVM_INFO ../src/env/axi4_scoreboard.sv(219) @ 5145000: uvm_test_top.env.scb [axi4_scoreboard] [REF_MEM_WRITE] Addr=0x9e7d2062 Data=0x19
# UVM_INFO ../src/env/axi4_scoreboard.sv(219) @ 5145000: uvm_test_top.env.scb [axi4_scoreboard] [REF_MEM_WRITE] Addr=0x9e7d2066 Data=0x17
# UVM_INFO ../src/env/axi4_scoreboard.sv(219) @ 5145000: uvm_test_top.env.scb [axi4_scoreboard] [REF_MEM_WRITE] Addr=0x9e7d2067 Data=0x81
# UVM_INFO ../src/env/axi4_scoreboard.sv(219) @ 5145000: uvm_test_top.env.scb [axi4_scoreboard] [REF_MEM_WRITE] Addr=0x9e7d2068 Data=0x8f
# UVM_INFO ../src/env/axi4_scoreboard.sv(219) @ 5145000: uvm_test_top.env.scb [axi4_scoreboard] [REF_MEM_WRITE] Addr=0x9e7d206c Data=0xbe
# UVM_INFO ../src/env/axi4_scoreboard.sv(219) @ 5145000: uvm_test_top.env.scb [axi4_scoreboard] [REF_MEM_WRITE] Addr=0x9e7d206e Data=0x9c
# UVM_INFO ../src/env/axi4_scoreboard.sv(219) @ 5145000: uvm_test_top.env.scb [axi4_scoreboard] [REF_MEM_WRITE] Addr=0x9e7d2070 Data=0x8d
# UVM_INFO ../src/env/axi4_scoreboard.sv(219) @ 5145000: uvm_test_top.env.scb [axi4_scoreboard] [REF_MEM_WRITE] Addr=0x9e7d2073 Data=0x98
# UVM_INFO ../src/env/axi4_scoreboard.sv(219) @ 5145000: uvm_test_top.env.scb [axi4_scoreboard] [REF_MEM_WRITE] Addr=0x9e7d2074 Data=0xe8
# UVM_INFO ../src/env/axi4_scoreboard.sv(219) @ 5145000: uvm_test_top.env.scb [axi4_scoreboard] [REF_MEM_WRITE] Addr=0x9e7d2075 Data=0xc6
# UVM_INFO ../src/env/axi4_scoreboard.sv(219) @ 5145000: uvm_test_top.env.scb [axi4_scoreboard] [REF_MEM_WRITE] Addr=0x9e7d2076 Data=0xc4
# UVM_INFO ../src/env/axi4_scoreboard.sv(219) @ 5145000: uvm_test_top.env.scb [axi4_scoreboard] [REF_MEM_WRITE] Addr=0x9e7d2078 Data=0xa2
# UVM_INFO ../src/env/axi4_scoreboard.sv(219) @ 5145000: uvm_test_top.env.scb [axi4_scoreboard] [REF_MEM_WRITE] Addr=0x9e7d207c Data=0xb4
# UVM_INFO ../src/env/axi4_scoreboard.sv(219) @ 5145000: uvm_test_top.env.scb [axi4_scoreboard] [REF_MEM_WRITE] Addr=0x9e7d207f Data=0x18
# UVM_INFO ../src/env/axi4_scoreboard.sv(219) @ 5145000: uvm_test_top.env.scb [axi4_scoreboard] [REF_MEM_WRITE] Addr=0x9e7d2080 Data=0xf0
# UVM_INFO ../src/env/axi4_scoreboard.sv(219) @ 5145000: uvm_test_top.env.scb [axi4_scoreboard] [REF_MEM_WRITE] Addr=0x9e7d2083 Data=0x77
# UVM_INFO ../src/env/axi4_scoreboard.sv(219) @ 5145000: uvm_test_top.env.scb [axi4_scoreboard] [REF_MEM_WRITE] Addr=0x9e7d2085 Data=0xc6
# UVM_INFO ../src/env/axi4_scoreboard.sv(219) @ 5145000: uvm_test_top.env.scb [axi4_scoreboard] [REF_MEM_WRITE] Addr=0x9e7d2086 Data=0x45
# UVM_INFO ../src/env/axi4_scoreboard.sv(219) @ 5145000: uvm_test_top.env.scb [axi4_scoreboard] [REF_MEM_WRITE] Addr=0x9e7d2089 Data=0x3d
# UVM_INFO ../src/env/axi4_scoreboard.sv(219) @ 5145000: uvm_test_top.env.scb [axi4_scoreboard] [REF_MEM_WRITE] Addr=0x9e7d208b Data=0x4e
# UVM_INFO ../src/env/axi4_scoreboard.sv(219) @ 5145000: uvm_test_top.env.scb [axi4_scoreboard] [REF_MEM_WRITE] Addr=0x9e7d208c Data=0xc4
# UVM_INFO ../src/env/axi4_scoreboard.sv(219) @ 5145000: uvm_test_top.env.scb [axi4_scoreboard] [REF_MEM_WRITE] Addr=0x9e7d208d Data=0x20
# UVM_INFO ../src/env/axi4_scoreboard.sv(219) @ 5145000: uvm_test_top.env.scb [axi4_scoreboard] [REF_MEM_WRITE] Addr=0x9e7d208e Data=0xf9
# UVM_INFO ../src/env/axi4_scoreboard.sv(219) @ 5145000: uvm_test_top.env.scb [axi4_scoreboard] [REF_MEM_WRITE] Addr=0x9e7d208f Data=0xd2
# UVM_INFO ../src/env/axi4_scoreboard.sv(219) @ 5145000: uvm_test_top.env.scb [axi4_scoreboard] [REF_MEM_WRITE] Addr=0x9e7d2090 Data=0xe2
# UVM_INFO ../src/env/axi4_scoreboard.sv(219) @ 5145000: uvm_test_top.env.scb [axi4_scoreboard] [REF_MEM_WRITE] Addr=0x9e7d2095 Data=0x86
# UVM_INFO ../src/env/axi4_scoreboard.sv(219) @ 5145000: uvm_test_top.env.scb [axi4_scoreboard] [REF_MEM_WRITE] Addr=0x9e7d2097 Data=0xee
# UVM_INFO ../src/env/axi4_scoreboard.sv(219) @ 5145000: uvm_test_top.env.scb [axi4_scoreboard] [REF_MEM_WRITE] Addr=0x9e7d2098 Data=0xcd
# UVM_INFO ../src/env/axi4_scoreboard.sv(219) @ 5145000: uvm_test_top.env.scb [axi4_scoreboard] [REF_MEM_WRITE] Addr=0x9e7d209b Data=0x31
# UVM_INFO ../src/env/axi4_scoreboard.sv(219) @ 5145000: uvm_test_top.env.scb [axi4_scoreboard] [REF_MEM_WRITE] Addr=0x9e7d209d Data=0xca
# UVM_INFO ../src/env/axi4_scoreboard.sv(219) @ 5145000: uvm_test_top.env.scb [axi4_scoreboard] [REF_MEM_WRITE] Addr=0x9e7d20a0 Data=0x2a
# UVM_INFO ../src/env/axi4_scoreboard.sv(219) @ 5145000: uvm_test_top.env.scb [axi4_scoreboard] [REF_MEM_WRITE] Addr=0x9e7d20a4 Data=0x33
# UVM_INFO ../src/env/axi4_scoreboard.sv(219) @ 5145000: uvm_test_top.env.scb [axi4_scoreboard] [REF_MEM_WRITE] Addr=0x9e7d20a7 Data=0xd1
# UVM_INFO ../src/env/axi4_scoreboard.sv(219) @ 5145000: uvm_test_top.env.scb [axi4_scoreboard] [REF_MEM_WRITE] Addr=0x9e7d20ae Data=0x9f
# UVM_INFO ../src/env/axi4_scoreboard.sv(219) @ 5145000: uvm_test_top.env.scb [axi4_scoreboard] [REF_MEM_WRITE] Addr=0x9e7d20b0 Data=0x45
# UVM_INFO ../src/env/axi4_scoreboard.sv(219) @ 5145000: uvm_test_top.env.scb [axi4_scoreboard] [REF_MEM_WRITE] Addr=0x9e7d20b3 Data=0xc5
# UVM_INFO ../src/env/axi4_scoreboard.sv(219) @ 5145000: uvm_test_top.env.scb [axi4_scoreboard] [REF_MEM_WRITE] Addr=0x9e7d20b7 Data=0x68
# UVM_INFO ../src/env/axi4_scoreboard.sv(219) @ 5145000: uvm_test_top.env.scb [axi4_scoreboard] [REF_MEM_WRITE] Addr=0x9e7d20b9 Data=0x50
# UVM_INFO ../src/env/axi4_scoreboard.sv(219) @ 5145000: uvm_test_top.env.scb [axi4_scoreboard] [REF_MEM_WRITE] Addr=0x9e7d20bb Data=0xd2
# UVM_INFO ../src/env/axi4_scoreboard.sv(219) @ 5145000: uvm_test_top.env.scb [axi4_scoreboard] [REF_MEM_WRITE] Addr=0x9e7d20bc Data=0x4c
# UVM_INFO ../src/env/axi4_scoreboard.sv(219) @ 5145000: uvm_test_top.env.scb [axi4_scoreboard] [REF_MEM_WRITE] Addr=0x9e7d20bd Data=0xe8
# UVM_INFO ../src/env/axi4_scoreboard.sv(219) @ 5145000: uvm_test_top.env.scb [axi4_scoreboard] [REF_MEM_WRITE] Addr=0x9e7d20be Data=0xef
# UVM_INFO ../src/env/axi4_scoreboard.sv(219) @ 5145000: uvm_test_top.env.scb [axi4_scoreboard] [REF_MEM_WRITE] Addr=0x9e7d20c0 Data=0x45
# UVM_INFO ../src/env/axi4_scoreboard.sv(219) @ 5145000: uvm_test_top.env.scb [axi4_scoreboard] [REF_MEM_WRITE] Addr=0x9e7d20c5 Data=0x78
# UVM_INFO ../src/env/axi4_scoreboard.sv(219) @ 5145000: uvm_test_top.env.scb [axi4_scoreboard] [REF_MEM_WRITE] Addr=0x9e7d20c7 Data=0xcd
# UVM_INFO ../src/env/axi4_scoreboard.sv(219) @ 5145000: uvm_test_top.env.scb [axi4_scoreboard] [REF_MEM_WRITE] Addr=0x9e7d20cc Data=0x5e
# UVM_INFO ../src/env/axi4_scoreboard.sv(219) @ 5145000: uvm_test_top.env.scb [axi4_scoreboard] [REF_MEM_WRITE] Addr=0x9e7d20cf Data=0xde
# UVM_INFO ../src/env/axi4_scoreboard.sv(219) @ 5145000: uvm_test_top.env.scb [axi4_scoreboard] [REF_MEM_WRITE] Addr=0x9e7d20d2 Data=0xa4
# UVM_INFO ../src/env/axi4_scoreboard.sv(219) @ 5145000: uvm_test_top.env.scb [axi4_scoreboard] [REF_MEM_WRITE] Addr=0x9e7d20d3 Data=0xff
# UVM_INFO ../src/env/axi4_scoreboard.sv(219) @ 5145000: uvm_test_top.env.scb [axi4_scoreboard] [REF_MEM_WRITE] Addr=0x9e7d20d7 Data=0x0d
# UVM_INFO ../src/env/axi4_scoreboard.sv(219) @ 5145000: uvm_test_top.env.scb [axi4_scoreboard] [REF_MEM_WRITE] Addr=0x9e7d20d8 Data=0x21
# UVM_INFO ../src/env/axi4_scoreboard.sv(219) @ 5145000: uvm_test_top.env.scb [axi4_scoreboard] [REF_MEM_WRITE] Addr=0x9e7d20db Data=0x9a
# UVM_INFO ../src/env/axi4_scoreboard.sv(219) @ 5145000: uvm_test_top.env.scb [axi4_scoreboard] [REF_MEM_WRITE] Addr=0x9e7d20dc Data=0x5d
# UVM_INFO ../src/env/axi4_scoreboard.sv(219) @ 5145000: uvm_test_top.env.scb [axi4_scoreboard] [REF_MEM_WRITE] Addr=0x9e7d20e1 Data=0x85
# UVM_INFO ../src/env/axi4_scoreboard.sv(219) @ 5145000: uvm_test_top.env.scb [axi4_scoreboard] [REF_MEM_WRITE] Addr=0x9e7d20e2 Data=0x3f
# UVM_INFO ../src/env/axi4_scoreboard.sv(219) @ 5145000: uvm_test_top.env.scb [axi4_scoreboard] [REF_MEM_WRITE] Addr=0x9e7d20e4 Data=0x06
# UVM_INFO ../src/env/axi4_scoreboard.sv(219) @ 5145000: uvm_test_top.env.scb [axi4_scoreboard] [REF_MEM_WRITE] Addr=0x9e7d20e7 Data=0x3a
# UVM_INFO ../src/env/axi4_scoreboard.sv(219) @ 5145000: uvm_test_top.env.scb [axi4_scoreboard] [REF_MEM_WRITE] Addr=0x9e7d20e8 Data=0xc7
# UVM_INFO ../src/env/axi4_scoreboard.sv(219) @ 5145000: uvm_test_top.env.scb [axi4_scoreboard] [REF_MEM_WRITE] Addr=0x9e7d20ec Data=0x56
# UVM_INFO ../src/env/axi4_scoreboard.sv(219) @ 5145000: uvm_test_top.env.scb [axi4_scoreboard] [REF_MEM_WRITE] Addr=0x9e7d20f0 Data=0x32
# UVM_INFO ../src/env/axi4_scoreboard.sv(219) @ 5145000: uvm_test_top.env.scb [axi4_scoreboard] [REF_MEM_WRITE] Addr=0x9e7d20f1 Data=0x0e
# UVM_INFO ../src/env/axi4_scoreboard.sv(219) @ 5145000: uvm_test_top.env.scb [axi4_scoreboard] [REF_MEM_WRITE] Addr=0x9e7d20f2 Data=0x72
# UVM_INFO ../src/env/axi4_scoreboard.sv(219) @ 5145000: uvm_test_top.env.scb [axi4_scoreboard] [REF_MEM_WRITE] Addr=0x9e7d20f3 Data=0x7d
# UVM_INFO ../src/env/axi4_scoreboard.sv(219) @ 5145000: uvm_test_top.env.scb [axi4_scoreboard] [REF_MEM_WRITE] Addr=0x9e7d20f4 Data=0x42
# UVM_INFO ../src/env/axi4_scoreboard.sv(219) @ 5145000: uvm_test_top.env.scb [axi4_scoreboard] [REF_MEM_WRITE] Addr=0x9e7d20f6 Data=0x42
# UVM_INFO ../src/env/axi4_scoreboard.sv(219) @ 5145000: uvm_test_top.env.scb [axi4_scoreboard] [REF_MEM_WRITE] Addr=0x9e7d20f8 Data=0x30
# UVM_INFO ../src/env/axi4_scoreboard.sv(219) @ 5145000: uvm_test_top.env.scb [axi4_scoreboard] [REF_MEM_WRITE] Addr=0x9e7d20fe Data=0x78
# UVM_INFO ../src/env/axi4_scoreboard.sv(219) @ 5145000: uvm_test_top.env.scb [axi4_scoreboard] [REF_MEM_WRITE] Addr=0x9e7d2104 Data=0xbb
# UVM_INFO ../src/env/axi4_scoreboard.sv(219) @ 5145000: uvm_test_top.env.scb [axi4_scoreboard] [REF_MEM_WRITE] Addr=0x9e7d2105 Data=0x6b
# UVM_INFO ../src/env/axi4_scoreboard.sv(219) @ 5145000: uvm_test_top.env.scb [axi4_scoreboard] [REF_MEM_WRITE] Addr=0x9e7d2106 Data=0x7b
# UVM_INFO ../src/env/axi4_scoreboard.sv(219) @ 5145000: uvm_test_top.env.scb [axi4_scoreboard] [REF_MEM_WRITE] Addr=0x9e7d2107 Data=0xc0
# UVM_INFO ../src/env/axi4_scoreboard.sv(219) @ 5145000: uvm_test_top.env.scb [axi4_scoreboard] [REF_MEM_WRITE] Addr=0x9e7d2108 Data=0x23
# UVM_INFO ../src/env/axi4_scoreboard.sv(219) @ 5145000: uvm_test_top.env.scb [axi4_scoreboard] [REF_MEM_WRITE] Addr=0x9e7d210c Data=0xa7
# UVM_INFO ../src/env/axi4_scoreboard.sv(219) @ 5145000: uvm_test_top.env.scb [axi4_scoreboard] [REF_MEM_WRITE] Addr=0x9e7d210d Data=0xb9
# UVM_INFO ../src/env/axi4_scoreboard.sv(219) @ 5145000: uvm_test_top.env.scb [axi4_scoreboard] [REF_MEM_WRITE] Addr=0x9e7d210e Data=0x2c
# UVM_INFO ../src/env/axi4_scoreboard.sv(219) @ 5145000: uvm_test_top.env.scb [axi4_scoreboard] [REF_MEM_WRITE] Addr=0x9e7d210f Data=0x8c
# UVM_INFO ../src/env/axi4_scoreboard.sv(219) @ 5145000: uvm_test_top.env.scb [axi4_scoreboard] [REF_MEM_WRITE] Addr=0x9e7d2110 Data=0x4b
# UVM_INFO ../src/env/axi4_scoreboard.sv(219) @ 5145000: uvm_test_top.env.scb [axi4_scoreboard] [REF_MEM_WRITE] Addr=0x9e7d2117 Data=0x0c
# UVM_INFO ../src/env/axi4_scoreboard.sv(219) @ 5145000: uvm_test_top.env.scb [axi4_scoreboard] [REF_MEM_WRITE] Addr=0x9e7d2119 Data=0x5c
# UVM_INFO ../src/env/axi4_scoreboard.sv(219) @ 5145000: uvm_test_top.env.scb [axi4_scoreboard] [REF_MEM_WRITE] Addr=0x9e7d211a Data=0x6a
# UVM_INFO ../src/env/axi4_scoreboard.sv(219) @ 5145000: uvm_test_top.env.scb [axi4_scoreboard] [REF_MEM_WRITE] Addr=0x9e7d211f Data=0x84
# UVM_INFO ../src/env/axi4_scoreboard.sv(219) @ 5145000: uvm_test_top.env.scb [axi4_scoreboard] [REF_MEM_WRITE] Addr=0x9e7d2121 Data=0xf0
# UVM_INFO ../src/env/axi4_scoreboard.sv(219) @ 5145000: uvm_test_top.env.scb [axi4_scoreboard] [REF_MEM_WRITE] Addr=0x9e7d2122 Data=0xb6
# UVM_INFO ../src/env/axi4_scoreboard.sv(219) @ 5145000: uvm_test_top.env.scb [axi4_scoreboard] [REF_MEM_WRITE] Addr=0x9e7d2124 Data=0x7b
# UVM_INFO ../src/env/axi4_scoreboard.sv(219) @ 5145000: uvm_test_top.env.scb [axi4_scoreboard] [REF_MEM_WRITE] Addr=0x9e7d2126 Data=0x9b
# UVM_INFO ../src/env/axi4_scoreboard.sv(219) @ 5145000: uvm_test_top.env.scb [axi4_scoreboard] [REF_MEM_WRITE] Addr=0x9e7d2129 Data=0xee
# UVM_INFO ../src/env/axi4_scoreboard.sv(219) @ 5145000: uvm_test_top.env.scb [axi4_scoreboard] [REF_MEM_WRITE] Addr=0x9e7d212b Data=0x7b
# UVM_INFO ../src/env/axi4_scoreboard.sv(219) @ 5145000: uvm_test_top.env.scb [axi4_scoreboard] [REF_MEM_WRITE] Addr=0x9e7d212d Data=0x6a
# UVM_INFO ../src/env/axi4_scoreboard.sv(219) @ 5145000: uvm_test_top.env.scb [axi4_scoreboard] [REF_MEM_WRITE] Addr=0x9e7d212e Data=0x90
# UVM_INFO ../src/env/axi4_scoreboard.sv(219) @ 5145000: uvm_test_top.env.scb [axi4_scoreboard] [REF_MEM_WRITE] Addr=0x9e7d212f Data=0x8d
# UVM_INFO ../src/env/axi4_scoreboard.sv(219) @ 5145000: uvm_test_top.env.scb [axi4_scoreboard] [REF_MEM_WRITE] Addr=0x9e7d2134 Data=0xdf
# UVM_INFO ../src/env/axi4_scoreboard.sv(219) @ 5145000: uvm_test_top.env.scb [axi4_scoreboard] [REF_MEM_WRITE] Addr=0x9e7d2135 Data=0xed
# UVM_INFO ../src/env/axi4_scoreboard.sv(219) @ 5145000: uvm_test_top.env.scb [axi4_scoreboard] [REF_MEM_WRITE] Addr=0x9e7d2138 Data=0xb7
# UVM_INFO ../src/env/axi4_scoreboard.sv(219) @ 5145000: uvm_test_top.env.scb [axi4_scoreboard] [REF_MEM_WRITE] Addr=0x9e7d2139 Data=0x5a
# UVM_INFO ../src/env/axi4_scoreboard.sv(219) @ 5145000: uvm_test_top.env.scb [axi4_scoreboard] [REF_MEM_WRITE] Addr=0x9e7d213a Data=0x5a
# UVM_INFO ../src/env/axi4_scoreboard.sv(219) @ 5145000: uvm_test_top.env.scb [axi4_scoreboard] [REF_MEM_WRITE] Addr=0x9e7d213d Data=0xf7
# UVM_INFO ../src/env/axi4_scoreboard.sv(219) @ 5145000: uvm_test_top.env.scb [axi4_scoreboard] [REF_MEM_WRITE] Addr=0x9e7d213e Data=0xe6
# UVM_INFO ../src/env/axi4_scoreboard.sv(219) @ 5145000: uvm_test_top.env.scb [axi4_scoreboard] [REF_MEM_WRITE] Addr=0x9e7d213f Data=0xf9
# UVM_INFO ../src/env/axi4_scoreboard.sv(219) @ 5145000: uvm_test_top.env.scb [axi4_scoreboard] [REF_MEM_WRITE] Addr=0x9e7d2142 Data=0xa1
# UVM_INFO ../src/env/axi4_scoreboard.sv(219) @ 5145000: uvm_test_top.env.scb [axi4_scoreboard] [REF_MEM_WRITE] Addr=0x9e7d2143 Data=0x6a
# UVM_INFO ../src/env/axi4_scoreboard.sv(219) @ 5145000: uvm_test_top.env.scb [axi4_scoreboard] [REF_MEM_WRITE] Addr=0x9e7d2146 Data=0xe8
# UVM_INFO ../src/env/axi4_scoreboard.sv(219) @ 5145000: uvm_test_top.env.scb [axi4_scoreboard] [REF_MEM_WRITE] Addr=0x9e7d2147 Data=0xfe
# UVM_INFO ../src/env/axi4_scoreboard.sv(219) @ 5145000: uvm_test_top.env.scb [axi4_scoreboard] [REF_MEM_WRITE] Addr=0x9e7d214b Data=0x7a
# UVM_INFO ../src/env/axi4_scoreboard.sv(219) @ 5145000: uvm_test_top.env.scb [axi4_scoreboard] [REF_MEM_WRITE] Addr=0x9e7d214d Data=0xb6
# UVM_INFO ../src/env/axi4_scoreboard.sv(219) @ 5145000: uvm_test_top.env.scb [axi4_scoreboard] [REF_MEM_WRITE] Addr=0x9e7d2155 Data=0x4c
# UVM_INFO ../src/env/axi4_scoreboard.sv(219) @ 5145000: uvm_test_top.env.scb [axi4_scoreboard] [REF_MEM_WRITE] Addr=0x9e7d2156 Data=0xf9
# UVM_INFO ../src/env/axi4_scoreboard.sv(219) @ 5145000: uvm_test_top.env.scb [axi4_scoreboard] [REF_MEM_WRITE] Addr=0x9e7d2157 Data=0xad
# UVM_INFO ../src/env/axi4_scoreboard.sv(219) @ 5145000: uvm_test_top.env.scb [axi4_scoreboard] [REF_MEM_WRITE] Addr=0x9e7d2158 Data=0x67
# UVM_INFO ../src/env/axi4_scoreboard.sv(219) @ 5145000: uvm_test_top.env.scb [axi4_scoreboard] [REF_MEM_WRITE] Addr=0x9e7d2159 Data=0x25
# UVM_INFO ../src/env/axi4_scoreboard.sv(219) @ 5145000: uvm_test_top.env.scb [axi4_scoreboard] [REF_MEM_WRITE] Addr=0x9e7d215b Data=0xe0
# UVM_INFO ../src/env/axi4_scoreboard.sv(219) @ 5145000: uvm_test_top.env.scb [axi4_scoreboard] [REF_MEM_WRITE] Addr=0x9e7d215e Data=0x71
# UVM_INFO ../src/env/axi4_scoreboard.sv(219) @ 5145000: uvm_test_top.env.scb [axi4_scoreboard] [REF_MEM_WRITE] Addr=0x9e7d2160 Data=0xd0
# UVM_INFO ../src/env/axi4_scoreboard.sv(219) @ 5145000: uvm_test_top.env.scb [axi4_scoreboard] [REF_MEM_WRITE] Addr=0x9e7d2161 Data=0xd8
# UVM_INFO ../src/env/axi4_scoreboard.sv(219) @ 5145000: uvm_test_top.env.scb [axi4_scoreboard] [REF_MEM_WRITE] Addr=0x9e7d2163 Data=0x8e
# UVM_INFO ../src/env/axi4_scoreboard.sv(219) @ 5145000: uvm_test_top.env.scb [axi4_scoreboard] [REF_MEM_WRITE] Addr=0x9e7d2164 Data=0x73
# UVM_INFO ../src/env/axi4_scoreboard.sv(219) @ 5145000: uvm_test_top.env.scb [axi4_scoreboard] [REF_MEM_WRITE] Addr=0x9e7d2165 Data=0x3d
# UVM_INFO ../src/env/axi4_scoreboard.sv(219) @ 5145000: uvm_test_top.env.scb [axi4_scoreboard] [REF_MEM_WRITE] Addr=0x9e7d2166 Data=0x90
# UVM_INFO ../src/env/axi4_scoreboard.sv(219) @ 5145000: uvm_test_top.env.scb [axi4_scoreboard] [REF_MEM_WRITE] Addr=0x9e7d2167 Data=0xb5
# UVM_INFO ../src/env/axi4_scoreboard.sv(219) @ 5145000: uvm_test_top.env.scb [axi4_scoreboard] [REF_MEM_WRITE] Addr=0x9e7d216a Data=0xba
# UVM_INFO ../src/env/axi4_scoreboard.sv(219) @ 5145000: uvm_test_top.env.scb [axi4_scoreboard] [REF_MEM_WRITE] Addr=0x9e7d216e Data=0x8a
# UVM_INFO ../src/env/axi4_scoreboard.sv(219) @ 5145000: uvm_test_top.env.scb [axi4_scoreboard] [REF_MEM_WRITE] Addr=0x9e7d2170 Data=0x72
# UVM_INFO ../src/env/axi4_scoreboard.sv(219) @ 5145000: uvm_test_top.env.scb [axi4_scoreboard] [REF_MEM_WRITE] Addr=0x9e7d2172 Data=0x82
# UVM_INFO ../src/env/axi4_scoreboard.sv(219) @ 5145000: uvm_test_top.env.scb [axi4_scoreboard] [REF_MEM_WRITE] Addr=0x9e7d2173 Data=0x59
# UVM_INFO ../src/env/axi4_scoreboard.sv(219) @ 5145000: uvm_test_top.env.scb [axi4_scoreboard] [REF_MEM_WRITE] Addr=0x9e7d2174 Data=0x5b
# UVM_INFO ../src/env/axi4_scoreboard.sv(219) @ 5145000: uvm_test_top.env.scb [axi4_scoreboard] [REF_MEM_WRITE] Addr=0x9e7d2175 Data=0x83
# UVM_INFO ../src/env/axi4_scoreboard.sv(219) @ 5145000: uvm_test_top.env.scb [axi4_scoreboard] [REF_MEM_WRITE] Addr=0x9e7d2177 Data=0x2b
# UVM_INFO ../src/env/axi4_scoreboard.sv(219) @ 5145000: uvm_test_top.env.scb [axi4_scoreboard] [REF_MEM_WRITE] Addr=0x9e7d2178 Data=0xfc
# UVM_INFO ../src/env/axi4_scoreboard.sv(219) @ 5145000: uvm_test_top.env.scb [axi4_scoreboard] [REF_MEM_WRITE] Addr=0x9e7d2179 Data=0xe4
# UVM_INFO ../src/env/axi4_scoreboard.sv(219) @ 5145000: uvm_test_top.env.scb [axi4_scoreboard] [REF_MEM_WRITE] Addr=0x9e7d217a Data=0x76
# UVM_INFO ../src/env/axi4_scoreboard.sv(219) @ 5145000: uvm_test_top.env.scb [axi4_scoreboard] [REF_MEM_WRITE] Addr=0x9e7d217b Data=0x9d
# UVM_INFO ../src/env/axi4_scoreboard.sv(219) @ 5145000: uvm_test_top.env.scb [axi4_scoreboard] [REF_MEM_WRITE] Addr=0x9e7d217c Data=0x22
# UVM_INFO ../src/env/axi4_scoreboard.sv(219) @ 5145000: uvm_test_top.env.scb [axi4_scoreboard] [REF_MEM_WRITE] Addr=0x9e7d217e Data=0xca
# UVM_INFO ../src/env/axi4_scoreboard.sv(219) @ 5145000: uvm_test_top.env.scb [axi4_scoreboard] [REF_MEM_WRITE] Addr=0x9e7d217f Data=0x15
# UVM_INFO ../src/env/axi4_scoreboard.sv(219) @ 5145000: uvm_test_top.env.scb [axi4_scoreboard] [REF_MEM_WRITE] Addr=0x9e7d2183 Data=0xf4
# UVM_INFO ../src/env/axi4_scoreboard.sv(219) @ 5145000: uvm_test_top.env.scb [axi4_scoreboard] [REF_MEM_WRITE] Addr=0x9e7d2186 Data=0xc3
# UVM_INFO ../src/env/axi4_scoreboard.sv(219) @ 5145000: uvm_test_top.env.scb [axi4_scoreboard] [REF_MEM_WRITE] Addr=0x9e7d2189 Data=0xe2
# UVM_INFO ../src/env/axi4_scoreboard.sv(219) @ 5145000: uvm_test_top.env.scb [axi4_scoreboard] [REF_MEM_WRITE] Addr=0x9e7d218b Data=0x51
# UVM_INFO ../src/env/axi4_scoreboard.sv(219) @ 5145000: uvm_test_top.env.scb [axi4_scoreboard] [REF_MEM_WRITE] Addr=0x9e7d218f Data=0xc6
# UVM_INFO ../src/env/axi4_scoreboard.sv(219) @ 5145000: uvm_test_top.env.scb [axi4_scoreboard] [REF_MEM_WRITE] Addr=0x9e7d2190 Data=0x09
# UVM_INFO ../src/env/axi4_scoreboard.sv(219) @ 5145000: uvm_test_top.env.scb [axi4_scoreboard] [REF_MEM_WRITE] Addr=0x9e7d2191 Data=0x2d
# UVM_INFO ../src/env/axi4_scoreboard.sv(219) @ 5145000: uvm_test_top.env.scb [axi4_scoreboard] [REF_MEM_WRITE] Addr=0x9e7d2193 Data=0x77
# UVM_INFO ../src/env/axi4_scoreboard.sv(219) @ 5145000: uvm_test_top.env.scb [axi4_scoreboard] [REF_MEM_WRITE] Addr=0x9e7d2194 Data=0x4c
# UVM_INFO ../src/env/axi4_scoreboard.sv(219) @ 5145000: uvm_test_top.env.scb [axi4_scoreboard] [REF_MEM_WRITE] Addr=0x9e7d2196 Data=0xfa
# UVM_INFO ../src/env/axi4_scoreboard.sv(219) @ 5145000: uvm_test_top.env.scb [axi4_scoreboard] [REF_MEM_WRITE] Addr=0x9e7d2198 Data=0x07
# UVM_INFO ../src/env/axi4_scoreboard.sv(219) @ 5145000: uvm_test_top.env.scb [axi4_scoreboard] [REF_MEM_WRITE] Addr=0x9e7d2199 Data=0x90
# UVM_INFO ../src/env/axi4_scoreboard.sv(219) @ 5145000: uvm_test_top.env.scb [axi4_scoreboard] [REF_MEM_WRITE] Addr=0x9e7d219b Data=0x0c
# UVM_INFO ../src/env/axi4_scoreboard.sv(219) @ 5145000: uvm_test_top.env.scb [axi4_scoreboard] [REF_MEM_WRITE] Addr=0x9e7d219c Data=0xad
# UVM_INFO ../src/env/axi4_scoreboard.sv(219) @ 5145000: uvm_test_top.env.scb [axi4_scoreboard] [REF_MEM_WRITE] Addr=0x9e7d219d Data=0x6f
# UVM_INFO ../src/env/axi4_scoreboard.sv(219) @ 5145000: uvm_test_top.env.scb [axi4_scoreboard] [REF_MEM_WRITE] Addr=0x9e7d219e Data=0x3c
# UVM_INFO ../src/env/axi4_scoreboard.sv(219) @ 5145000: uvm_test_top.env.scb [axi4_scoreboard] [REF_MEM_WRITE] Addr=0x9e7d21a1 Data=0xd2
# UVM_INFO ../src/env/axi4_scoreboard.sv(219) @ 5145000: uvm_test_top.env.scb [axi4_scoreboard] [REF_MEM_WRITE] Addr=0x9e7d21a2 Data=0xe1
# UVM_INFO ../src/env/axi4_scoreboard.sv(219) @ 5145000: uvm_test_top.env.scb [axi4_scoreboard] [REF_MEM_WRITE] Addr=0x9e7d21a4 Data=0x2f
# UVM_INFO ../src/env/axi4_scoreboard.sv(219) @ 5145000: uvm_test_top.env.scb [axi4_scoreboard] [REF_MEM_WRITE] Addr=0x9e7d21a5 Data=0xaf
# UVM_INFO ../src/env/axi4_scoreboard.sv(219) @ 5145000: uvm_test_top.env.scb [axi4_scoreboard] [REF_MEM_WRITE] Addr=0x9e7d21a8 Data=0x72
# UVM_INFO ../src/env/axi4_scoreboard.sv(219) @ 5145000: uvm_test_top.env.scb [axi4_scoreboard] [REF_MEM_WRITE] Addr=0x9e7d21a9 Data=0x7f
# UVM_INFO ../src/env/axi4_scoreboard.sv(219) @ 5145000: uvm_test_top.env.scb [axi4_scoreboard] [REF_MEM_WRITE] Addr=0x9e7d21ab Data=0x0e
# UVM_INFO ../src/env/axi4_scoreboard.sv(219) @ 5145000: uvm_test_top.env.scb [axi4_scoreboard] [REF_MEM_WRITE] Addr=0x9e7d21ad Data=0x5a
# UVM_INFO ../src/env/axi4_scoreboard.sv(219) @ 5145000: uvm_test_top.env.scb [axi4_scoreboard] [REF_MEM_WRITE] Addr=0x9e7d21af Data=0x45
# UVM_INFO ../src/env/axi4_scoreboard.sv(219) @ 5145000: uvm_test_top.env.scb [axi4_scoreboard] [REF_MEM_WRITE] Addr=0x9e7d21b0 Data=0x4d
# UVM_INFO ../src/env/axi4_scoreboard.sv(219) @ 5145000: uvm_test_top.env.scb [axi4_scoreboard] [REF_MEM_WRITE] Addr=0x9e7d21b1 Data=0x50
# UVM_INFO ../src/env/axi4_scoreboard.sv(219) @ 5145000: uvm_test_top.env.scb [axi4_scoreboard] [REF_MEM_WRITE] Addr=0x9e7d21b3 Data=0x9a
# UVM_INFO ../src/env/axi4_scoreboard.sv(219) @ 5145000: uvm_test_top.env.scb [axi4_scoreboard] [REF_MEM_WRITE] Addr=0x9e7d21b5 Data=0x50
# UVM_INFO ../src/env/axi4_scoreboard.sv(219) @ 5145000: uvm_test_top.env.scb [axi4_scoreboard] [REF_MEM_WRITE] Addr=0x9e7d21b8 Data=0xde
# UVM_INFO ../src/env/axi4_scoreboard.sv(219) @ 5145000: uvm_test_top.env.scb [axi4_scoreboard] [REF_MEM_WRITE] Addr=0x9e7d21bb Data=0x1c
# UVM_INFO ../src/env/axi4_scoreboard.sv(219) @ 5145000: uvm_test_top.env.scb [axi4_scoreboard] [REF_MEM_WRITE] Addr=0x9e7d21bd Data=0x37
# UVM_INFO ../src/env/axi4_scoreboard.sv(219) @ 5145000: uvm_test_top.env.scb [axi4_scoreboard] [REF_MEM_WRITE] Addr=0x9e7d21be Data=0x67
# UVM_INFO ../src/env/axi4_scoreboard.sv(219) @ 5145000: uvm_test_top.env.scb [axi4_scoreboard] [REF_MEM_WRITE] Addr=0x9e7d21bf Data=0xcb
# UVM_INFO ../src/env/axi4_scoreboard.sv(219) @ 5145000: uvm_test_top.env.scb [axi4_scoreboard] [REF_MEM_WRITE] Addr=0x9e7d21c0 Data=0x10
# UVM_INFO ../src/env/axi4_scoreboard.sv(219) @ 5145000: uvm_test_top.env.scb [axi4_scoreboard] [REF_MEM_WRITE] Addr=0x9e7d21c3 Data=0xc5
# UVM_INFO ../src/env/axi4_scoreboard.sv(219) @ 5145000: uvm_test_top.env.scb [axi4_scoreboard] [REF_MEM_WRITE] Addr=0x9e7d21c4 Data=0x0a
# UVM_INFO ../src/env/axi4_scoreboard.sv(219) @ 5145000: uvm_test_top.env.scb [axi4_scoreboard] [REF_MEM_WRITE] Addr=0x9e7d21c9 Data=0x6c
# UVM_INFO ../src/env/axi4_scoreboard.sv(219) @ 5145000: uvm_test_top.env.scb [axi4_scoreboard] [REF_MEM_WRITE] Addr=0x9e7d21ca Data=0x2e
# UVM_INFO ../src/env/axi4_scoreboard.sv(219) @ 5145000: uvm_test_top.env.scb [axi4_scoreboard] [REF_MEM_WRITE] Addr=0x9e7d21cc Data=0x83
# UVM_INFO ../src/env/axi4_scoreboard.sv(219) @ 5145000: uvm_test_top.env.scb [axi4_scoreboard] [REF_MEM_WRITE] Addr=0x9e7d21ce Data=0x13
# UVM_INFO ../src/env/axi4_scoreboard.sv(219) @ 5145000: uvm_test_top.env.scb [axi4_scoreboard] [REF_MEM_WRITE] Addr=0x9e7d21d0 Data=0x2f
# UVM_INFO ../src/env/axi4_scoreboard.sv(219) @ 5145000: uvm_test_top.env.scb [axi4_scoreboard] [REF_MEM_WRITE] Addr=0x9e7d21d1 Data=0xfe
# UVM_INFO ../src/env/axi4_scoreboard.sv(219) @ 5145000: uvm_test_top.env.scb [axi4_scoreboard] [REF_MEM_WRITE] Addr=0x9e7d21d2 Data=0x2e
# UVM_INFO ../src/env/axi4_scoreboard.sv(219) @ 5145000: uvm_test_top.env.scb [axi4_scoreboard] [REF_MEM_WRITE] Addr=0x9e7d21d4 Data=0x16
# UVM_INFO ../src/env/axi4_scoreboard.sv(219) @ 5145000: uvm_test_top.env.scb [axi4_scoreboard] [REF_MEM_WRITE] Addr=0x9e7d21d7 Data=0x99
# UVM_INFO ../src/env/axi4_scoreboard.sv(219) @ 5145000: uvm_test_top.env.scb [axi4_scoreboard] [REF_MEM_WRITE] Addr=0x9e7d21d8 Data=0x94
# UVM_INFO ../src/env/axi4_scoreboard.sv(219) @ 5145000: uvm_test_top.env.scb [axi4_scoreboard] [REF_MEM_WRITE] Addr=0x9e7d21da Data=0x19
# UVM_INFO ../src/env/axi4_scoreboard.sv(219) @ 5145000: uvm_test_top.env.scb [axi4_scoreboard] [REF_MEM_WRITE] Addr=0x9e7d21dd Data=0xfd
# UVM_INFO ../src/env/axi4_scoreboard.sv(219) @ 5145000: uvm_test_top.env.scb [axi4_scoreboard] [REF_MEM_WRITE] Addr=0x9e7d21e0 Data=0xb2
# UVM_INFO ../src/env/axi4_scoreboard.sv(219) @ 5145000: uvm_test_top.env.scb [axi4_scoreboard] [REF_MEM_WRITE] Addr=0x9e7d21e1 Data=0x06
# UVM_INFO ../src/env/axi4_scoreboard.sv(219) @ 5145000: uvm_test_top.env.scb [axi4_scoreboard] [REF_MEM_WRITE] Addr=0x9e7d21e2 Data=0x9b
# UVM_INFO ../src/env/axi4_scoreboard.sv(219) @ 5145000: uvm_test_top.env.scb [axi4_scoreboard] [REF_MEM_WRITE] Addr=0x9e7d21e4 Data=0x1f
# UVM_INFO ../src/env/axi4_scoreboard.sv(219) @ 5145000: uvm_test_top.env.scb [axi4_scoreboard] [REF_MEM_WRITE] Addr=0x9e7d21e8 Data=0xb1
# UVM_INFO ../src/env/axi4_scoreboard.sv(219) @ 5145000: uvm_test_top.env.scb [axi4_scoreboard] [REF_MEM_WRITE] Addr=0x9e7d21ea Data=0x09
# UVM_INFO ../src/env/axi4_scoreboard.sv(219) @ 5145000: uvm_test_top.env.scb [axi4_scoreboard] [REF_MEM_WRITE] Addr=0x9e7d21ed Data=0xca
# UVM_INFO ../src/env/axi4_scoreboard.sv(219) @ 5145000: uvm_test_top.env.scb [axi4_scoreboard] [REF_MEM_WRITE] Addr=0x9e7d21ef Data=0x7e
# UVM_INFO ../src/env/axi4_scoreboard.sv(219) @ 5145000: uvm_test_top.env.scb [axi4_scoreboard] [REF_MEM_WRITE] Addr=0x9e7d21f0 Data=0x0e
# UVM_INFO ../src/env/axi4_scoreboard.sv(219) @ 5145000: uvm_test_top.env.scb [axi4_scoreboard] [REF_MEM_WRITE] Addr=0x9e7d21f1 Data=0x8c
# UVM_INFO ../src/env/axi4_scoreboard.sv(219) @ 5145000: uvm_test_top.env.scb [axi4_scoreboard] [REF_MEM_WRITE] Addr=0x9e7d21f2 Data=0x33
# UVM_INFO ../src/env/axi4_scoreboard.sv(219) @ 5145000: uvm_test_top.env.scb [axi4_scoreboard] [REF_MEM_WRITE] Addr=0x9e7d21f3 Data=0x9b
# UVM_INFO ../src/env/axi4_scoreboard.sv(219) @ 5145000: uvm_test_top.env.scb [axi4_scoreboard] [REF_MEM_WRITE] Addr=0x9e7d21f4 Data=0x53
# UVM_INFO ../src/env/axi4_scoreboard.sv(219) @ 5145000: uvm_test_top.env.scb [axi4_scoreboard] [REF_MEM_WRITE] Addr=0x9e7d21f5 Data=0xf5
# UVM_INFO ../src/env/axi4_scoreboard.sv(219) @ 5145000: uvm_test_top.env.scb [axi4_scoreboard] [REF_MEM_WRITE] Addr=0x9e7d21f6 Data=0x3a
# UVM_INFO ../src/env/axi4_scoreboard.sv(219) @ 5145000: uvm_test_top.env.scb [axi4_scoreboard] [REF_MEM_WRITE] Addr=0x9e7d21f7 Data=0x29
# UVM_INFO ../src/env/axi4_scoreboard.sv(219) @ 5145000: uvm_test_top.env.scb [axi4_scoreboard] [REF_MEM_WRITE] Addr=0x9e7d21f8 Data=0xf3
# UVM_INFO ../src/env/axi4_scoreboard.sv(219) @ 5145000: uvm_test_top.env.scb [axi4_scoreboard] [REF_MEM_WRITE] Addr=0x9e7d21f9 Data=0x97
# UVM_INFO ../src/env/axi4_scoreboard.sv(219) @ 5145000: uvm_test_top.env.scb [axi4_scoreboard] [REF_MEM_WRITE] Addr=0x9e7d21fb Data=0x40
# UVM_INFO ../src/env/axi4_scoreboard.sv(219) @ 5145000: uvm_test_top.env.scb [axi4_scoreboard] [REF_MEM_WRITE] Addr=0x9e7d21fe Data=0xae
# UVM_INFO ../src/env/axi4_scoreboard.sv(219) @ 5145000: uvm_test_top.env.scb [axi4_scoreboard] [REF_MEM_WRITE] Addr=0x9e7d2203 Data=0xaa
# UVM_INFO ../src/env/axi4_scoreboard.sv(219) @ 5145000: uvm_test_top.env.scb [axi4_scoreboard] [REF_MEM_WRITE] Addr=0x9e7d2207 Data=0x06
# UVM_INFO ../src/env/axi4_scoreboard.sv(219) @ 5145000: uvm_test_top.env.scb [axi4_scoreboard] [REF_MEM_WRITE] Addr=0x9e7d2209 Data=0xe9
# UVM_INFO ../src/env/axi4_scoreboard.sv(219) @ 5145000: uvm_test_top.env.scb [axi4_scoreboard] [REF_MEM_WRITE] Addr=0x9e7d220a Data=0x9c
# UVM_INFO ../src/env/axi4_scoreboard.sv(219) @ 5145000: uvm_test_top.env.scb [axi4_scoreboard] [REF_MEM_WRITE] Addr=0x9e7d220b Data=0xa7
# UVM_INFO ../src/env/axi4_scoreboard.sv(219) @ 5145000: uvm_test_top.env.scb [axi4_scoreboard] [REF_MEM_WRITE] Addr=0x9e7d220c Data=0x5f
# UVM_INFO ../src/env/axi4_scoreboard.sv(219) @ 5145000: uvm_test_top.env.scb [axi4_scoreboard] [REF_MEM_WRITE] Addr=0x9e7d2210 Data=0x68
# UVM_INFO ../src/env/axi4_scoreboard.sv(219) @ 5145000: uvm_test_top.env.scb [axi4_scoreboard] [REF_MEM_WRITE] Addr=0x9e7d2211 Data=0x66
# UVM_INFO ../src/env/axi4_scoreboard.sv(219) @ 5145000: uvm_test_top.env.scb [axi4_scoreboard] [REF_MEM_WRITE] Addr=0x9e7d2214 Data=0x26
# UVM_INFO ../src/env/axi4_scoreboard.sv(219) @ 5145000: uvm_test_top.env.scb [axi4_scoreboard] [REF_MEM_WRITE] Addr=0x9e7d2216 Data=0x1a
# UVM_INFO ../src/env/axi4_scoreboard.sv(219) @ 5145000: uvm_test_top.env.scb [axi4_scoreboard] [REF_MEM_WRITE] Addr=0x9e7d2217 Data=0xce
# UVM_INFO ../src/env/axi4_scoreboard.sv(219) @ 5145000: uvm_test_top.env.scb [axi4_scoreboard] [REF_MEM_WRITE] Addr=0x9e7d2218 Data=0x89
# UVM_INFO ../src/env/axi4_scoreboard.sv(219) @ 5145000: uvm_test_top.env.scb [axi4_scoreboard] [REF_MEM_WRITE] Addr=0x9e7d2219 Data=0x34
# UVM_INFO ../src/env/axi4_scoreboard.sv(219) @ 5145000: uvm_test_top.env.scb [axi4_scoreboard] [REF_MEM_WRITE] Addr=0x9e7d221a Data=0x1b
# UVM_INFO ../src/env/axi4_scoreboard.sv(219) @ 5145000: uvm_test_top.env.scb [axi4_scoreboard] [REF_MEM_WRITE] Addr=0x9e7d221b Data=0x69
# UVM_INFO ../src/env/axi4_scoreboard.sv(219) @ 5145000: uvm_test_top.env.scb [axi4_scoreboard] [REF_MEM_WRITE] Addr=0x9e7d221c Data=0x81
# UVM_INFO ../src/env/axi4_scoreboard.sv(219) @ 5145000: uvm_test_top.env.scb [axi4_scoreboard] [REF_MEM_WRITE] Addr=0x9e7d221d Data=0xac
# UVM_INFO ../src/env/axi4_scoreboard.sv(219) @ 5145000: uvm_test_top.env.scb [axi4_scoreboard] [REF_MEM_WRITE] Addr=0x9e7d221f Data=0x08
# UVM_INFO ../src/env/axi4_scoreboard.sv(219) @ 5145000: uvm_test_top.env.scb [axi4_scoreboard] [REF_MEM_WRITE] Addr=0x9e7d2220 Data=0xe9
# UVM_INFO ../src/env/axi4_scoreboard.sv(219) @ 5145000: uvm_test_top.env.scb [axi4_scoreboard] [REF_MEM_WRITE] Addr=0x9e7d2221 Data=0x02
# UVM_INFO ../src/env/axi4_scoreboard.sv(219) @ 5145000: uvm_test_top.env.scb [axi4_scoreboard] [REF_MEM_WRITE] Addr=0x9e7d2222 Data=0x27
# UVM_INFO ../src/env/axi4_scoreboard.sv(219) @ 5145000: uvm_test_top.env.scb [axi4_scoreboard] [REF_MEM_WRITE] Addr=0x9e7d2226 Data=0xca
# UVM_INFO ../src/env/axi4_scoreboard.sv(219) @ 5145000: uvm_test_top.env.scb [axi4_scoreboard] [REF_MEM_WRITE] Addr=0x9e7d2227 Data=0xcb
# UVM_INFO ../src/env/axi4_scoreboard.sv(219) @ 5145000: uvm_test_top.env.scb [axi4_scoreboard] [REF_MEM_WRITE] Addr=0x9e7d2228 Data=0x07
# UVM_INFO ../src/env/axi4_scoreboard.sv(219) @ 5145000: uvm_test_top.env.scb [axi4_scoreboard] [REF_MEM_WRITE] Addr=0x9e7d222a Data=0x8a
# UVM_INFO ../src/env/axi4_scoreboard.sv(219) @ 5145000: uvm_test_top.env.scb [axi4_scoreboard] [REF_MEM_WRITE] Addr=0x9e7d222b Data=0x26
# UVM_INFO ../src/env/axi4_scoreboard.sv(219) @ 5145000: uvm_test_top.env.scb [axi4_scoreboard] [REF_MEM_WRITE] Addr=0x9e7d2230 Data=0x34
# UVM_INFO ../src/env/axi4_scoreboard.sv(219) @ 5145000: uvm_test_top.env.scb [axi4_scoreboard] [REF_MEM_WRITE] Addr=0x9e7d2231 Data=0x5b
# UVM_INFO ../src/env/axi4_scoreboard.sv(219) @ 5145000: uvm_test_top.env.scb [axi4_scoreboard] [REF_MEM_WRITE] Addr=0x9e7d2232 Data=0xa5
# UVM_INFO ../src/env/axi4_scoreboard.sv(219) @ 5145000: uvm_test_top.env.scb [axi4_scoreboard] [REF_MEM_WRITE] Addr=0x9e7d2236 Data=0x11
# UVM_INFO ../src/env/axi4_scoreboard.sv(219) @ 5145000: uvm_test_top.env.scb [axi4_scoreboard] [REF_MEM_WRITE] Addr=0x9e7d2239 Data=0x16
# UVM_INFO ../src/env/axi4_scoreboard.sv(219) @ 5145000: uvm_test_top.env.scb [axi4_scoreboard] [REF_MEM_WRITE] Addr=0x9e7d223e Data=0xce
# UVM_INFO ../src/env/axi4_scoreboard.sv(219) @ 5145000: uvm_test_top.env.scb [axi4_scoreboard] [REF_MEM_WRITE] Addr=0x9e7d2242 Data=0xf3
# UVM_INFO ../src/env/axi4_scoreboard.sv(219) @ 5145000: uvm_test_top.env.scb [axi4_scoreboard] [REF_MEM_WRITE] Addr=0x9e7d2243 Data=0xf4
# UVM_INFO ../src/env/axi4_scoreboard.sv(219) @ 5145000: uvm_test_top.env.scb [axi4_scoreboard] [REF_MEM_WRITE] Addr=0x9e7d2244 Data=0x60
# UVM_INFO ../src/env/axi4_scoreboard.sv(219) @ 5145000: uvm_test_top.env.scb [axi4_scoreboard] [REF_MEM_WRITE] Addr=0x9e7d2247 Data=0x3b
# UVM_INFO ../src/env/axi4_scoreboard.sv(219) @ 5145000: uvm_test_top.env.scb [axi4_scoreboard] [REF_MEM_WRITE] Addr=0x9e7d2248 Data=0x2b
# UVM_INFO ../src/env/axi4_scoreboard.sv(219) @ 5145000: uvm_test_top.env.scb [axi4_scoreboard] [REF_MEM_WRITE] Addr=0x9e7d2249 Data=0x4a
# UVM_INFO ../src/env/axi4_scoreboard.sv(219) @ 5145000: uvm_test_top.env.scb [axi4_scoreboard] [REF_MEM_WRITE] Addr=0x9e7d224c Data=0x5c
# UVM_INFO ../src/env/axi4_scoreboard.sv(219) @ 5145000: uvm_test_top.env.scb [axi4_scoreboard] [REF_MEM_WRITE] Addr=0x9e7d2250 Data=0xd1
# UVM_INFO ../src/env/axi4_scoreboard.sv(219) @ 5145000: uvm_test_top.env.scb [axi4_scoreboard] [REF_MEM_WRITE] Addr=0x9e7d2251 Data=0x4f
# UVM_INFO ../src/env/axi4_scoreboard.sv(219) @ 5145000: uvm_test_top.env.scb [axi4_scoreboard] [REF_MEM_WRITE] Addr=0x9e7d2253 Data=0xfa
# UVM_INFO ../src/env/axi4_scoreboard.sv(219) @ 5145000: uvm_test_top.env.scb [axi4_scoreboard] [REF_MEM_WRITE] Addr=0x9e7d2255 Data=0xaa
# UVM_INFO ../src/env/axi4_scoreboard.sv(219) @ 5145000: uvm_test_top.env.scb [axi4_scoreboard] [REF_MEM_WRITE] Addr=0x9e7d2256 Data=0xf4
# UVM_INFO ../src/env/axi4_scoreboard.sv(219) @ 5145000: uvm_test_top.env.scb [axi4_scoreboard] [REF_MEM_WRITE] Addr=0x9e7d225a Data=0xd4
# UVM_INFO ../src/env/axi4_scoreboard.sv(219) @ 5145000: uvm_test_top.env.scb [axi4_scoreboard] [REF_MEM_WRITE] Addr=0x9e7d225b Data=0x47
# UVM_INFO ../src/env/axi4_scoreboard.sv(219) @ 5145000: uvm_test_top.env.scb [axi4_scoreboard] [REF_MEM_WRITE] Addr=0x9e7d225e Data=0x7e
# UVM_INFO ../src/env/axi4_scoreboard.sv(219) @ 5145000: uvm_test_top.env.scb [axi4_scoreboard] [REF_MEM_WRITE] Addr=0x9e7d2260 Data=0xc1
# UVM_INFO ../src/env/axi4_scoreboard.sv(219) @ 5145000: uvm_test_top.env.scb [axi4_scoreboard] [REF_MEM_WRITE] Addr=0x9e7d2265 Data=0x19
# UVM_INFO ../src/env/axi4_scoreboard.sv(219) @ 5145000: uvm_test_top.env.scb [axi4_scoreboard] [REF_MEM_WRITE] Addr=0x9e7d2267 Data=0x53
# UVM_INFO ../src/env/axi4_scoreboard.sv(219) @ 5145000: uvm_test_top.env.scb [axi4_scoreboard] [REF_MEM_WRITE] Addr=0x9e7d2268 Data=0xeb
# UVM_INFO ../src/env/axi4_scoreboard.sv(219) @ 5145000: uvm_test_top.env.scb [axi4_scoreboard] [REF_MEM_WRITE] Addr=0x9e7d2269 Data=0xd7
# UVM_INFO ../src/env/axi4_scoreboard.sv(219) @ 5145000: uvm_test_top.env.scb [axi4_scoreboard] [REF_MEM_WRITE] Addr=0x9e7d226a Data=0x4d
# UVM_INFO ../src/env/axi4_scoreboard.sv(219) @ 5145000: uvm_test_top.env.scb [axi4_scoreboard] [REF_MEM_WRITE] Addr=0x9e7d226e Data=0x5a
# UVM_INFO ../src/env/axi4_scoreboard.sv(219) @ 5145000: uvm_test_top.env.scb [axi4_scoreboard] [REF_MEM_WRITE] Addr=0x9e7d2270 Data=0xc4
# UVM_INFO ../src/env/axi4_scoreboard.sv(219) @ 5145000: uvm_test_top.env.scb [axi4_scoreboard] [REF_MEM_WRITE] Addr=0x9e7d2271 Data=0x44
# UVM_INFO ../src/env/axi4_scoreboard.sv(219) @ 5145000: uvm_test_top.env.scb [axi4_scoreboard] [REF_MEM_WRITE] Addr=0x9e7d2272 Data=0xde
# UVM_INFO ../src/env/axi4_scoreboard.sv(219) @ 5145000: uvm_test_top.env.scb [axi4_scoreboard] [REF_MEM_WRITE] Addr=0x9e7d2274 Data=0x1e
# UVM_INFO ../src/env/axi4_scoreboard.sv(219) @ 5145000: uvm_test_top.env.scb [axi4_scoreboard] [REF_MEM_WRITE] Addr=0x9e7d2275 Data=0xdd
# UVM_INFO ../src/env/axi4_scoreboard.sv(219) @ 5145000: uvm_test_top.env.scb [axi4_scoreboard] [REF_MEM_WRITE] Addr=0x9e7d2276 Data=0xaf
# UVM_INFO ../src/env/axi4_scoreboard.sv(219) @ 5145000: uvm_test_top.env.scb [axi4_scoreboard] [REF_MEM_WRITE] Addr=0x9e7d2277 Data=0x65
# UVM_INFO ../src/env/axi4_scoreboard.sv(219) @ 5145000: uvm_test_top.env.scb [axi4_scoreboard] [REF_MEM_WRITE] Addr=0x9e7d2278 Data=0x84
# UVM_INFO ../src/env/axi4_scoreboard.sv(219) @ 5145000: uvm_test_top.env.scb [axi4_scoreboard] [REF_MEM_WRITE] Addr=0x9e7d227a Data=0x71
# UVM_INFO ../src/env/axi4_scoreboard.sv(219) @ 5145000: uvm_test_top.env.scb [axi4_scoreboard] [REF_MEM_WRITE] Addr=0x9e7d227d Data=0x2b
# UVM_INFO ../src/env/axi4_scoreboard.sv(219) @ 5145000: uvm_test_top.env.scb [axi4_scoreboard] [REF_MEM_WRITE] Addr=0x9e7d2280 Data=0x38
# UVM_INFO ../src/env/axi4_scoreboard.sv(219) @ 5145000: uvm_test_top.env.scb [axi4_scoreboard] [REF_MEM_WRITE] Addr=0x9e7d2281 Data=0xca
# UVM_INFO ../src/env/axi4_scoreboard.sv(219) @ 5145000: uvm_test_top.env.scb [axi4_scoreboard] [REF_MEM_WRITE] Addr=0x9e7d2282 Data=0x8d
# UVM_INFO ../src/env/axi4_scoreboard.sv(219) @ 5145000: uvm_test_top.env.scb [axi4_scoreboard] [REF_MEM_WRITE] Addr=0x9e7d2285 Data=0xf7
# UVM_INFO ../src/env/axi4_scoreboard.sv(219) @ 5145000: uvm_test_top.env.scb [axi4_scoreboard] [REF_MEM_WRITE] Addr=0x9e7d2286 Data=0xd7
# UVM_INFO ../src/env/axi4_scoreboard.sv(219) @ 5145000: uvm_test_top.env.scb [axi4_scoreboard] [REF_MEM_WRITE] Addr=0x9e7d2287 Data=0xf6
# UVM_INFO ../src/env/axi4_scoreboard.sv(219) @ 5145000: uvm_test_top.env.scb [axi4_scoreboard] [REF_MEM_WRITE] Addr=0x9e7d228b Data=0x2e
# UVM_INFO ../src/env/axi4_scoreboard.sv(219) @ 5145000: uvm_test_top.env.scb [axi4_scoreboard] [REF_MEM_WRITE] Addr=0x9e7d228d Data=0x43
# UVM_INFO ../src/env/axi4_scoreboard.sv(219) @ 5145000: uvm_test_top.env.scb [axi4_scoreboard] [REF_MEM_WRITE] Addr=0x9e7d228f Data=0x42
# UVM_INFO ../src/env/axi4_scoreboard.sv(219) @ 5145000: uvm_test_top.env.scb [axi4_scoreboard] [REF_MEM_WRITE] Addr=0x9e7d2291 Data=0xd4
# UVM_INFO ../src/env/axi4_scoreboard.sv(219) @ 5145000: uvm_test_top.env.scb [axi4_scoreboard] [REF_MEM_WRITE] Addr=0x9e7d2292 Data=0xbb
# UVM_INFO ../src/env/axi4_scoreboard.sv(219) @ 5145000: uvm_test_top.env.scb [axi4_scoreboard] [REF_MEM_WRITE] Addr=0x9e7d2294 Data=0xa0
# UVM_INFO ../src/env/axi4_scoreboard.sv(219) @ 5145000: uvm_test_top.env.scb [axi4_scoreboard] [REF_MEM_WRITE] Addr=0x9e7d2296 Data=0xde
# UVM_INFO ../src/env/axi4_scoreboard.sv(219) @ 5145000: uvm_test_top.env.scb [axi4_scoreboard] [REF_MEM_WRITE] Addr=0x9e7d2299 Data=0xc8
# UVM_INFO ../src/env/axi4_scoreboard.sv(219) @ 5145000: uvm_test_top.env.scb [axi4_scoreboard] [REF_MEM_WRITE] Addr=0x9e7d229b Data=0xd4
# UVM_INFO ../src/env/axi4_scoreboard.sv(219) @ 5145000: uvm_test_top.env.scb [axi4_scoreboard] [REF_MEM_WRITE] Addr=0x9e7d229c Data=0xaa
# UVM_INFO ../src/env/axi4_scoreboard.sv(219) @ 5145000: uvm_test_top.env.scb [axi4_scoreboard] [REF_MEM_WRITE] Addr=0x9e7d229f Data=0xe1
# UVM_INFO ../src/env/axi4_scoreboard.sv(219) @ 5145000: uvm_test_top.env.scb [axi4_scoreboard] [REF_MEM_WRITE] Addr=0x9e7d22a3 Data=0x38
# UVM_INFO ../src/env/axi4_scoreboard.sv(219) @ 5145000: uvm_test_top.env.scb [axi4_scoreboard] [REF_MEM_WRITE] Addr=0x9e7d22a4 Data=0xac
# UVM_INFO ../src/env/axi4_scoreboard.sv(219) @ 5145000: uvm_test_top.env.scb [axi4_scoreboard] [REF_MEM_WRITE] Addr=0x9e7d22a5 Data=0xe7
# UVM_INFO ../src/env/axi4_scoreboard.sv(219) @ 5145000: uvm_test_top.env.scb [axi4_scoreboard] [REF_MEM_WRITE] Addr=0x9e7d22a6 Data=0x13
# UVM_INFO ../src/env/axi4_scoreboard.sv(219) @ 5145000: uvm_test_top.env.scb [axi4_scoreboard] [REF_MEM_WRITE] Addr=0x9e7d22a7 Data=0x5d
# UVM_INFO ../src/env/axi4_scoreboard.sv(219) @ 5145000: uvm_test_top.env.scb [axi4_scoreboard] [REF_MEM_WRITE] Addr=0x9e7d22a8 Data=0xed
# UVM_INFO ../src/env/axi4_scoreboard.sv(219) @ 5145000: uvm_test_top.env.scb [axi4_scoreboard] [REF_MEM_WRITE] Addr=0x9e7d22a9 Data=0x8c
# UVM_INFO ../src/env/axi4_scoreboard.sv(219) @ 5145000: uvm_test_top.env.scb [axi4_scoreboard] [REF_MEM_WRITE] Addr=0x9e7d22aa Data=0x79
# UVM_INFO ../src/env/axi4_scoreboard.sv(219) @ 5145000: uvm_test_top.env.scb [axi4_scoreboard] [REF_MEM_WRITE] Addr=0x9e7d22ae Data=0xc9
# UVM_INFO ../src/env/axi4_scoreboard.sv(219) @ 5145000: uvm_test_top.env.scb [axi4_scoreboard] [REF_MEM_WRITE] Addr=0x9e7d22b2 Data=0x35
# UVM_INFO ../src/env/axi4_scoreboard.sv(219) @ 5145000: uvm_test_top.env.scb [axi4_scoreboard] [REF_MEM_WRITE] Addr=0x9e7d22b4 Data=0x7a
# UVM_INFO ../src/env/axi4_scoreboard.sv(219) @ 5145000: uvm_test_top.env.scb [axi4_scoreboard] [REF_MEM_WRITE] Addr=0x9e7d22b5 Data=0x43
# UVM_INFO ../src/env/axi4_scoreboard.sv(219) @ 5145000: uvm_test_top.env.scb [axi4_scoreboard] [REF_MEM_WRITE] Addr=0x9e7d22b6 Data=0x6d
# UVM_INFO ../src/env/axi4_scoreboard.sv(219) @ 5145000: uvm_test_top.env.scb [axi4_scoreboard] [REF_MEM_WRITE] Addr=0x9e7d22b7 Data=0x6f
# UVM_INFO ../src/env/axi4_scoreboard.sv(219) @ 5145000: uvm_test_top.env.scb [axi4_scoreboard] [REF_MEM_WRITE] Addr=0x9e7d22b8 Data=0x16
# UVM_INFO ../src/env/axi4_scoreboard.sv(219) @ 5145000: uvm_test_top.env.scb [axi4_scoreboard] [REF_MEM_WRITE] Addr=0x9e7d22b9 Data=0x4a
# UVM_INFO ../src/env/axi4_scoreboard.sv(219) @ 5145000: uvm_test_top.env.scb [axi4_scoreboard] [REF_MEM_WRITE] Addr=0x9e7d22bb Data=0xc8
# UVM_INFO ../src/env/axi4_scoreboard.sv(219) @ 5145000: uvm_test_top.env.scb [axi4_scoreboard] [REF_MEM_WRITE] Addr=0x9e7d22bd Data=0xc5
# UVM_INFO ../src/env/axi4_scoreboard.sv(219) @ 5145000: uvm_test_top.env.scb [axi4_scoreboard] [REF_MEM_WRITE] Addr=0x9e7d22bf Data=0xbc
# UVM_INFO ../src/env/axi4_scoreboard.sv(219) @ 5145000: uvm_test_top.env.scb [axi4_scoreboard] [REF_MEM_WRITE] Addr=0x9e7d22c3 Data=0x31
# UVM_INFO ../src/env/axi4_scoreboard.sv(219) @ 5145000: uvm_test_top.env.scb [axi4_scoreboard] [REF_MEM_WRITE] Addr=0x9e7d22c4 Data=0x81
# UVM_INFO ../src/env/axi4_scoreboard.sv(219) @ 5145000: uvm_test_top.env.scb [axi4_scoreboard] [REF_MEM_WRITE] Addr=0x9e7d22c6 Data=0xec
# UVM_INFO ../src/env/axi4_scoreboard.sv(219) @ 5145000: uvm_test_top.env.scb [axi4_scoreboard] [REF_MEM_WRITE] Addr=0x9e7d22ca Data=0x0e
# UVM_INFO ../src/env/axi4_scoreboard.sv(219) @ 5145000: uvm_test_top.env.scb [axi4_scoreboard] [REF_MEM_WRITE] Addr=0x9e7d22cb Data=0xd1
# UVM_INFO ../src/env/axi4_scoreboard.sv(219) @ 5145000: uvm_test_top.env.scb [axi4_scoreboard] [REF_MEM_WRITE] Addr=0x9e7d22cc Data=0xbb
# UVM_INFO ../src/env/axi4_scoreboard.sv(219) @ 5145000: uvm_test_top.env.scb [axi4_scoreboard] [REF_MEM_WRITE] Addr=0x9e7d22ce Data=0xaf
# UVM_INFO ../src/env/axi4_scoreboard.sv(219) @ 5145000: uvm_test_top.env.scb [axi4_scoreboard] [REF_MEM_WRITE] Addr=0x9e7d22d1 Data=0x1a
# UVM_INFO ../src/env/axi4_scoreboard.sv(219) @ 5145000: uvm_test_top.env.scb [axi4_scoreboard] [REF_MEM_WRITE] Addr=0x9e7d22d2 Data=0x00
# UVM_INFO ../src/env/axi4_scoreboard.sv(219) @ 5145000: uvm_test_top.env.scb [axi4_scoreboard] [REF_MEM_WRITE] Addr=0x9e7d22d4 Data=0x6d
# UVM_INFO ../src/env/axi4_scoreboard.sv(219) @ 5145000: uvm_test_top.env.scb [axi4_scoreboard] [REF_MEM_WRITE] Addr=0x9e7d22d6 Data=0x8e
# UVM_INFO ../src/env/axi4_scoreboard.sv(219) @ 5145000: uvm_test_top.env.scb [axi4_scoreboard] [REF_MEM_WRITE] Addr=0x9e7d22d7 Data=0x79
# UVM_INFO ../src/env/axi4_scoreboard.sv(219) @ 5145000: uvm_test_top.env.scb [axi4_scoreboard] [REF_MEM_WRITE] Addr=0x9e7d22d8 Data=0x78
# UVM_INFO ../src/env/axi4_scoreboard.sv(219) @ 5145000: uvm_test_top.env.scb [axi4_scoreboard] [REF_MEM_WRITE] Addr=0x9e7d22d9 Data=0xb8
# UVM_INFO ../src/env/axi4_scoreboard.sv(219) @ 5145000: uvm_test_top.env.scb [axi4_scoreboard] [REF_MEM_WRITE] Addr=0x9e7d22db Data=0x0e
# UVM_INFO ../src/env/axi4_scoreboard.sv(219) @ 5145000: uvm_test_top.env.scb [axi4_scoreboard] [REF_MEM_WRITE] Addr=0x9e7d22dd Data=0xdc
# UVM_INFO ../src/env/axi4_scoreboard.sv(219) @ 5145000: uvm_test_top.env.scb [axi4_scoreboard] [REF_MEM_WRITE] Addr=0x9e7d22de Data=0x24
# UVM_INFO ../src/env/axi4_scoreboard.sv(219) @ 5145000: uvm_test_top.env.scb [axi4_scoreboard] [REF_MEM_WRITE] Addr=0x9e7d22df Data=0x60
# UVM_INFO ../src/env/axi4_scoreboard.sv(219) @ 5145000: uvm_test_top.env.scb [axi4_scoreboard] [REF_MEM_WRITE] Addr=0x9e7d22e1 Data=0x9d
# UVM_INFO ../src/env/axi4_scoreboard.sv(219) @ 5145000: uvm_test_top.env.scb [axi4_scoreboard] [REF_MEM_WRITE] Addr=0x9e7d22e4 Data=0x19
# UVM_INFO ../src/env/axi4_scoreboard.sv(219) @ 5145000: uvm_test_top.env.scb [axi4_scoreboard] [REF_MEM_WRITE] Addr=0x9e7d22e5 Data=0x7f
# UVM_INFO ../src/env/axi4_scoreboard.sv(219) @ 5145000: uvm_test_top.env.scb [axi4_scoreboard] [REF_MEM_WRITE] Addr=0x9e7d22e6 Data=0xe4
# UVM_INFO ../src/env/axi4_scoreboard.sv(219) @ 5145000: uvm_test_top.env.scb [axi4_scoreboard] [REF_MEM_WRITE] Addr=0x9e7d22e9 Data=0x7e
# UVM_INFO ../src/env/axi4_scoreboard.sv(219) @ 5145000: uvm_test_top.env.scb [axi4_scoreboard] [REF_MEM_WRITE] Addr=0x9e7d22ee Data=0x69
# UVM_INFO ../src/env/axi4_scoreboard.sv(219) @ 5145000: uvm_test_top.env.scb [axi4_scoreboard] [REF_MEM_WRITE] Addr=0x9e7d22ef Data=0xb1
# UVM_INFO ../src/env/axi4_scoreboard.sv(219) @ 5145000: uvm_test_top.env.scb [axi4_scoreboard] [REF_MEM_WRITE] Addr=0x9e7d22f0 Data=0xe4
# UVM_INFO ../src/env/axi4_scoreboard.sv(219) @ 5145000: uvm_test_top.env.scb [axi4_scoreboard] [REF_MEM_WRITE] Addr=0x9e7d22f2 Data=0x9b
# UVM_INFO ../src/env/axi4_scoreboard.sv(219) @ 5145000: uvm_test_top.env.scb [axi4_scoreboard] [REF_MEM_WRITE] Addr=0x9e7d22f6 Data=0x48
# UVM_INFO ../src/env/axi4_scoreboard.sv(219) @ 5145000: uvm_test_top.env.scb [axi4_scoreboard] [REF_MEM_WRITE] Addr=0x9e7d22f7 Data=0x8c
# UVM_INFO ../src/env/axi4_scoreboard.sv(219) @ 5145000: uvm_test_top.env.scb [axi4_scoreboard] [REF_MEM_WRITE] Addr=0x9e7d22f8 Data=0x6e
# UVM_INFO ../src/env/axi4_scoreboard.sv(219) @ 5145000: uvm_test_top.env.scb [axi4_scoreboard] [REF_MEM_WRITE] Addr=0x9e7d22fb Data=0x0a
# UVM_INFO ../src/env/axi4_scoreboard.sv(219) @ 5145000: uvm_test_top.env.scb [axi4_scoreboard] [REF_MEM_WRITE] Addr=0x9e7d22ff Data=0x52
# UVM_INFO ../src/env/axi4_scoreboard.sv(219) @ 5145000: uvm_test_top.env.scb [axi4_scoreboard] [REF_MEM_WRITE] Addr=0x9e7d2301 Data=0x0c
# UVM_INFO ../src/env/axi4_scoreboard.sv(219) @ 5145000: uvm_test_top.env.scb [axi4_scoreboard] [REF_MEM_WRITE] Addr=0x9e7d2302 Data=0xcc
# UVM_INFO ../src/env/axi4_scoreboard.sv(219) @ 5145000: uvm_test_top.env.scb [axi4_scoreboard] [REF_MEM_WRITE] Addr=0x9e7d2303 Data=0xfb
# UVM_INFO ../src/env/axi4_scoreboard.sv(219) @ 5145000: uvm_test_top.env.scb [axi4_scoreboard] [REF_MEM_WRITE] Addr=0x9e7d2304 Data=0x36
# UVM_INFO ../src/env/axi4_scoreboard.sv(219) @ 5145000: uvm_test_top.env.scb [axi4_scoreboard] [REF_MEM_WRITE] Addr=0x9e7d2305 Data=0x2a
# UVM_INFO ../src/env/axi4_scoreboard.sv(219) @ 5145000: uvm_test_top.env.scb [axi4_scoreboard] [REF_MEM_WRITE] Addr=0x9e7d2308 Data=0xb2
# UVM_INFO ../src/env/axi4_scoreboard.sv(219) @ 5145000: uvm_test_top.env.scb [axi4_scoreboard] [REF_MEM_WRITE] Addr=0x9e7d2309 Data=0x49
# UVM_INFO ../src/env/axi4_scoreboard.sv(219) @ 5145000: uvm_test_top.env.scb [axi4_scoreboard] [REF_MEM_WRITE] Addr=0x9e7d230a Data=0xde
# UVM_INFO ../src/env/axi4_scoreboard.sv(219) @ 5145000: uvm_test_top.env.scb [axi4_scoreboard] [REF_MEM_WRITE] Addr=0x9e7d230b Data=0xb7
# UVM_INFO ../src/env/axi4_scoreboard.sv(219) @ 5145000: uvm_test_top.env.scb [axi4_scoreboard] [REF_MEM_WRITE] Addr=0x9e7d230c Data=0xc3
# UVM_INFO ../src/env/axi4_scoreboard.sv(219) @ 5145000: uvm_test_top.env.scb [axi4_scoreboard] [REF_MEM_WRITE] Addr=0x9e7d230d Data=0x2b
# UVM_INFO ../src/env/axi4_scoreboard.sv(219) @ 5145000: uvm_test_top.env.scb [axi4_scoreboard] [REF_MEM_WRITE] Addr=0x9e7d230e Data=0x0c
# UVM_INFO ../src/env/axi4_scoreboard.sv(219) @ 5145000: uvm_test_top.env.scb [axi4_scoreboard] [REF_MEM_WRITE] Addr=0x9e7d230f Data=0xab
# UVM_INFO ../src/env/axi4_scoreboard.sv(219) @ 5145000: uvm_test_top.env.scb [axi4_scoreboard] [REF_MEM_WRITE] Addr=0x9e7d2310 Data=0xcd
# UVM_INFO ../src/env/axi4_scoreboard.sv(219) @ 5145000: uvm_test_top.env.scb [axi4_scoreboard] [REF_MEM_WRITE] Addr=0x9e7d2312 Data=0x92
# UVM_INFO ../src/env/axi4_scoreboard.sv(219) @ 5145000: uvm_test_top.env.scb [axi4_scoreboard] [REF_MEM_WRITE] Addr=0x9e7d2315 Data=0xf5
# UVM_INFO ../src/env/axi4_scoreboard.sv(219) @ 5145000: uvm_test_top.env.scb [axi4_scoreboard] [REF_MEM_WRITE] Addr=0x9e7d2316 Data=0x5d
# UVM_INFO ../src/env/axi4_scoreboard.sv(219) @ 5145000: uvm_test_top.env.scb [axi4_scoreboard] [REF_MEM_WRITE] Addr=0x9e7d2318 Data=0xc4
# UVM_INFO ../src/env/axi4_scoreboard.sv(219) @ 5145000: uvm_test_top.env.scb [axi4_scoreboard] [REF_MEM_WRITE] Addr=0x9e7d2319 Data=0x47
# UVM_INFO ../src/env/axi4_scoreboard.sv(219) @ 5145000: uvm_test_top.env.scb [axi4_scoreboard] [REF_MEM_WRITE] Addr=0x9e7d231a Data=0x5c
# UVM_INFO ../src/env/axi4_scoreboard.sv(219) @ 5145000: uvm_test_top.env.scb [axi4_scoreboard] [REF_MEM_WRITE] Addr=0x9e7d231e Data=0x92
# UVM_INFO ../src/env/axi4_scoreboard.sv(219) @ 5145000: uvm_test_top.env.scb [axi4_scoreboard] [REF_MEM_WRITE] Addr=0x9e7d231f Data=0xd9
# UVM_INFO ../src/env/axi4_scoreboard.sv(219) @ 5145000: uvm_test_top.env.scb [axi4_scoreboard] [REF_MEM_WRITE] Addr=0x9e7d2320 Data=0x30
# UVM_INFO ../src/env/axi4_scoreboard.sv(219) @ 5145000: uvm_test_top.env.scb [axi4_scoreboard] [REF_MEM_WRITE] Addr=0x9e7d2324 Data=0xf5
# UVM_INFO ../src/env/axi4_scoreboard.sv(219) @ 5145000: uvm_test_top.env.scb [axi4_scoreboard] [REF_MEM_WRITE] Addr=0x9e7d232a Data=0x81
# UVM_INFO ../src/env/axi4_scoreboard.sv(219) @ 5145000: uvm_test_top.env.scb [axi4_scoreboard] [REF_MEM_WRITE] Addr=0x9e7d232d Data=0x4d
# UVM_INFO ../src/env/axi4_scoreboard.sv(219) @ 5145000: uvm_test_top.env.scb [axi4_scoreboard] [REF_MEM_WRITE] Addr=0x9e7d232e Data=0xac
# UVM_INFO ../src/env/axi4_scoreboard.sv(219) @ 5145000: uvm_test_top.env.scb [axi4_scoreboard] [REF_MEM_WRITE] Addr=0x9e7d2330 Data=0x4c
# UVM_INFO ../src/env/axi4_scoreboard.sv(219) @ 5145000: uvm_test_top.env.scb [axi4_scoreboard] [REF_MEM_WRITE] Addr=0x9e7d2331 Data=0xa4
# UVM_INFO ../src/env/axi4_scoreboard.sv(219) @ 5145000: uvm_test_top.env.scb [axi4_scoreboard] [REF_MEM_WRITE] Addr=0x9e7d2332 Data=0xba
# UVM_INFO ../src/env/axi4_scoreboard.sv(219) @ 5145000: uvm_test_top.env.scb [axi4_scoreboard] [REF_MEM_WRITE] Addr=0x9e7d2333 Data=0xe6
# UVM_INFO ../src/env/axi4_scoreboard.sv(219) @ 5145000: uvm_test_top.env.scb [axi4_scoreboard] [REF_MEM_WRITE] Addr=0x9e7d2334 Data=0x9e
# UVM_INFO ../src/env/axi4_scoreboard.sv(219) @ 5145000: uvm_test_top.env.scb [axi4_scoreboard] [REF_MEM_WRITE] Addr=0x9e7d2335 Data=0xaf
# UVM_INFO ../src/env/axi4_scoreboard.sv(219) @ 5145000: uvm_test_top.env.scb [axi4_scoreboard] [REF_MEM_WRITE] Addr=0x9e7d2337 Data=0xe3
# UVM_INFO ../src/env/axi4_scoreboard.sv(219) @ 5145000: uvm_test_top.env.scb [axi4_scoreboard] [REF_MEM_WRITE] Addr=0x9e7d233a Data=0xb2
# UVM_INFO ../src/env/axi4_scoreboard.sv(219) @ 5145000: uvm_test_top.env.scb [axi4_scoreboard] [REF_MEM_WRITE] Addr=0x9e7d233b Data=0xa0
# UVM_INFO ../src/env/axi4_scoreboard.sv(219) @ 5145000: uvm_test_top.env.scb [axi4_scoreboard] [REF_MEM_WRITE] Addr=0x9e7d233d Data=0x73
# UVM_INFO ../src/env/axi4_scoreboard.sv(219) @ 5145000: uvm_test_top.env.scb [axi4_scoreboard] [REF_MEM_WRITE] Addr=0x9e7d2342 Data=0xd6
# UVM_INFO ../src/env/axi4_scoreboard.sv(219) @ 5145000: uvm_test_top.env.scb [axi4_scoreboard] [REF_MEM_WRITE] Addr=0x9e7d2343 Data=0x94
# UVM_INFO ../src/env/axi4_scoreboard.sv(219) @ 5145000: uvm_test_top.env.scb [axi4_scoreboard] [REF_MEM_WRITE] Addr=0x9e7d2347 Data=0xcd
# UVM_INFO ../src/env/axi4_scoreboard.sv(219) @ 5145000: uvm_test_top.env.scb [axi4_scoreboard] [REF_MEM_WRITE] Addr=0x9e7d2348 Data=0xe6
# UVM_INFO ../src/env/axi4_scoreboard.sv(219) @ 5145000: uvm_test_top.env.scb [axi4_scoreboard] [REF_MEM_WRITE] Addr=0x9e7d2349 Data=0x51
# UVM_INFO ../src/env/axi4_scoreboard.sv(219) @ 5145000: uvm_test_top.env.scb [axi4_scoreboard] [REF_MEM_WRITE] Addr=0x9e7d234a Data=0x88
# UVM_INFO ../src/env/axi4_scoreboard.sv(219) @ 5145000: uvm_test_top.env.scb [axi4_scoreboard] [REF_MEM_WRITE] Addr=0x9e7d234b Data=0x3d
# UVM_INFO ../src/env/axi4_scoreboard.sv(219) @ 5145000: uvm_test_top.env.scb [axi4_scoreboard] [REF_MEM_WRITE] Addr=0x9e7d234e Data=0x24
# UVM_INFO ../src/env/axi4_scoreboard.sv(219) @ 5145000: uvm_test_top.env.scb [axi4_scoreboard] [REF_MEM_WRITE] Addr=0x9e7d2354 Data=0x00
# UVM_INFO ../src/env/axi4_scoreboard.sv(219) @ 5145000: uvm_test_top.env.scb [axi4_scoreboard] [REF_MEM_WRITE] Addr=0x9e7d2357 Data=0xd4
# UVM_INFO ../src/env/axi4_scoreboard.sv(219) @ 5145000: uvm_test_top.env.scb [axi4_scoreboard] [REF_MEM_WRITE] Addr=0x9e7d2359 Data=0x0f
# UVM_INFO ../src/env/axi4_scoreboard.sv(219) @ 5145000: uvm_test_top.env.scb [axi4_scoreboard] [REF_MEM_WRITE] Addr=0x9e7d235a Data=0x14
# UVM_INFO ../src/env/axi4_scoreboard.sv(219) @ 5145000: uvm_test_top.env.scb [axi4_scoreboard] [REF_MEM_WRITE] Addr=0x9e7d235b Data=0x0b
# UVM_INFO ../src/env/axi4_scoreboard.sv(219) @ 5145000: uvm_test_top.env.scb [axi4_scoreboard] [REF_MEM_WRITE] Addr=0x9e7d235d Data=0x75
# UVM_INFO ../src/env/axi4_scoreboard.sv(219) @ 5145000: uvm_test_top.env.scb [axi4_scoreboard] [REF_MEM_WRITE] Addr=0x9e7d235f Data=0x99
# UVM_INFO ../src/env/axi4_scoreboard.sv(219) @ 5145000: uvm_test_top.env.scb [axi4_scoreboard] [REF_MEM_WRITE] Addr=0x9e7d2360 Data=0x9e
# UVM_INFO ../src/env/axi4_scoreboard.sv(219) @ 5145000: uvm_test_top.env.scb [axi4_scoreboard] [REF_MEM_WRITE] Addr=0x9e7d2363 Data=0xa3
# UVM_INFO ../src/env/axi4_scoreboard.sv(219) @ 5145000: uvm_test_top.env.scb [axi4_scoreboard] [REF_MEM_WRITE] Addr=0x9e7d2367 Data=0xa1
# UVM_INFO ../src/env/axi4_scoreboard.sv(219) @ 5145000: uvm_test_top.env.scb [axi4_scoreboard] [REF_MEM_WRITE] Addr=0x9e7d2369 Data=0x3a
# UVM_INFO ../src/env/axi4_scoreboard.sv(219) @ 5145000: uvm_test_top.env.scb [axi4_scoreboard] [REF_MEM_WRITE] Addr=0x9e7d236b Data=0xdc
# UVM_INFO ../src/env/axi4_scoreboard.sv(219) @ 5145000: uvm_test_top.env.scb [axi4_scoreboard] [REF_MEM_WRITE] Addr=0x9e7d236c Data=0x9a
# UVM_INFO ../src/env/axi4_scoreboard.sv(219) @ 5145000: uvm_test_top.env.scb [axi4_scoreboard] [REF_MEM_WRITE] Addr=0x9e7d236d Data=0x07
# UVM_INFO ../src/env/axi4_scoreboard.sv(219) @ 5145000: uvm_test_top.env.scb [axi4_scoreboard] [REF_MEM_WRITE] Addr=0x9e7d236e Data=0x90
# UVM_INFO ../src/env/axi4_scoreboard.sv(219) @ 5145000: uvm_test_top.env.scb [axi4_scoreboard] [REF_MEM_WRITE] Addr=0x9e7d236f Data=0xfc
# UVM_INFO ../src/env/axi4_scoreboard.sv(219) @ 5145000: uvm_test_top.env.scb [axi4_scoreboard] [REF_MEM_WRITE] Addr=0x9e7d2372 Data=0xe7
# UVM_INFO ../src/env/axi4_scoreboard.sv(219) @ 5145000: uvm_test_top.env.scb [axi4_scoreboard] [REF_MEM_WRITE] Addr=0x9e7d2375 Data=0xa2
# UVM_INFO ../src/env/axi4_scoreboard.sv(219) @ 5145000: uvm_test_top.env.scb [axi4_scoreboard] [REF_MEM_WRITE] Addr=0x9e7d2378 Data=0xb6
# UVM_INFO ../src/env/axi4_scoreboard.sv(219) @ 5145000: uvm_test_top.env.scb [axi4_scoreboard] [REF_MEM_WRITE] Addr=0x9e7d237d Data=0x23
# UVM_INFO ../src/env/axi4_scoreboard.sv(219) @ 5145000: uvm_test_top.env.scb [axi4_scoreboard] [REF_MEM_WRITE] Addr=0x9e7d2380 Data=0x50
# UVM_INFO ../src/env/axi4_scoreboard.sv(219) @ 5145000: uvm_test_top.env.scb [axi4_scoreboard] [REF_MEM_WRITE] Addr=0x9e7d2383 Data=0xab
# UVM_INFO ../src/mst/axi4_master_driver.sv(348) @ 5595000: uvm_test_top.env.master_agent.drv [axi4_master_driver] Master driver received all R beats for ID=0x3
# UVM_INFO ../src/slv/axi4_slave_driver.sv(501) @ 5595000: uvm_test_top.env.slave_agent.drv [axi4_slave_driver] Read complete: ID=0x3 ADDR=0xb4536233 RESP=AXI4_RESP_OKAY  166 beats sent
# UVM_INFO ../src/slv/axi4_slave_monitor.sv(287) @ 5595000: uvm_test_top.env.slave_agent.mon [axi4_slave_monitor] Read data sent: ID=0x3 ADDR=0xb4536233 166 beats
# UVM_INFO ../src/env/axi4_scoreboard.sv(108) @ 5595000: uvm_test_top.env.scb [axi4_scoreboard] Slave AXI4_READ received: ID=0x3 ADDR=0xb4536233 LEN=165
# UVM_INFO ../src/mst/axi4_master_monitor.sv(314) @ 5595000: uvm_test_top.env.master_agent.mon [axi4_master_monitor] Read complete: ID=0x3 ADDR=0xb4536233 166 beats
# UVM_INFO ../src/env/axi4_scoreboard.sv(87) @ 5595000: uvm_test_top.env.scb [axi4_scoreboard] Master AXI4_READ received: ID=0x3 ADDR=0xb4536233 LEN=165
# UVM_INFO ../src/env/axi4_scoreboard.sv(291) @ 5595000: uvm_test_top.env.scb [axi4_scoreboard] [READ] MATCH #4: ID=0x3 ADDR=0xb4536233 LEN=165
# UVM_INFO ../src/slv/axi4_slave_monitor.sv(167) @ 7815000: uvm_test_top.env.slave_agent.mon [axi4_slave_monitor] W data assembled: ID=0x8 ADDR=0xb342a9be 135 beats
# UVM_INFO ../src/mst/axi4_master_monitor.sv(184) @ 7815000: uvm_test_top.env.master_agent.mon [axi4_master_monitor] W data assembled: ID=0x8 ADDR=0xb342a9be 135 beats
# UVM_INFO ../src/mst/axi4_master_driver.sv(289) @ 7845000: uvm_test_top.env.master_agent.drv [axi4_master_driver] Master driver received B response: ID=0x8 RESP=AXI4_RESP_OKAY
# UVM_INFO ../src/slv/axi4_slave_driver.sv(348) @ 7845000: uvm_test_top.env.slave_agent.drv [axi4_slave_driver] Write complete: ID=0x8 RESP=AXI4_RESP_OKAY
# UVM_INFO ../src/mst/axi4_master_monitor.sv(210) @ 7845000: uvm_test_top.env.master_agent.mon [axi4_master_monitor] Write complete: ID=0x8 ADDR=0xb342a9be RESP=AXI4_RESP_OKAY
# UVM_INFO ../src/env/axi4_scoreboard.sv(87) @ 7845000: uvm_test_top.env.scb [axi4_scoreboard] Master AXI4_WRITE received: ID=0x8 ADDR=0xb342a9be LEN=134
