# vsim -c -coverage -l ./report/logs/run.log -sv_seed 12345 "+UVM_TESTNAME=axi4_wr_rd_test" "+UVM_VERBOSITY=UVM_HIGH" "+DUMP_VCD" -do "if {[string equal [design visibility] "port"] || [string equal [design visibility] "none"]} { 	       coverage save -onexit ./report/coverage/axi4_wr_rd_test_seed_12345.ucdb; 	     }; run -all; quit -f" opt_tb_top 
# Start time: 08:35:48 on Jun 08,2026
# //  Questa Sim-64
# //  Version 10.6b linux_x86_64 May 25 2017
# //
# //  Copyright 1991-2017 Mentor Graphics Corporation
# //  All Rights Reserved.
# //
# //  QuestaSim and its associated documentation contain trade
# //  secrets and commercial or financial information that are the property of
# //  Mentor Graphics Corporation and are privileged, confidential,
# //  and exempt from disclosure under the Freedom of Information Act,
# //  5 U.S.C. Section 552. Furthermore, this information
# //  is prohibited from disclosure under the Trade Secrets Act,
# //  18 U.S.C. Section 1905.
# //
# Loading sv_std.std
# Loading work.axi4_if(fast)
# Loading mtiUvm.uvm_pkg
# Loading work.axi4_pkg(fast)
# Loading work.axi4_test_pkg(fast)
# Loading work.tb_top(fast)
# Loading work.axi4_if(fast)
# Loading work.axi4_sva(fast)
# Loading mtiUvm.questa_uvm_pkg(fast)
# Loading /cadtools/mentor/Questa_10.6b/questasim/uvm-1.1d/linux_x86_64/uvm_dpi.so
# if {[string equal [design visibility] "port"] || [string equal [design visibility] "none"]} { 	       coverage save -onexit ./report/coverage/axi4_wr_rd_test_seed_12345.ucdb; 	     }
# invalid command name "design"
#  run -all
# ----------------------------------------------------------------
# UVM-1.1d
# (C) 2007-2013 Mentor Graphics Corporation
# (C) 2007-2013 Cadence Design Systems, Inc.
# (C) 2006-2013 Synopsys, Inc.
# (C) 2011-2013 Cypress Semiconductor Corp.
# ----------------------------------------------------------------
# 
#   ***********       IMPORTANT RELEASE NOTES         ************
# 
#   You are using a version of the UVM library that has been compiled
#   with `UVM_NO_DEPRECATED undefined.
#   See http://www.eda.org/svdb/view.php?id=3313 for more details.
# 
#   You are using a version of the UVM library that has been compiled
#   with `UVM_OBJECT_MUST_HAVE_CONSTRUCTOR undefined.
#   See http://www.eda.org/svdb/view.php?id=3770 for more details.
# 
#       (Specify +UVM_NO_RELNOTES to turn off this notice)
# 
# UVM_INFO verilog_src/questa_uvm_pkg-1.2/src/questa_uvm_pkg.sv(215) @ 0: reporter [Questa UVM] QUESTA_UVM-1.2.3
# UVM_INFO verilog_src/questa_uvm_pkg-1.2/src/questa_uvm_pkg.sv(217) @ 0: reporter [Questa UVM]  questa_uvm::init(+struct)
# UVM_INFO ../src/tb_top.sv(128) @ 0: reporter [TB_TOP] Virtual interface set in config_db
# UVM_INFO @ 0: reporter [RNTST] Running test axi4_wr_rd_test...
# UVM_INFO ../src/tb_top.sv(142) @ 0: reporter [TB_TOP] Waveform VCD dumping enabled (axi4_vip.vcd)
# UVM_INFO ../src/env/axi4_vip_env.sv(83) @ 0: uvm_test_top.env [axi4_vip_env] slave_vif not set - reusing master_vif (passthrough mode)
# UVM_INFO ../src/env/axi4_vip_env.sv(93) @ 0: uvm_test_top.env [axi4_vip_env] Scoreboard created
# UVM_INFO ../src/env/axi4_vip_env.sv(100) @ 0: uvm_test_top.env [axi4_vip_env] Coverage collectors created
# UVM_INFO ../src/mst/axi4_master_agent.sv(69) @ 0: uvm_test_top.env.master_agent [axi4_master_agent] ACTIVE mode - driver + sequencer created
# UVM_INFO ../src/slv/axi4_slave_agent.sv(82) @ 0: uvm_test_top.env.slave_agent [axi4_slave_agent] ACTIVE mode — ready_delay=[0:0] resp_delay=[0:0]
# UVM_INFO ../src/env/axi4_vip_env.sv(116) @ 0: uvm_test_top.env [axi4_vip_env] Scoreboard connected: master_mon.ap -> scb, slave_mon.ap -> scb
# UVM_INFO ../src/env/axi4_vip_env.sv(124) @ 0: uvm_test_top.env [axi4_vip_env] Coverage connected: master_mon.ap -> master_cov, slave_mon.ap -> slave_cov
# UVM_INFO @ 0: reporter [UVMTOP] UVM testbench topology:
# ---------------------------------------------------------------
# Name                       Type                     Size  Value
# ---------------------------------------------------------------
# uvm_test_top               axi4_wr_rd_test          -     @473 
#   env                      axi4_vip_env             -     @488 
#     master_agent           axi4_master_agent        -     @503 
#       drv                  axi4_master_driver       -     @567 
#         rsp_port           uvm_analysis_port        -     @582 
#         seq_item_port      uvm_seq_item_pull_port   -     @574 
#       mon                  axi4_master_monitor      -     @559 
#         ap                 uvm_analysis_port        -     @700 
#       sqr                  axi4_master_sequencer    -     @590 
#         rsp_export         uvm_analysis_export      -     @597 
#         seq_item_export    uvm_seq_item_pull_imp    -     @691 
#         arbitration_queue  array                    0     -    
#         lock_queue         array                    0     -    
#         num_last_reqs      integral                 32    'd1  
#         num_last_rsps      integral                 32    'd1  
#     master_cov             axi4_coverage            -     @524 
#       analysis_imp         uvm_analysis_imp         -     @531 
#     scb                    axi4_scoreboard          -     @517 
#       master_export        uvm_analysis_imp_master  -     @714 
#       slave_export         uvm_analysis_imp_slave   -     @722 
#     slave_agent            axi4_slave_agent         -     @510 
#       drv                  axi4_slave_driver        -     @753 
#         rsp_port           uvm_analysis_port        -     @768 
#         seq_item_port      uvm_seq_item_pull_port   -     @760 
#       mon                  axi4_slave_monitor       -     @735 
#         ap                 uvm_analysis_port        -     @890 
#       sqr                  axi4_slave_sequencer     -     @776 
#         rsp_export         uvm_analysis_export      -     @783 
#         seq_item_export    uvm_seq_item_pull_imp    -     @877 
#         arbitration_queue  array                    0     -    
#         lock_queue         array                    0     -    
#         num_last_reqs      integral                 32    'd1  
#         num_last_rsps      integral                 32    'd1  
#     slave_cov              axi4_coverage            -     @539 
#       analysis_imp         uvm_analysis_imp         -     @546 
# ---------------------------------------------------------------
# 
# UVM_INFO verilog_src/questa_uvm_pkg-1.2/src/questa_uvm_pkg.sv(277) @ 0: reporter [Questa UVM] End Of Elaboration
# UVM_INFO ../src/test/axi4_wr_rd_test.sv(37) @ 0: uvm_test_top [axi4_wr_rd_test] Starting 10 write-read-back iterations
# UVM_INFO ../src/test/axi4_wr_rd_test.sv(52) @ 0: uvm_test_top [axi4_wr_rd_test] [1/10] ADDR=0x65272386 LEN=10 BURST=AXI4_BURST_INCR
# UVM_INFO ../src/tb_top.sv(49) @ 95000: reporter [TOP_TB] Reset de-asserted
# UVM_INFO ../src/slv/axi4_slave_driver.sv(70) @ 95000: uvm_test_top.env.slave_agent.drv [axi4_slave_driver] Reset deasserted - slave driver active
# UVM_INFO ../src/mst/axi4_master_driver.sv(46) @ 95000: uvm_test_top.env.master_agent.drv [axi4_master_driver] Reset deasserted - master driver active
# UVM_INFO ../src/mst/axi4_master_monitor.sv(77) @ 95000: uvm_test_top.env.master_agent.mon [axi4_master_monitor] Reset deasserted — monitor active
# UVM_INFO ../src/slv/axi4_slave_monitor.sv(71) @ 95000: uvm_test_top.env.slave_agent.mon [axi4_slave_monitor] Reset deasserted — monitor active
# UVM_INFO ../src/mst/axi4_master_driver.sv(55) @ 95000: uvm_test_top.env.master_agent.drv [axi4_master_driver] Driving AXI4_WRITE  ID=0x6  ADDR=0x65272386  LEN=10
# UVM_INFO ../src/mst/axi4_master_driver.sv(94) @ 95000: uvm_test_top.env.master_agent.drv [axi4_master_driver] Write order: AW || W (parallel)
# UVM_INFO ../src/slv/axi4_slave_driver.sv(165) @ 115000: uvm_test_top.env.slave_agent.drv [axi4_slave_driver] AW received: ID=0x6 ADDR=0x65272386 LEN=10 LOCK=AXI4_LOCK_EXCLUSIVE
# UVM_INFO ../src/slv/axi4_slave_monitor.sv(116) @ 115000: uvm_test_top.env.slave_agent.mon [axi4_slave_monitor] AW received: ID=0x6 ADDR=0x65272386 LEN=10
# UVM_INFO ../src/mst/axi4_master_monitor.sv(124) @ 115000: uvm_test_top.env.master_agent.mon [axi4_master_monitor] AW observed: ID=0x6 ADDR=0x65272386 LEN=10
# UVM_INFO ../src/mst/axi4_master_monitor.sv(184) @ 305000: uvm_test_top.env.master_agent.mon [axi4_master_monitor] W data assembled: ID=0x6 ADDR=0x65272386 11 beats
# UVM_INFO ../src/slv/axi4_slave_monitor.sv(167) @ 305000: uvm_test_top.env.slave_agent.mon [axi4_slave_monitor] W data assembled: ID=0x6 ADDR=0x65272386 11 beats
# UVM_INFO ../src/mst/axi4_master_driver.sv(197) @ 335000: uvm_test_top.env.master_agent.drv [axi4_master_driver] Write response: AXI4_RESP_OKAY
# UVM_INFO ../src/slv/axi4_slave_driver.sv(263) @ 335000: uvm_test_top.env.slave_agent.drv [axi4_slave_driver] Write complete: ID=0x6 ADDR=0x65272386 RESP=AXI4_RESP_OKAY  11 beats processed
# UVM_INFO ../src/slv/axi4_slave_monitor.sv(189) @ 335000: uvm_test_top.env.slave_agent.mon [axi4_slave_monitor] Write response sent: ID=0x6 ADDR=0x65272386 RESP=AXI4_RESP_OKAY
# UVM_INFO ../src/env/axi4_scoreboard.sv(108) @ 335000: uvm_test_top.env.scb [axi4_scoreboard] Slave AXI4_WRITE received: ID=0x6 ADDR=0x65272386 LEN=10
# UVM_INFO ../src/mst/axi4_master_monitor.sv(210) @ 335000: uvm_test_top.env.master_agent.mon [axi4_master_monitor] Write complete: ID=0x6 ADDR=0x65272386 RESP=AXI4_RESP_OKAY
# UVM_INFO ../src/env/axi4_scoreboard.sv(87) @ 335000: uvm_test_top.env.scb [axi4_scoreboard] Master AXI4_WRITE received: ID=0x6 ADDR=0x65272386 LEN=10
# UVM_INFO ../src/env/axi4_scoreboard.sv(271) @ 335000: uvm_test_top.env.scb [axi4_scoreboard] [WRITE] MATCH #1: ID=0x6 ADDR=0x65272386 LEN=10
# UVM_INFO ../src/env/axi4_scoreboard.sv(204) @ 335000: uvm_test_top.env.scb [axi4_scoreboard] [REF_MEM_WRITE] Addr=0x65272385 Data=0x88
# UVM_INFO ../src/env/axi4_scoreboard.sv(204) @ 335000: uvm_test_top.env.scb [axi4_scoreboard] [REF_MEM_WRITE] Addr=0x65272386 Data=0xf5
# UVM_INFO ../src/env/axi4_scoreboard.sv(204) @ 335000: uvm_test_top.env.scb [axi4_scoreboard] [REF_MEM_WRITE] Addr=0x6527238b Data=0x93
# UVM_INFO ../src/env/axi4_scoreboard.sv(204) @ 335000: uvm_test_top.env.scb [axi4_scoreboard] [REF_MEM_WRITE] Addr=0x6527238c Data=0x1b
# UVM_INFO ../src/env/axi4_scoreboard.sv(204) @ 335000: uvm_test_top.env.scb [axi4_scoreboard] [REF_MEM_WRITE] Addr=0x6527238d Data=0xf6
# UVM_INFO ../src/env/axi4_scoreboard.sv(204) @ 335000: uvm_test_top.env.scb [axi4_scoreboard] [REF_MEM_WRITE] Addr=0x6527238e Data=0x54
# UVM_INFO ../src/env/axi4_scoreboard.sv(204) @ 335000: uvm_test_top.env.scb [axi4_scoreboard] [REF_MEM_WRITE] Addr=0x6527238f Data=0xfa
# UVM_INFO ../src/env/axi4_scoreboard.sv(204) @ 335000: uvm_test_top.env.scb [axi4_scoreboard] [REF_MEM_WRITE] Addr=0x65272399 Data=0x74
# UVM_INFO ../src/env/axi4_scoreboard.sv(204) @ 335000: uvm_test_top.env.scb [axi4_scoreboard] [REF_MEM_WRITE] Addr=0x6527239c Data=0x3f
# UVM_INFO ../src/env/axi4_scoreboard.sv(204) @ 335000: uvm_test_top.env.scb [axi4_scoreboard] [REF_MEM_WRITE] Addr=0x6527239d Data=0x50
# UVM_INFO ../src/env/axi4_scoreboard.sv(204) @ 335000: uvm_test_top.env.scb [axi4_scoreboard] [REF_MEM_WRITE] Addr=0x652723a4 Data=0x5e
# UVM_INFO ../src/env/axi4_scoreboard.sv(204) @ 335000: uvm_test_top.env.scb [axi4_scoreboard] [REF_MEM_WRITE] Addr=0x652723aa Data=0x31
# UVM_INFO ../src/env/axi4_scoreboard.sv(204) @ 335000: uvm_test_top.env.scb [axi4_scoreboard] [REF_MEM_WRITE] Addr=0x652723ab Data=0x5f
# UVM_INFO ../src/env/axi4_scoreboard.sv(204) @ 335000: uvm_test_top.env.scb [axi4_scoreboard] [REF_MEM_WRITE] Addr=0x652723ad Data=0x31
# UVM_INFO ../src/env/axi4_scoreboard.sv(204) @ 335000: uvm_test_top.env.scb [axi4_scoreboard] [REF_MEM_WRITE] Addr=0x652723ae Data=0xb9
# UVM_INFO ../src/seq/axi4_write_read_back_seq.sv(60) @ 335000: uvm_test_top.env.master_agent.sqr@@wr_rd_seq_0 [axi4_write_read_back_seq] Write phase: ADDR=0x65272386 LEN=10 SIZE=AXI4_SIZE_4B BURST=AXI4_BURST_INCR
# UVM_INFO ../src/mst/axi4_master_driver.sv(55) @ 335000: uvm_test_top.env.master_agent.drv [axi4_master_driver] Driving AXI4_READ  ID=0xb  ADDR=0x65272386  LEN=10
# UVM_INFO ../src/slv/axi4_slave_driver.sv(302) @ 365000: uvm_test_top.env.slave_agent.drv [axi4_slave_driver] AR received: ID=0xb ADDR=0x65272386 LEN=10 LOCK=AXI4_LOCK_NORMAL
# UVM_INFO ../src/mst/axi4_master_monitor.sv(246) @ 365000: uvm_test_top.env.master_agent.mon [axi4_master_monitor] AR observed: ID=0xb ADDR=0x65272386 LEN=10
# UVM_INFO ../src/slv/axi4_slave_monitor.sv(224) @ 365000: uvm_test_top.env.slave_agent.mon [axi4_slave_monitor] AR received: ID=0xb ADDR=0x65272386 LEN=10
# UVM_INFO ../src/mst/axi4_master_driver.sv(254) @ 585000: uvm_test_top.env.master_agent.drv [axi4_master_driver] Read complete: 11 beats received
# UVM_INFO ../src/slv/axi4_slave_driver.sv(356) @ 585000: uvm_test_top.env.slave_agent.drv [axi4_slave_driver] Read complete: ID=0xb ADDR=0x65272386 RESP=AXI4_RESP_OKAY  11 beats sent
# UVM_INFO ../src/mst/axi4_master_monitor.sv(314) @ 585000: uvm_test_top.env.master_agent.mon [axi4_master_monitor] Read complete: ID=0xb ADDR=0x65272386 11 beats
# UVM_INFO ../src/env/axi4_scoreboard.sv(87) @ 585000: uvm_test_top.env.scb [axi4_scoreboard] Master AXI4_READ received: ID=0xb ADDR=0x65272386 LEN=10
# UVM_INFO ../src/slv/axi4_slave_monitor.sv(287) @ 585000: uvm_test_top.env.slave_agent.mon [axi4_slave_monitor] Read data sent: ID=0xb ADDR=0x65272386 11 beats
# UVM_INFO ../src/env/axi4_scoreboard.sv(108) @ 585000: uvm_test_top.env.scb [axi4_scoreboard] Slave AXI4_READ received: ID=0xb ADDR=0x65272386 LEN=10
# UVM_INFO ../src/env/axi4_scoreboard.sv(271) @ 585000: uvm_test_top.env.scb [axi4_scoreboard] [READ] MATCH #2: ID=0xb ADDR=0x65272386 LEN=10
# UVM_ERROR ../src/env/axi4_scoreboard.sv(250) @ 585000: uvm_test_top.env.scb [axi4_scoreboard] [DATA_INTEGRITY_FAIL] Read mismatch at Beat 0, Byte Lane 2! Addr=0x65272386 | Expected=0xf5, Actual=0x00
# UVM_ERROR ../src/env/axi4_scoreboard.sv(250) @ 585000: uvm_test_top.env.scb [axi4_scoreboard] [DATA_INTEGRITY_FAIL] Read mismatch at Beat 1, Byte Lane 3! Addr=0x6527238b | Expected=0x93, Actual=0x00
# UVM_ERROR ../src/env/axi4_scoreboard.sv(250) @ 585000: uvm_test_top.env.scb [axi4_scoreboard] [DATA_INTEGRITY_FAIL] Read mismatch at Beat 2, Byte Lane 0! Addr=0x6527238c | Expected=0x1b, Actual=0x00
# UVM_ERROR ../src/env/axi4_scoreboard.sv(250) @ 585000: uvm_test_top.env.scb [axi4_scoreboard] [DATA_INTEGRITY_FAIL] Read mismatch at Beat 2, Byte Lane 1! Addr=0x6527238d | Expected=0xf6, Actual=0x00
# UVM_ERROR ../src/env/axi4_scoreboard.sv(250) @ 585000: uvm_test_top.env.scb [axi4_scoreboard] [DATA_INTEGRITY_FAIL] Read mismatch at Beat 2, Byte Lane 2! Addr=0x6527238e | Expected=0x54, Actual=0x00
# UVM_ERROR ../src/env/axi4_scoreboard.sv(250) @ 585000: uvm_test_top.env.scb [axi4_scoreboard] [DATA_INTEGRITY_FAIL] Read mismatch at Beat 2, Byte Lane 3! Addr=0x6527238f | Expected=0xfa, Actual=0x00
# UVM_ERROR ../src/env/axi4_scoreboard.sv(250) @ 585000: uvm_test_top.env.scb [axi4_scoreboard] [DATA_INTEGRITY_FAIL] Read mismatch at Beat 5, Byte Lane 1! Addr=0x65272399 | Expected=0x74, Actual=0x00
# UVM_ERROR ../src/env/axi4_scoreboard.sv(250) @ 585000: uvm_test_top.env.scb [axi4_scoreboard] [DATA_INTEGRITY_FAIL] Read mismatch at Beat 6, Byte Lane 0! Addr=0x6527239c | Expected=0x3f, Actual=0x00
# UVM_ERROR ../src/env/axi4_scoreboard.sv(250) @ 585000: uvm_test_top.env.scb [axi4_scoreboard] [DATA_INTEGRITY_FAIL] Read mismatch at Beat 6, Byte Lane 1! Addr=0x6527239d | Expected=0x50, Actual=0x00
# UVM_ERROR ../src/env/axi4_scoreboard.sv(250) @ 585000: uvm_test_top.env.scb [axi4_scoreboard] [DATA_INTEGRITY_FAIL] Read mismatch at Beat 8, Byte Lane 0! Addr=0x652723a4 | Expected=0x5e, Actual=0x00
# UVM_ERROR ../src/env/axi4_scoreboard.sv(250) @ 585000: uvm_test_top.env.scb [axi4_scoreboard] [DATA_INTEGRITY_FAIL] Read mismatch at Beat 9, Byte Lane 2! Addr=0x652723aa | Expected=0x31, Actual=0x00
# UVM_ERROR ../src/env/axi4_scoreboard.sv(250) @ 585000: uvm_test_top.env.scb [axi4_scoreboard] [DATA_INTEGRITY_FAIL] Read mismatch at Beat 9, Byte Lane 3! Addr=0x652723ab | Expected=0x5f, Actual=0x00
# UVM_ERROR ../src/env/axi4_scoreboard.sv(250) @ 585000: uvm_test_top.env.scb [axi4_scoreboard] [DATA_INTEGRITY_FAIL] Read mismatch at Beat 10, Byte Lane 1! Addr=0x652723ad | Expected=0x31, Actual=0x00
# UVM_ERROR ../src/env/axi4_scoreboard.sv(250) @ 585000: uvm_test_top.env.scb [axi4_scoreboard] [DATA_INTEGRITY_FAIL] Read mismatch at Beat 10, Byte Lane 2! Addr=0x652723ae | Expected=0xb9, Actual=0x00
# UVM_INFO ../src/seq/axi4_write_read_back_seq.sv(80) @ 585000: uvm_test_top.env.master_agent.sqr@@wr_rd_seq_0 [axi4_write_read_back_seq] Read-back phase: ADDR=0x65272386 LEN=10 - data integrity check via scoreboard
# UVM_INFO ../src/test/axi4_wr_rd_test.sv(52) @ 585000: uvm_test_top [axi4_wr_rd_test] [2/10] ADDR=0x331fa6ea LEN=1 BURST=AXI4_BURST_INCR
# UVM_INFO ../src/mst/axi4_master_driver.sv(55) @ 585000: uvm_test_top.env.master_agent.drv [axi4_master_driver] Driving AXI4_WRITE  ID=0x6  ADDR=0x331fa6ea  LEN=1
# UVM_INFO ../src/mst/axi4_master_driver.sv(101) @ 585000: uvm_test_top.env.master_agent.drv [axi4_master_driver] Write order: AW -> W (sequential)
# UVM_INFO ../src/slv/axi4_slave_driver.sv(165) @ 615000: uvm_test_top.env.slave_agent.drv [axi4_slave_driver] AW received: ID=0x6 ADDR=0x331fa6ea LEN=1 LOCK=AXI4_LOCK_EXCLUSIVE
# UVM_INFO ../src/slv/axi4_slave_monitor.sv(116) @ 615000: uvm_test_top.env.slave_agent.mon [axi4_slave_monitor] AW received: ID=0x6 ADDR=0x331fa6ea LEN=1
# UVM_INFO ../src/mst/axi4_master_monitor.sv(124) @ 615000: uvm_test_top.env.master_agent.mon [axi4_master_monitor] AW observed: ID=0x6 ADDR=0x331fa6ea LEN=1
# UVM_INFO ../src/slv/axi4_slave_monitor.sv(167) @ 655000: uvm_test_top.env.slave_agent.mon [axi4_slave_monitor] W data assembled: ID=0x6 ADDR=0x331fa6ea 2 beats
# UVM_INFO ../src/mst/axi4_master_monitor.sv(184) @ 655000: uvm_test_top.env.master_agent.mon [axi4_master_monitor] W data assembled: ID=0x6 ADDR=0x331fa6ea 2 beats
# UVM_INFO ../src/mst/axi4_master_driver.sv(197) @ 685000: uvm_test_top.env.master_agent.drv [axi4_master_driver] Write response: AXI4_RESP_OKAY
# UVM_INFO ../src/slv/axi4_slave_driver.sv(263) @ 685000: uvm_test_top.env.slave_agent.drv [axi4_slave_driver] Write complete: ID=0x6 ADDR=0x331fa6ea RESP=AXI4_RESP_OKAY  2 beats processed
# UVM_INFO ../src/mst/axi4_master_monitor.sv(210) @ 685000: uvm_test_top.env.master_agent.mon [axi4_master_monitor] Write complete: ID=0x6 ADDR=0x331fa6ea RESP=AXI4_RESP_OKAY
# UVM_INFO ../src/env/axi4_scoreboard.sv(87) @ 685000: uvm_test_top.env.scb [axi4_scoreboard] Master AXI4_WRITE received: ID=0x6 ADDR=0x331fa6ea LEN=1
# UVM_INFO ../src/slv/axi4_slave_monitor.sv(189) @ 685000: uvm_test_top.env.slave_agent.mon [axi4_slave_monitor] Write response sent: ID=0x6 ADDR=0x331fa6ea RESP=AXI4_RESP_OKAY
# UVM_INFO ../src/env/axi4_scoreboard.sv(108) @ 685000: uvm_test_top.env.scb [axi4_scoreboard] Slave AXI4_WRITE received: ID=0x6 ADDR=0x331fa6ea LEN=1
# UVM_INFO ../src/env/axi4_scoreboard.sv(271) @ 685000: uvm_test_top.env.scb [axi4_scoreboard] [WRITE] MATCH #3: ID=0x6 ADDR=0x331fa6ea LEN=1
# UVM_INFO ../src/env/axi4_scoreboard.sv(204) @ 685000: uvm_test_top.env.scb [axi4_scoreboard] [REF_MEM_WRITE] Addr=0x331fa6ec Data=0x4d
# UVM_INFO ../src/env/axi4_scoreboard.sv(204) @ 685000: uvm_test_top.env.scb [axi4_scoreboard] [REF_MEM_WRITE] Addr=0x331fa6ed Data=0xeb
# UVM_INFO ../src/env/axi4_scoreboard.sv(204) @ 685000: uvm_test_top.env.scb [axi4_scoreboard] [REF_MEM_WRITE] Addr=0x331fa6ee Data=0x91
# UVM_INFO ../src/seq/axi4_write_read_back_seq.sv(60) @ 685000: uvm_test_top.env.master_agent.sqr@@wr_rd_seq_1 [axi4_write_read_back_seq] Write phase: ADDR=0x331fa6ea LEN=1 SIZE=AXI4_SIZE_4B BURST=AXI4_BURST_INCR
# UVM_INFO ../src/mst/axi4_master_driver.sv(55) @ 685000: uvm_test_top.env.master_agent.drv [axi4_master_driver] Driving AXI4_READ  ID=0x1  ADDR=0x331fa6ea  LEN=1
# UVM_INFO ../src/slv/axi4_slave_driver.sv(302) @ 715000: uvm_test_top.env.slave_agent.drv [axi4_slave_driver] AR received: ID=0x1 ADDR=0x331fa6ea LEN=1 LOCK=AXI4_LOCK_EXCLUSIVE
# UVM_INFO ../src/slv/axi4_slave_monitor.sv(224) @ 715000: uvm_test_top.env.slave_agent.mon [axi4_slave_monitor] AR received: ID=0x1 ADDR=0x331fa6ea LEN=1
# UVM_INFO ../src/mst/axi4_master_monitor.sv(246) @ 715000: uvm_test_top.env.master_agent.mon [axi4_master_monitor] AR observed: ID=0x1 ADDR=0x331fa6ea LEN=1
# UVM_INFO ../src/mst/axi4_master_driver.sv(254) @ 755000: uvm_test_top.env.master_agent.drv [axi4_master_driver] Read complete: 2 beats received
# UVM_INFO ../src/slv/axi4_slave_driver.sv(356) @ 755000: uvm_test_top.env.slave_agent.drv [axi4_slave_driver] Read complete: ID=0x1 ADDR=0x331fa6ea RESP=AXI4_RESP_EXOKAY  2 beats sent
# UVM_INFO ../src/slv/axi4_slave_monitor.sv(287) @ 755000: uvm_test_top.env.slave_agent.mon [axi4_slave_monitor] Read data sent: ID=0x1 ADDR=0x331fa6ea 2 beats
# UVM_INFO ../src/env/axi4_scoreboard.sv(108) @ 755000: uvm_test_top.env.scb [axi4_scoreboard] Slave AXI4_READ received: ID=0x1 ADDR=0x331fa6ea LEN=1
# UVM_INFO ../src/mst/axi4_master_monitor.sv(314) @ 755000: uvm_test_top.env.master_agent.mon [axi4_master_monitor] Read complete: ID=0x1 ADDR=0x331fa6ea 2 beats
# UVM_INFO ../src/env/axi4_scoreboard.sv(87) @ 755000: uvm_test_top.env.scb [axi4_scoreboard] Master AXI4_READ received: ID=0x1 ADDR=0x331fa6ea LEN=1
# UVM_INFO ../src/env/axi4_scoreboard.sv(271) @ 755000: uvm_test_top.env.scb [axi4_scoreboard] [READ] MATCH #4: ID=0x1 ADDR=0x331fa6ea LEN=1
# UVM_ERROR ../src/env/axi4_scoreboard.sv(250) @ 755000: uvm_test_top.env.scb [axi4_scoreboard] [DATA_INTEGRITY_FAIL] Read mismatch at Beat 0, Byte Lane 0! Addr=0x331fa6ec | Expected=0x4d, Actual=0x00
# UVM_ERROR ../src/env/axi4_scoreboard.sv(250) @ 755000: uvm_test_top.env.scb [axi4_scoreboard] [DATA_INTEGRITY_FAIL] Read mismatch at Beat 0, Byte Lane 1! Addr=0x331fa6ed | Expected=0xeb, Actual=0x00
# UVM_ERROR ../src/env/axi4_scoreboard.sv(250) @ 755000: uvm_test_top.env.scb [axi4_scoreboard] [DATA_INTEGRITY_FAIL] Read mismatch at Beat 1, Byte Lane 0! Addr=0x331fa6ec | Expected=0x4d, Actual=0x00
# UVM_ERROR ../src/env/axi4_scoreboard.sv(250) @ 755000: uvm_test_top.env.scb [axi4_scoreboard] [DATA_INTEGRITY_FAIL] Read mismatch at Beat 1, Byte Lane 1! Addr=0x331fa6ed | Expected=0xeb, Actual=0x00
# UVM_ERROR ../src/env/axi4_scoreboard.sv(250) @ 755000: uvm_test_top.env.scb [axi4_scoreboard] [DATA_INTEGRITY_FAIL] Read mismatch at Beat 1, Byte Lane 2! Addr=0x331fa6ee | Expected=0x91, Actual=0x00
# UVM_INFO ../src/seq/axi4_write_read_back_seq.sv(80) @ 755000: uvm_test_top.env.master_agent.sqr@@wr_rd_seq_1 [axi4_write_read_back_seq] Read-back phase: ADDR=0x331fa6ea LEN=1 - data integrity check via scoreboard
# UVM_INFO ../src/test/axi4_wr_rd_test.sv(52) @ 755000: uvm_test_top [axi4_wr_rd_test] [3/10] ADDR=0xa4a9223a LEN=10 BURST=AXI4_BURST_INCR
# UVM_INFO ../src/mst/axi4_master_driver.sv(55) @ 755000: uvm_test_top.env.master_agent.drv [axi4_master_driver] Driving AXI4_WRITE  ID=0xe  ADDR=0xa4a9223a  LEN=10
# UVM_INFO ../src/mst/axi4_master_driver.sv(94) @ 755000: uvm_test_top.env.master_agent.drv [axi4_master_driver] Write order: AW || W (parallel)
# UVM_INFO ../src/slv/axi4_slave_driver.sv(165) @ 785000: uvm_test_top.env.slave_agent.drv [axi4_slave_driver] AW received: ID=0xe ADDR=0xa4a9223a LEN=10 LOCK=AXI4_LOCK_NORMAL
# UVM_INFO ../src/mst/axi4_master_monitor.sv(124) @ 785000: uvm_test_top.env.master_agent.mon [axi4_master_monitor] AW observed: ID=0xe ADDR=0xa4a9223a LEN=10
# UVM_INFO ../src/slv/axi4_slave_monitor.sv(116) @ 785000: uvm_test_top.env.slave_agent.mon [axi4_slave_monitor] AW received: ID=0xe ADDR=0xa4a9223a LEN=10
# UVM_INFO ../src/slv/axi4_slave_monitor.sv(167) @ 975000: uvm_test_top.env.slave_agent.mon [axi4_slave_monitor] W data assembled: ID=0xe ADDR=0xa4a9223a 11 beats
# UVM_INFO ../src/mst/axi4_master_monitor.sv(184) @ 975000: uvm_test_top.env.master_agent.mon [axi4_master_monitor] W data assembled: ID=0xe ADDR=0xa4a9223a 11 beats
# UVM_INFO ../src/mst/axi4_master_driver.sv(197) @ 1005000: uvm_test_top.env.master_agent.drv [axi4_master_driver] Write response: AXI4_RESP_OKAY
# UVM_INFO ../src/slv/axi4_slave_driver.sv(263) @ 1005000: uvm_test_top.env.slave_agent.drv [axi4_slave_driver] Write complete: ID=0xe ADDR=0xa4a9223a RESP=AXI4_RESP_OKAY  11 beats processed
# UVM_INFO ../src/mst/axi4_master_monitor.sv(210) @ 1005000: uvm_test_top.env.master_agent.mon [axi4_master_monitor] Write complete: ID=0xe ADDR=0xa4a9223a RESP=AXI4_RESP_OKAY
# UVM_INFO ../src/env/axi4_scoreboard.sv(87) @ 1005000: uvm_test_top.env.scb [axi4_scoreboard] Master AXI4_WRITE received: ID=0xe ADDR=0xa4a9223a LEN=10
# UVM_INFO ../src/slv/axi4_slave_monitor.sv(189) @ 1005000: uvm_test_top.env.slave_agent.mon [axi4_slave_monitor] Write response sent: ID=0xe ADDR=0xa4a9223a RESP=AXI4_RESP_OKAY
# UVM_INFO ../src/env/axi4_scoreboard.sv(108) @ 1005000: uvm_test_top.env.scb [axi4_scoreboard] Slave AXI4_WRITE received: ID=0xe ADDR=0xa4a9223a LEN=10
# UVM_INFO ../src/env/axi4_scoreboard.sv(271) @ 1005000: uvm_test_top.env.scb [axi4_scoreboard] [WRITE] MATCH #5: ID=0xe ADDR=0xa4a9223a LEN=10
# UVM_INFO ../src/env/axi4_scoreboard.sv(204) @ 1005000: uvm_test_top.env.scb [axi4_scoreboard] [REF_MEM_WRITE] Addr=0xa4a9223a Data=0x44
# UVM_INFO ../src/env/axi4_scoreboard.sv(204) @ 1005000: uvm_test_top.env.scb [axi4_scoreboard] [REF_MEM_WRITE] Addr=0xa4a92241 Data=0x14
# UVM_INFO ../src/env/axi4_scoreboard.sv(204) @ 1005000: uvm_test_top.env.scb [axi4_scoreboard] [REF_MEM_WRITE] Addr=0xa4a92242 Data=0xe0
# UVM_INFO ../src/env/axi4_scoreboard.sv(204) @ 1005000: uvm_test_top.env.scb [axi4_scoreboard] [REF_MEM_WRITE] Addr=0xa4a9224a Data=0xbd
# UVM_INFO ../src/env/axi4_scoreboard.sv(204) @ 1005000: uvm_test_top.env.scb [axi4_scoreboard] [REF_MEM_WRITE] Addr=0xa4a9224c Data=0xa9
# UVM_INFO ../src/env/axi4_scoreboard.sv(204) @ 1005000: uvm_test_top.env.scb [axi4_scoreboard] [REF_MEM_WRITE] Addr=0xa4a9224d Data=0x50
# UVM_INFO ../src/env/axi4_scoreboard.sv(204) @ 1005000: uvm_test_top.env.scb [axi4_scoreboard] [REF_MEM_WRITE] Addr=0xa4a9224e Data=0xf6
# UVM_INFO ../src/env/axi4_scoreboard.sv(204) @ 1005000: uvm_test_top.env.scb [axi4_scoreboard] [REF_MEM_WRITE] Addr=0xa4a92251 Data=0xd5
# UVM_INFO ../src/env/axi4_scoreboard.sv(204) @ 1005000: uvm_test_top.env.scb [axi4_scoreboard] [REF_MEM_WRITE] Addr=0xa4a92256 Data=0x4e
# UVM_INFO ../src/env/axi4_scoreboard.sv(204) @ 1005000: uvm_test_top.env.scb [axi4_scoreboard] [REF_MEM_WRITE] Addr=0xa4a92257 Data=0x2f
# UVM_INFO ../src/env/axi4_scoreboard.sv(204) @ 1005000: uvm_test_top.env.scb [axi4_scoreboard] [REF_MEM_WRITE] Addr=0xa4a92258 Data=0xda
# UVM_INFO ../src/env/axi4_scoreboard.sv(204) @ 1005000: uvm_test_top.env.scb [axi4_scoreboard] [REF_MEM_WRITE] Addr=0xa4a92259 Data=0x16
# UVM_INFO ../src/env/axi4_scoreboard.sv(204) @ 1005000: uvm_test_top.env.scb [axi4_scoreboard] [REF_MEM_WRITE] Addr=0xa4a9225c Data=0x5f
# UVM_INFO ../src/seq/axi4_write_read_back_seq.sv(60) @ 1005000: uvm_test_top.env.master_agent.sqr@@wr_rd_seq_2 [axi4_write_read_back_seq] Write phase: ADDR=0xa4a9223a LEN=10 SIZE=AXI4_SIZE_4B BURST=AXI4_BURST_INCR
# UVM_INFO ../src/mst/axi4_master_driver.sv(55) @ 1005000: uvm_test_top.env.master_agent.drv [axi4_master_driver] Driving AXI4_READ  ID=0x0  ADDR=0xa4a9223a  LEN=10
# UVM_INFO ../src/slv/axi4_slave_driver.sv(302) @ 1035000: uvm_test_top.env.slave_agent.drv [axi4_slave_driver] AR received: ID=0x0 ADDR=0xa4a9223a LEN=10 LOCK=AXI4_LOCK_EXCLUSIVE
# UVM_INFO ../src/slv/axi4_slave_monitor.sv(224) @ 1035000: uvm_test_top.env.slave_agent.mon [axi4_slave_monitor] AR received: ID=0x0 ADDR=0xa4a9223a LEN=10
# UVM_INFO ../src/mst/axi4_master_monitor.sv(246) @ 1035000: uvm_test_top.env.master_agent.mon [axi4_master_monitor] AR observed: ID=0x0 ADDR=0xa4a9223a LEN=10
# UVM_INFO ../src/mst/axi4_master_driver.sv(254) @ 1255000: uvm_test_top.env.master_agent.drv [axi4_master_driver] Read complete: 11 beats received
# UVM_INFO ../src/slv/axi4_slave_driver.sv(356) @ 1255000: uvm_test_top.env.slave_agent.drv [axi4_slave_driver] Read complete: ID=0x0 ADDR=0xa4a9223a RESP=AXI4_RESP_EXOKAY  11 beats sent
# UVM_INFO ../src/slv/axi4_slave_monitor.sv(287) @ 1255000: uvm_test_top.env.slave_agent.mon [axi4_slave_monitor] Read data sent: ID=0x0 ADDR=0xa4a9223a 11 beats
# UVM_INFO ../src/env/axi4_scoreboard.sv(108) @ 1255000: uvm_test_top.env.scb [axi4_scoreboard] Slave AXI4_READ received: ID=0x0 ADDR=0xa4a9223a LEN=10
# UVM_INFO ../src/mst/axi4_master_monitor.sv(314) @ 1255000: uvm_test_top.env.master_agent.mon [axi4_master_monitor] Read complete: ID=0x0 ADDR=0xa4a9223a 11 beats
# UVM_INFO ../src/env/axi4_scoreboard.sv(87) @ 1255000: uvm_test_top.env.scb [axi4_scoreboard] Master AXI4_READ received: ID=0x0 ADDR=0xa4a9223a LEN=10
# UVM_INFO ../src/env/axi4_scoreboard.sv(271) @ 1255000: uvm_test_top.env.scb [axi4_scoreboard] [READ] MATCH #6: ID=0x0 ADDR=0xa4a9223a LEN=10
# UVM_INFO ../src/seq/axi4_write_read_back_seq.sv(80) @ 1255000: uvm_test_top.env.master_agent.sqr@@wr_rd_seq_2 [axi4_write_read_back_seq] Read-back phase: ADDR=0xa4a9223a LEN=10 - data integrity check via scoreboard
# UVM_INFO ../src/test/axi4_wr_rd_test.sv(52) @ 1255000: uvm_test_top [axi4_wr_rd_test] [4/10] ADDR=0x5d9e830c LEN=13 BURST=AXI4_BURST_INCR
# UVM_INFO ../src/mst/axi4_master_driver.sv(55) @ 1255000: uvm_test_top.env.master_agent.drv [axi4_master_driver] Driving AXI4_WRITE  ID=0xc  ADDR=0x5d9e830c  LEN=13
# UVM_INFO ../src/mst/axi4_master_driver.sv(106) @ 1255000: uvm_test_top.env.master_agent.drv [axi4_master_driver] Write order: W -> AW (W first)
# UVM_INFO ../src/slv/axi4_slave_driver.sv(165) @ 1305000: uvm_test_top.env.slave_agent.drv [axi4_slave_driver] AW received: ID=0xc ADDR=0x5d9e830c LEN=13 LOCK=AXI4_LOCK_NORMAL
# UVM_INFO ../src/mst/axi4_master_monitor.sv(124) @ 1305000: uvm_test_top.env.master_agent.mon [axi4_master_monitor] AW observed: ID=0xc ADDR=0x5d9e830c LEN=13
# UVM_INFO ../src/slv/axi4_slave_monitor.sv(116) @ 1305000: uvm_test_top.env.slave_agent.mon [axi4_slave_monitor] AW received: ID=0xc ADDR=0x5d9e830c LEN=13
# UVM_INFO ../src/slv/axi4_slave_monitor.sv(167) @ 1535000: uvm_test_top.env.slave_agent.mon [axi4_slave_monitor] W data assembled: ID=0xc ADDR=0x5d9e830c 14 beats
# UVM_INFO ../src/mst/axi4_master_monitor.sv(184) @ 1535000: uvm_test_top.env.master_agent.mon [axi4_master_monitor] W data assembled: ID=0xc ADDR=0x5d9e830c 14 beats
# UVM_INFO ../src/mst/axi4_master_driver.sv(197) @ 1565000: uvm_test_top.env.master_agent.drv [axi4_master_driver] Write response: AXI4_RESP_OKAY
# UVM_INFO ../src/slv/axi4_slave_driver.sv(263) @ 1565000: uvm_test_top.env.slave_agent.drv [axi4_slave_driver] Write complete: ID=0xc ADDR=0x5d9e830c RESP=AXI4_RESP_OKAY  14 beats processed
# UVM_INFO ../src/mst/axi4_master_monitor.sv(210) @ 1565000: uvm_test_top.env.master_agent.mon [axi4_master_monitor] Write complete: ID=0xc ADDR=0x5d9e830c RESP=AXI4_RESP_OKAY
# UVM_INFO ../src/env/axi4_scoreboard.sv(87) @ 1565000: uvm_test_top.env.scb [axi4_scoreboard] Master AXI4_WRITE received: ID=0xc ADDR=0x5d9e830c LEN=13
# UVM_INFO ../src/slv/axi4_slave_monitor.sv(189) @ 1565000: uvm_test_top.env.slave_agent.mon [axi4_slave_monitor] Write response sent: ID=0xc ADDR=0x5d9e830c RESP=AXI4_RESP_OKAY
# UVM_INFO ../src/env/axi4_scoreboard.sv(108) @ 1565000: uvm_test_top.env.scb [axi4_scoreboard] Slave AXI4_WRITE received: ID=0xc ADDR=0x5d9e830c LEN=13
# UVM_INFO ../src/env/axi4_scoreboard.sv(271) @ 1565000: uvm_test_top.env.scb [axi4_scoreboard] [WRITE] MATCH #7: ID=0xc ADDR=0x5d9e830c LEN=13
# UVM_INFO ../src/env/axi4_scoreboard.sv(204) @ 1565000: uvm_test_top.env.scb [axi4_scoreboard] [REF_MEM_WRITE] Addr=0x5d9e830e Data=0x98
# UVM_INFO ../src/env/axi4_scoreboard.sv(204) @ 1565000: uvm_test_top.env.scb [axi4_scoreboard] [REF_MEM_WRITE] Addr=0x5d9e830f Data=0xf8
# UVM_INFO ../src/env/axi4_scoreboard.sv(204) @ 1565000: uvm_test_top.env.scb [axi4_scoreboard] [REF_MEM_WRITE] Addr=0x5d9e8310 Data=0x80
# UVM_INFO ../src/env/axi4_scoreboard.sv(204) @ 1565000: uvm_test_top.env.scb [axi4_scoreboard] [REF_MEM_WRITE] Addr=0x5d9e8311 Data=0xcd
# UVM_INFO ../src/env/axi4_scoreboard.sv(204) @ 1565000: uvm_test_top.env.scb [axi4_scoreboard] [REF_MEM_WRITE] Addr=0x5d9e8314 Data=0xb2
# UVM_INFO ../src/env/axi4_scoreboard.sv(204) @ 1565000: uvm_test_top.env.scb [axi4_scoreboard] [REF_MEM_WRITE] Addr=0x5d9e8315 Data=0x89
# UVM_INFO ../src/env/axi4_scoreboard.sv(204) @ 1565000: uvm_test_top.env.scb [axi4_scoreboard] [REF_MEM_WRITE] Addr=0x5d9e8317 Data=0x9c
# UVM_INFO ../src/env/axi4_scoreboard.sv(204) @ 1565000: uvm_test_top.env.scb [axi4_scoreboard] [REF_MEM_WRITE] Addr=0x5d9e8318 Data=0xd0
# UVM_INFO ../src/env/axi4_scoreboard.sv(204) @ 1565000: uvm_test_top.env.scb [axi4_scoreboard] [REF_MEM_WRITE] Addr=0x5d9e8319 Data=0xd6
# UVM_INFO ../src/env/axi4_scoreboard.sv(204) @ 1565000: uvm_test_top.env.scb [axi4_scoreboard] [REF_MEM_WRITE] Addr=0x5d9e831a Data=0x28
# UVM_INFO ../src/env/axi4_scoreboard.sv(204) @ 1565000: uvm_test_top.env.scb [axi4_scoreboard] [REF_MEM_WRITE] Addr=0x5d9e831b Data=0x99
# UVM_INFO ../src/env/axi4_scoreboard.sv(204) @ 1565000: uvm_test_top.env.scb [axi4_scoreboard] [REF_MEM_WRITE] Addr=0x5d9e831d Data=0xa3
# UVM_INFO ../src/env/axi4_scoreboard.sv(204) @ 1565000: uvm_test_top.env.scb [axi4_scoreboard] [REF_MEM_WRITE] Addr=0x5d9e831f Data=0x7e
# UVM_INFO ../src/env/axi4_scoreboard.sv(204) @ 1565000: uvm_test_top.env.scb [axi4_scoreboard] [REF_MEM_WRITE] Addr=0x5d9e8320 Data=0xe1
# UVM_INFO ../src/env/axi4_scoreboard.sv(204) @ 1565000: uvm_test_top.env.scb [axi4_scoreboard] [REF_MEM_WRITE] Addr=0x5d9e8321 Data=0x9c
# UVM_INFO ../src/env/axi4_scoreboard.sv(204) @ 1565000: uvm_test_top.env.scb [axi4_scoreboard] [REF_MEM_WRITE] Addr=0x5d9e8327 Data=0x94
# UVM_INFO ../src/env/axi4_scoreboard.sv(204) @ 1565000: uvm_test_top.env.scb [axi4_scoreboard] [REF_MEM_WRITE] Addr=0x5d9e8328 Data=0x18
# UVM_INFO ../src/env/axi4_scoreboard.sv(204) @ 1565000: uvm_test_top.env.scb [axi4_scoreboard] [REF_MEM_WRITE] Addr=0x5d9e8329 Data=0x43
# UVM_INFO ../src/env/axi4_scoreboard.sv(204) @ 1565000: uvm_test_top.env.scb [axi4_scoreboard] [REF_MEM_WRITE] Addr=0x5d9e832d Data=0x8c
# UVM_INFO ../src/env/axi4_scoreboard.sv(204) @ 1565000: uvm_test_top.env.scb [axi4_scoreboard] [REF_MEM_WRITE] Addr=0x5d9e832e Data=0xc8
# UVM_INFO ../src/env/axi4_scoreboard.sv(204) @ 1565000: uvm_test_top.env.scb [axi4_scoreboard] [REF_MEM_WRITE] Addr=0x5d9e832f Data=0x1a
# UVM_INFO ../src/env/axi4_scoreboard.sv(204) @ 1565000: uvm_test_top.env.scb [axi4_scoreboard] [REF_MEM_WRITE] Addr=0x5d9e8330 Data=0x0f
# UVM_INFO ../src/env/axi4_scoreboard.sv(204) @ 1565000: uvm_test_top.env.scb [axi4_scoreboard] [REF_MEM_WRITE] Addr=0x5d9e8333 Data=0xa3
# UVM_INFO ../src/env/axi4_scoreboard.sv(204) @ 1565000: uvm_test_top.env.scb [axi4_scoreboard] [REF_MEM_WRITE] Addr=0x5d9e8334 Data=0x2f
# UVM_INFO ../src/env/axi4_scoreboard.sv(204) @ 1565000: uvm_test_top.env.scb [axi4_scoreboard] [REF_MEM_WRITE] Addr=0x5d9e8336 Data=0x95
# UVM_INFO ../src/env/axi4_scoreboard.sv(204) @ 1565000: uvm_test_top.env.scb [axi4_scoreboard] [REF_MEM_WRITE] Addr=0x5d9e8337 Data=0xf1
# UVM_INFO ../src/env/axi4_scoreboard.sv(204) @ 1565000: uvm_test_top.env.scb [axi4_scoreboard] [REF_MEM_WRITE] Addr=0x5d9e8338 Data=0xc5
# UVM_INFO ../src/env/axi4_scoreboard.sv(204) @ 1565000: uvm_test_top.env.scb [axi4_scoreboard] [REF_MEM_WRITE] Addr=0x5d9e8339 Data=0xe3
# UVM_INFO ../src/env/axi4_scoreboard.sv(204) @ 1565000: uvm_test_top.env.scb [axi4_scoreboard] [REF_MEM_WRITE] Addr=0x5d9e833c Data=0x85
# UVM_INFO ../src/env/axi4_scoreboard.sv(204) @ 1565000: uvm_test_top.env.scb [axi4_scoreboard] [REF_MEM_WRITE] Addr=0x5d9e833f Data=0x78
# UVM_INFO ../src/env/axi4_scoreboard.sv(204) @ 1565000: uvm_test_top.env.scb [axi4_scoreboard] [REF_MEM_WRITE] Addr=0x5d9e8340 Data=0xcb
# UVM_INFO ../src/env/axi4_scoreboard.sv(204) @ 1565000: uvm_test_top.env.scb [axi4_scoreboard] [REF_MEM_WRITE] Addr=0x5d9e8341 Data=0x38
# UVM_INFO ../src/env/axi4_scoreboard.sv(204) @ 1565000: uvm_test_top.env.scb [axi4_scoreboard] [REF_MEM_WRITE] Addr=0x5d9e8342 Data=0x65
# UVM_INFO ../src/env/axi4_scoreboard.sv(204) @ 1565000: uvm_test_top.env.scb [axi4_scoreboard] [REF_MEM_WRITE] Addr=0x5d9e8343 Data=0x36
# UVM_INFO ../src/seq/axi4_write_read_back_seq.sv(60) @ 1565000: uvm_test_top.env.master_agent.sqr@@wr_rd_seq_3 [axi4_write_read_back_seq] Write phase: ADDR=0x5d9e830c LEN=13 SIZE=AXI4_SIZE_4B BURST=AXI4_BURST_INCR
# UVM_INFO ../src/mst/axi4_master_driver.sv(55) @ 1565000: uvm_test_top.env.master_agent.drv [axi4_master_driver] Driving AXI4_READ  ID=0xf  ADDR=0x5d9e830c  LEN=13
# UVM_INFO ../src/slv/axi4_slave_driver.sv(302) @ 1595000: uvm_test_top.env.slave_agent.drv [axi4_slave_driver] AR received: ID=0xf ADDR=0x5d9e830c LEN=13 LOCK=AXI4_LOCK_EXCLUSIVE
# UVM_INFO ../src/slv/axi4_slave_monitor.sv(224) @ 1595000: uvm_test_top.env.slave_agent.mon [axi4_slave_monitor] AR received: ID=0xf ADDR=0x5d9e830c LEN=13
# UVM_INFO ../src/mst/axi4_master_monitor.sv(246) @ 1595000: uvm_test_top.env.master_agent.mon [axi4_master_monitor] AR observed: ID=0xf ADDR=0x5d9e830c LEN=13
# UVM_INFO ../src/mst/axi4_master_driver.sv(254) @ 1875000: uvm_test_top.env.master_agent.drv [axi4_master_driver] Read complete: 14 beats received
# UVM_INFO ../src/slv/axi4_slave_driver.sv(356) @ 1875000: uvm_test_top.env.slave_agent.drv [axi4_slave_driver] Read complete: ID=0xf ADDR=0x5d9e830c RESP=AXI4_RESP_EXOKAY  14 beats sent
# UVM_INFO ../src/slv/axi4_slave_monitor.sv(287) @ 1875000: uvm_test_top.env.slave_agent.mon [axi4_slave_monitor] Read data sent: ID=0xf ADDR=0x5d9e830c 14 beats
# UVM_INFO ../src/env/axi4_scoreboard.sv(108) @ 1875000: uvm_test_top.env.scb [axi4_scoreboard] Slave AXI4_READ received: ID=0xf ADDR=0x5d9e830c LEN=13
# UVM_INFO ../src/mst/axi4_master_monitor.sv(314) @ 1875000: uvm_test_top.env.master_agent.mon [axi4_master_monitor] Read complete: ID=0xf ADDR=0x5d9e830c 14 beats
# UVM_INFO ../src/env/axi4_scoreboard.sv(87) @ 1875000: uvm_test_top.env.scb [axi4_scoreboard] Master AXI4_READ received: ID=0xf ADDR=0x5d9e830c LEN=13
# UVM_INFO ../src/env/axi4_scoreboard.sv(271) @ 1875000: uvm_test_top.env.scb [axi4_scoreboard] [READ] MATCH #8: ID=0xf ADDR=0x5d9e830c LEN=13
# UVM_INFO ../src/seq/axi4_write_read_back_seq.sv(80) @ 1875000: uvm_test_top.env.master_agent.sqr@@wr_rd_seq_3 [axi4_write_read_back_seq] Read-back phase: ADDR=0x5d9e830c LEN=13 - data integrity check via scoreboard
# UVM_INFO ../src/test/axi4_wr_rd_test.sv(52) @ 1875000: uvm_test_top [axi4_wr_rd_test] [5/10] ADDR=0x1b7edf13 LEN=2 BURST=AXI4_BURST_INCR
# UVM_INFO ../src/mst/axi4_master_driver.sv(55) @ 1875000: uvm_test_top.env.master_agent.drv [axi4_master_driver] Driving AXI4_WRITE  ID=0xc  ADDR=0x1b7edf13  LEN=2
# UVM_INFO ../src/mst/axi4_master_driver.sv(101) @ 1875000: uvm_test_top.env.master_agent.drv [axi4_master_driver] Write order: AW -> W (sequential)
# UVM_INFO ../src/slv/axi4_slave_driver.sv(165) @ 1905000: uvm_test_top.env.slave_agent.drv [axi4_slave_driver] AW received: ID=0xc ADDR=0x1b7edf13 LEN=2 LOCK=AXI4_LOCK_NORMAL
# UVM_INFO ../src/mst/axi4_master_monitor.sv(124) @ 1905000: uvm_test_top.env.master_agent.mon [axi4_master_monitor] AW observed: ID=0xc ADDR=0x1b7edf13 LEN=2
# UVM_INFO ../src/slv/axi4_slave_monitor.sv(116) @ 1905000: uvm_test_top.env.slave_agent.mon [axi4_slave_monitor] AW received: ID=0xc ADDR=0x1b7edf13 LEN=2
# UVM_INFO ../src/mst/axi4_master_monitor.sv(184) @ 1965000: uvm_test_top.env.master_agent.mon [axi4_master_monitor] W data assembled: ID=0xc ADDR=0x1b7edf13 3 beats
# UVM_INFO ../src/slv/axi4_slave_monitor.sv(167) @ 1965000: uvm_test_top.env.slave_agent.mon [axi4_slave_monitor] W data assembled: ID=0xc ADDR=0x1b7edf13 3 beats
# UVM_INFO ../src/mst/axi4_master_driver.sv(197) @ 1995000: uvm_test_top.env.master_agent.drv [axi4_master_driver] Write response: AXI4_RESP_OKAY
# UVM_INFO ../src/slv/axi4_slave_driver.sv(263) @ 1995000: uvm_test_top.env.slave_agent.drv [axi4_slave_driver] Write complete: ID=0xc ADDR=0x1b7edf13 RESP=AXI4_RESP_OKAY  3 beats processed
# UVM_INFO ../src/slv/axi4_slave_monitor.sv(189) @ 1995000: uvm_test_top.env.slave_agent.mon [axi4_slave_monitor] Write response sent: ID=0xc ADDR=0x1b7edf13 RESP=AXI4_RESP_OKAY
# UVM_INFO ../src/env/axi4_scoreboard.sv(108) @ 1995000: uvm_test_top.env.scb [axi4_scoreboard] Slave AXI4_WRITE received: ID=0xc ADDR=0x1b7edf13 LEN=2
# UVM_INFO ../src/mst/axi4_master_monitor.sv(210) @ 1995000: uvm_test_top.env.master_agent.mon [axi4_master_monitor] Write complete: ID=0xc ADDR=0x1b7edf13 RESP=AXI4_RESP_OKAY
# UVM_INFO ../src/env/axi4_scoreboard.sv(87) @ 1995000: uvm_test_top.env.scb [axi4_scoreboard] Master AXI4_WRITE received: ID=0xc ADDR=0x1b7edf13 LEN=2
# UVM_INFO ../src/env/axi4_scoreboard.sv(271) @ 1995000: uvm_test_top.env.scb [axi4_scoreboard] [WRITE] MATCH #9: ID=0xc ADDR=0x1b7edf13 LEN=2
# UVM_INFO ../src/env/axi4_scoreboard.sv(204) @ 1995000: uvm_test_top.env.scb [axi4_scoreboard] [REF_MEM_WRITE] Addr=0x1b7edf10 Data=0x1f
# UVM_INFO ../src/env/axi4_scoreboard.sv(204) @ 1995000: uvm_test_top.env.scb [axi4_scoreboard] [REF_MEM_WRITE] Addr=0x1b7edf11 Data=0x63
# UVM_INFO ../src/env/axi4_scoreboard.sv(204) @ 1995000: uvm_test_top.env.scb [axi4_scoreboard] [REF_MEM_WRITE] Addr=0x1b7edf12 Data=0x51
# UVM_INFO ../src/env/axi4_scoreboard.sv(204) @ 1995000: uvm_test_top.env.scb [axi4_scoreboard] [REF_MEM_WRITE] Addr=0x1b7edf13 Data=0x47
# UVM_INFO ../src/env/axi4_scoreboard.sv(204) @ 1995000: uvm_test_top.env.scb [axi4_scoreboard] [REF_MEM_WRITE] Addr=0x1b7edf14 Data=0x6c
# UVM_INFO ../src/env/axi4_scoreboard.sv(204) @ 1995000: uvm_test_top.env.scb [axi4_scoreboard] [REF_MEM_WRITE] Addr=0x1b7edf16 Data=0x88
# UVM_INFO ../src/env/axi4_scoreboard.sv(204) @ 1995000: uvm_test_top.env.scb [axi4_scoreboard] [REF_MEM_WRITE] Addr=0x1b7edf17 Data=0x60
# UVM_INFO ../src/env/axi4_scoreboard.sv(204) @ 1995000: uvm_test_top.env.scb [axi4_scoreboard] [REF_MEM_WRITE] Addr=0x1b7edf1a Data=0x63
# UVM_INFO ../src/env/axi4_scoreboard.sv(204) @ 1995000: uvm_test_top.env.scb [axi4_scoreboard] [REF_MEM_WRITE] Addr=0x1b7edf1b Data=0x0c
# UVM_INFO ../src/seq/axi4_write_read_back_seq.sv(60) @ 1995000: uvm_test_top.env.master_agent.sqr@@wr_rd_seq_4 [axi4_write_read_back_seq] Write phase: ADDR=0x1b7edf13 LEN=2 SIZE=AXI4_SIZE_4B BURST=AXI4_BURST_INCR
# UVM_INFO ../src/mst/axi4_master_driver.sv(55) @ 1995000: uvm_test_top.env.master_agent.drv [axi4_master_driver] Driving AXI4_READ  ID=0x3  ADDR=0x1b7edf13  LEN=2
# UVM_INFO ../src/slv/axi4_slave_driver.sv(302) @ 2025000: uvm_test_top.env.slave_agent.drv [axi4_slave_driver] AR received: ID=0x3 ADDR=0x1b7edf13 LEN=2 LOCK=AXI4_LOCK_EXCLUSIVE
# UVM_INFO ../src/mst/axi4_master_monitor.sv(246) @ 2025000: uvm_test_top.env.master_agent.mon [axi4_master_monitor] AR observed: ID=0x3 ADDR=0x1b7edf13 LEN=2
# UVM_INFO ../src/slv/axi4_slave_monitor.sv(224) @ 2025000: uvm_test_top.env.slave_agent.mon [axi4_slave_monitor] AR received: ID=0x3 ADDR=0x1b7edf13 LEN=2
# UVM_INFO ../src/mst/axi4_master_driver.sv(254) @ 2085000: uvm_test_top.env.master_agent.drv [axi4_master_driver] Read complete: 3 beats received
# UVM_INFO ../src/slv/axi4_slave_driver.sv(356) @ 2085000: uvm_test_top.env.slave_agent.drv [axi4_slave_driver] Read complete: ID=0x3 ADDR=0x1b7edf13 RESP=AXI4_RESP_EXOKAY  3 beats sent
# UVM_INFO ../src/mst/axi4_master_monitor.sv(314) @ 2085000: uvm_test_top.env.master_agent.mon [axi4_master_monitor] Read complete: ID=0x3 ADDR=0x1b7edf13 3 beats
# UVM_INFO ../src/env/axi4_scoreboard.sv(87) @ 2085000: uvm_test_top.env.scb [axi4_scoreboard] Master AXI4_READ received: ID=0x3 ADDR=0x1b7edf13 LEN=2
# UVM_INFO ../src/slv/axi4_slave_monitor.sv(287) @ 2085000: uvm_test_top.env.slave_agent.mon [axi4_slave_monitor] Read data sent: ID=0x3 ADDR=0x1b7edf13 3 beats
# UVM_INFO ../src/env/axi4_scoreboard.sv(108) @ 2085000: uvm_test_top.env.scb [axi4_scoreboard] Slave AXI4_READ received: ID=0x3 ADDR=0x1b7edf13 LEN=2
# UVM_INFO ../src/env/axi4_scoreboard.sv(271) @ 2085000: uvm_test_top.env.scb [axi4_scoreboard] [READ] MATCH #10: ID=0x3 ADDR=0x1b7edf13 LEN=2
# UVM_INFO ../src/seq/axi4_write_read_back_seq.sv(80) @ 2085000: uvm_test_top.env.master_agent.sqr@@wr_rd_seq_4 [axi4_write_read_back_seq] Read-back phase: ADDR=0x1b7edf13 LEN=2 - data integrity check via scoreboard
# UVM_INFO ../src/test/axi4_wr_rd_test.sv(52) @ 2085000: uvm_test_top [axi4_wr_rd_test] [6/10] ADDR=0xa9ffe75a LEN=5 BURST=AXI4_BURST_INCR
# UVM_INFO ../src/mst/axi4_master_driver.sv(55) @ 2085000: uvm_test_top.env.master_agent.drv [axi4_master_driver] Driving AXI4_WRITE  ID=0x4  ADDR=0xa9ffe75a  LEN=5
# UVM_INFO ../src/mst/axi4_master_driver.sv(106) @ 2085000: uvm_test_top.env.master_agent.drv [axi4_master_driver] Write order: W -> AW (W first)
# UVM_INFO ../src/slv/axi4_slave_driver.sv(165) @ 2135000: uvm_test_top.env.slave_agent.drv [axi4_slave_driver] AW received: ID=0x4 ADDR=0xa9ffe75a LEN=5 LOCK=AXI4_LOCK_NORMAL
# UVM_INFO ../src/slv/axi4_slave_monitor.sv(116) @ 2135000: uvm_test_top.env.slave_agent.mon [axi4_slave_monitor] AW received: ID=0x4 ADDR=0xa9ffe75a LEN=5
# UVM_INFO ../src/mst/axi4_master_monitor.sv(124) @ 2135000: uvm_test_top.env.master_agent.mon [axi4_master_monitor] AW observed: ID=0x4 ADDR=0xa9ffe75a LEN=5
# UVM_INFO ../src/mst/axi4_master_monitor.sv(184) @ 2205000: uvm_test_top.env.master_agent.mon [axi4_master_monitor] W data assembled: ID=0x4 ADDR=0xa9ffe75a 6 beats
# UVM_INFO ../src/slv/axi4_slave_monitor.sv(167) @ 2205000: uvm_test_top.env.slave_agent.mon [axi4_slave_monitor] W data assembled: ID=0x4 ADDR=0xa9ffe75a 6 beats
# UVM_INFO ../src/mst/axi4_master_driver.sv(197) @ 2235000: uvm_test_top.env.master_agent.drv [axi4_master_driver] Write response: AXI4_RESP_OKAY
# UVM_INFO ../src/slv/axi4_slave_driver.sv(263) @ 2235000: uvm_test_top.env.slave_agent.drv [axi4_slave_driver] Write complete: ID=0x4 ADDR=0xa9ffe75a RESP=AXI4_RESP_OKAY  6 beats processed
# UVM_INFO ../src/slv/axi4_slave_monitor.sv(189) @ 2235000: uvm_test_top.env.slave_agent.mon [axi4_slave_monitor] Write response sent: ID=0x4 ADDR=0xa9ffe75a RESP=AXI4_RESP_OKAY
# UVM_INFO ../src/env/axi4_scoreboard.sv(108) @ 2235000: uvm_test_top.env.scb [axi4_scoreboard] Slave AXI4_WRITE received: ID=0x4 ADDR=0xa9ffe75a LEN=5
# UVM_INFO ../src/mst/axi4_master_monitor.sv(210) @ 2235000: uvm_test_top.env.master_agent.mon [axi4_master_monitor] Write complete: ID=0x4 ADDR=0xa9ffe75a RESP=AXI4_RESP_OKAY
# UVM_INFO ../src/env/axi4_scoreboard.sv(87) @ 2235000: uvm_test_top.env.scb [axi4_scoreboard] Master AXI4_WRITE received: ID=0x4 ADDR=0xa9ffe75a LEN=5
# UVM_INFO ../src/env/axi4_scoreboard.sv(271) @ 2235000: uvm_test_top.env.scb [axi4_scoreboard] [WRITE] MATCH #11: ID=0x4 ADDR=0xa9ffe75a LEN=5
# UVM_INFO ../src/env/axi4_scoreboard.sv(204) @ 2235000: uvm_test_top.env.scb [axi4_scoreboard] [REF_MEM_WRITE] Addr=0xa9ffe758 Data=0xbc
# UVM_INFO ../src/env/axi4_scoreboard.sv(204) @ 2235000: uvm_test_top.env.scb [axi4_scoreboard] [REF_MEM_WRITE] Addr=0xa9ffe759 Data=0x44
# UVM_INFO ../src/env/axi4_scoreboard.sv(204) @ 2235000: uvm_test_top.env.scb [axi4_scoreboard] [REF_MEM_WRITE] Addr=0xa9ffe75a Data=0x48
# UVM_INFO ../src/env/axi4_scoreboard.sv(204) @ 2235000: uvm_test_top.env.scb [axi4_scoreboard] [REF_MEM_WRITE] Addr=0xa9ffe75b Data=0x4f
# UVM_INFO ../src/env/axi4_scoreboard.sv(204) @ 2235000: uvm_test_top.env.scb [axi4_scoreboard] [REF_MEM_WRITE] Addr=0xa9ffe75c Data=0xa5
# UVM_INFO ../src/env/axi4_scoreboard.sv(204) @ 2235000: uvm_test_top.env.scb [axi4_scoreboard] [REF_MEM_WRITE] Addr=0xa9ffe75d Data=0x0d
# UVM_INFO ../src/env/axi4_scoreboard.sv(204) @ 2235000: uvm_test_top.env.scb [axi4_scoreboard] [REF_MEM_WRITE] Addr=0xa9ffe760 Data=0x22
# UVM_INFO ../src/env/axi4_scoreboard.sv(204) @ 2235000: uvm_test_top.env.scb [axi4_scoreboard] [REF_MEM_WRITE] Addr=0xa9ffe761 Data=0x52
# UVM_INFO ../src/env/axi4_scoreboard.sv(204) @ 2235000: uvm_test_top.env.scb [axi4_scoreboard] [REF_MEM_WRITE] Addr=0xa9ffe763 Data=0xf8
# UVM_INFO ../src/env/axi4_scoreboard.sv(204) @ 2235000: uvm_test_top.env.scb [axi4_scoreboard] [REF_MEM_WRITE] Addr=0xa9ffe765 Data=0x86
# UVM_INFO ../src/env/axi4_scoreboard.sv(204) @ 2235000: uvm_test_top.env.scb [axi4_scoreboard] [REF_MEM_WRITE] Addr=0xa9ffe766 Data=0xc8
# UVM_INFO ../src/env/axi4_scoreboard.sv(204) @ 2235000: uvm_test_top.env.scb [axi4_scoreboard] [REF_MEM_WRITE] Addr=0xa9ffe768 Data=0x32
# UVM_INFO ../src/env/axi4_scoreboard.sv(204) @ 2235000: uvm_test_top.env.scb [axi4_scoreboard] [REF_MEM_WRITE] Addr=0xa9ffe76b Data=0x46
# UVM_INFO ../src/seq/axi4_write_read_back_seq.sv(60) @ 2235000: uvm_test_top.env.master_agent.sqr@@wr_rd_seq_5 [axi4_write_read_back_seq] Write phase: ADDR=0xa9ffe75a LEN=5 SIZE=AXI4_SIZE_4B BURST=AXI4_BURST_INCR
# UVM_INFO ../src/mst/axi4_master_driver.sv(55) @ 2235000: uvm_test_top.env.master_agent.drv [axi4_master_driver] Driving AXI4_READ  ID=0x0  ADDR=0xa9ffe75a  LEN=5
# UVM_INFO ../src/slv/axi4_slave_driver.sv(302) @ 2265000: uvm_test_top.env.slave_agent.drv [axi4_slave_driver] AR received: ID=0x0 ADDR=0xa9ffe75a LEN=5 LOCK=AXI4_LOCK_NORMAL
# UVM_INFO ../src/mst/axi4_master_monitor.sv(246) @ 2265000: uvm_test_top.env.master_agent.mon [axi4_master_monitor] AR observed: ID=0x0 ADDR=0xa9ffe75a LEN=5
# UVM_INFO ../src/slv/axi4_slave_monitor.sv(224) @ 2265000: uvm_test_top.env.slave_agent.mon [axi4_slave_monitor] AR received: ID=0x0 ADDR=0xa9ffe75a LEN=5
# UVM_INFO ../src/mst/axi4_master_driver.sv(254) @ 2385000: uvm_test_top.env.master_agent.drv [axi4_master_driver] Read complete: 6 beats received
# UVM_INFO ../src/slv/axi4_slave_driver.sv(356) @ 2385000: uvm_test_top.env.slave_agent.drv [axi4_slave_driver] Read complete: ID=0x0 ADDR=0xa9ffe75a RESP=AXI4_RESP_OKAY  6 beats sent
# UVM_INFO ../src/mst/axi4_master_monitor.sv(314) @ 2385000: uvm_test_top.env.master_agent.mon [axi4_master_monitor] Read complete: ID=0x0 ADDR=0xa9ffe75a 6 beats
# UVM_INFO ../src/env/axi4_scoreboard.sv(87) @ 2385000: uvm_test_top.env.scb [axi4_scoreboard] Master AXI4_READ received: ID=0x0 ADDR=0xa9ffe75a LEN=5
# UVM_INFO ../src/slv/axi4_slave_monitor.sv(287) @ 2385000: uvm_test_top.env.slave_agent.mon [axi4_slave_monitor] Read data sent: ID=0x0 ADDR=0xa9ffe75a 6 beats
# UVM_INFO ../src/env/axi4_scoreboard.sv(108) @ 2385000: uvm_test_top.env.scb [axi4_scoreboard] Slave AXI4_READ received: ID=0x0 ADDR=0xa9ffe75a LEN=5
# UVM_INFO ../src/env/axi4_scoreboard.sv(271) @ 2385000: uvm_test_top.env.scb [axi4_scoreboard] [READ] MATCH #12: ID=0x0 ADDR=0xa9ffe75a LEN=5
# UVM_INFO ../src/seq/axi4_write_read_back_seq.sv(80) @ 2385000: uvm_test_top.env.master_agent.sqr@@wr_rd_seq_5 [axi4_write_read_back_seq] Read-back phase: ADDR=0xa9ffe75a LEN=5 - data integrity check via scoreboard
# UVM_INFO ../src/test/axi4_wr_rd_test.sv(52) @ 2385000: uvm_test_top [axi4_wr_rd_test] [7/10] ADDR=0x62e930d9 LEN=3 BURST=AXI4_BURST_INCR
# UVM_INFO ../src/mst/axi4_master_driver.sv(55) @ 2385000: uvm_test_top.env.master_agent.drv [axi4_master_driver] Driving AXI4_WRITE  ID=0xf  ADDR=0x62e930d9  LEN=3
# UVM_INFO ../src/mst/axi4_master_driver.sv(106) @ 2385000: uvm_test_top.env.master_agent.drv [axi4_master_driver] Write order: W -> AW (W first)
# UVM_INFO ../src/slv/axi4_slave_driver.sv(165) @ 2445000: uvm_test_top.env.slave_agent.drv [axi4_slave_driver] AW received: ID=0xf ADDR=0x62e930d9 LEN=3 LOCK=AXI4_LOCK_NORMAL
# UVM_INFO ../src/mst/axi4_master_monitor.sv(124) @ 2445000: uvm_test_top.env.master_agent.mon [axi4_master_monitor] AW observed: ID=0xf ADDR=0x62e930d9 LEN=3
# UVM_INFO ../src/slv/axi4_slave_monitor.sv(116) @ 2445000: uvm_test_top.env.slave_agent.mon [axi4_slave_monitor] AW received: ID=0xf ADDR=0x62e930d9 LEN=3
# UVM_INFO ../src/mst/axi4_master_monitor.sv(184) @ 2465000: uvm_test_top.env.master_agent.mon [axi4_master_monitor] W data assembled: ID=0xf ADDR=0x62e930d9 4 beats
# UVM_INFO ../src/slv/axi4_slave_monitor.sv(167) @ 2465000: uvm_test_top.env.slave_agent.mon [axi4_slave_monitor] W data assembled: ID=0xf ADDR=0x62e930d9 4 beats
# UVM_INFO ../src/mst/axi4_master_driver.sv(197) @ 2495000: uvm_test_top.env.master_agent.drv [axi4_master_driver] Write response: AXI4_RESP_OKAY
# UVM_INFO ../src/slv/axi4_slave_driver.sv(263) @ 2495000: uvm_test_top.env.slave_agent.drv [axi4_slave_driver] Write complete: ID=0xf ADDR=0x62e930d9 RESP=AXI4_RESP_OKAY  4 beats processed
# UVM_INFO ../src/slv/axi4_slave_monitor.sv(189) @ 2495000: uvm_test_top.env.slave_agent.mon [axi4_slave_monitor] Write response sent: ID=0xf ADDR=0x62e930d9 RESP=AXI4_RESP_OKAY
# UVM_INFO ../src/env/axi4_scoreboard.sv(108) @ 2495000: uvm_test_top.env.scb [axi4_scoreboard] Slave AXI4_WRITE received: ID=0xf ADDR=0x62e930d9 LEN=3
# UVM_INFO ../src/mst/axi4_master_monitor.sv(210) @ 2495000: uvm_test_top.env.master_agent.mon [axi4_master_monitor] Write complete: ID=0xf ADDR=0x62e930d9 RESP=AXI4_RESP_OKAY
# UVM_INFO ../src/env/axi4_scoreboard.sv(87) @ 2495000: uvm_test_top.env.scb [axi4_scoreboard] Master AXI4_WRITE received: ID=0xf ADDR=0x62e930d9 LEN=3
# UVM_INFO ../src/env/axi4_scoreboard.sv(271) @ 2495000: uvm_test_top.env.scb [axi4_scoreboard] [WRITE] MATCH #13: ID=0xf ADDR=0x62e930d9 LEN=3
# UVM_INFO ../src/env/axi4_scoreboard.sv(204) @ 2495000: uvm_test_top.env.scb [axi4_scoreboard] [REF_MEM_WRITE] Addr=0x62e930dc Data=0x4e
# UVM_INFO ../src/env/axi4_scoreboard.sv(204) @ 2495000: uvm_test_top.env.scb [axi4_scoreboard] [REF_MEM_WRITE] Addr=0x62e930de Data=0x89
# UVM_INFO ../src/env/axi4_scoreboard.sv(204) @ 2495000: uvm_test_top.env.scb [axi4_scoreboard] [REF_MEM_WRITE] Addr=0x62e930e1 Data=0x18
# UVM_INFO ../src/env/axi4_scoreboard.sv(204) @ 2495000: uvm_test_top.env.scb [axi4_scoreboard] [REF_MEM_WRITE] Addr=0x62e930e5 Data=0xa3
# UVM_INFO ../src/seq/axi4_write_read_back_seq.sv(60) @ 2495000: uvm_test_top.env.master_agent.sqr@@wr_rd_seq_6 [axi4_write_read_back_seq] Write phase: ADDR=0x62e930d9 LEN=3 SIZE=AXI4_SIZE_4B BURST=AXI4_BURST_INCR
# UVM_INFO ../src/mst/axi4_master_driver.sv(55) @ 2495000: uvm_test_top.env.master_agent.drv [axi4_master_driver] Driving AXI4_READ  ID=0x2  ADDR=0x62e930d9  LEN=3
# UVM_INFO ../src/slv/axi4_slave_driver.sv(302) @ 2525000: uvm_test_top.env.slave_agent.drv [axi4_slave_driver] AR received: ID=0x2 ADDR=0x62e930d9 LEN=3 LOCK=AXI4_LOCK_NORMAL
# UVM_INFO ../src/mst/axi4_master_monitor.sv(246) @ 2525000: uvm_test_top.env.master_agent.mon [axi4_master_monitor] AR observed: ID=0x2 ADDR=0x62e930d9 LEN=3
# UVM_INFO ../src/slv/axi4_slave_monitor.sv(224) @ 2525000: uvm_test_top.env.slave_agent.mon [axi4_slave_monitor] AR received: ID=0x2 ADDR=0x62e930d9 LEN=3
# UVM_INFO ../src/mst/axi4_master_driver.sv(254) @ 2605000: uvm_test_top.env.master_agent.drv [axi4_master_driver] Read complete: 4 beats received
# UVM_INFO ../src/slv/axi4_slave_driver.sv(356) @ 2605000: uvm_test_top.env.slave_agent.drv [axi4_slave_driver] Read complete: ID=0x2 ADDR=0x62e930d9 RESP=AXI4_RESP_OKAY  4 beats sent
# UVM_INFO ../src/mst/axi4_master_monitor.sv(314) @ 2605000: uvm_test_top.env.master_agent.mon [axi4_master_monitor] Read complete: ID=0x2 ADDR=0x62e930d9 4 beats
# UVM_INFO ../src/env/axi4_scoreboard.sv(87) @ 2605000: uvm_test_top.env.scb [axi4_scoreboard] Master AXI4_READ received: ID=0x2 ADDR=0x62e930d9 LEN=3
# UVM_INFO ../src/slv/axi4_slave_monitor.sv(287) @ 2605000: uvm_test_top.env.slave_agent.mon [axi4_slave_monitor] Read data sent: ID=0x2 ADDR=0x62e930d9 4 beats
# UVM_INFO ../src/env/axi4_scoreboard.sv(108) @ 2605000: uvm_test_top.env.scb [axi4_scoreboard] Slave AXI4_READ received: ID=0x2 ADDR=0x62e930d9 LEN=3
# UVM_INFO ../src/env/axi4_scoreboard.sv(271) @ 2605000: uvm_test_top.env.scb [axi4_scoreboard] [READ] MATCH #14: ID=0x2 ADDR=0x62e930d9 LEN=3
# UVM_INFO ../src/seq/axi4_write_read_back_seq.sv(80) @ 2605000: uvm_test_top.env.master_agent.sqr@@wr_rd_seq_6 [axi4_write_read_back_seq] Read-back phase: ADDR=0x62e930d9 LEN=3 - data integrity check via scoreboard
# UVM_INFO ../src/test/axi4_wr_rd_test.sv(52) @ 2605000: uvm_test_top [axi4_wr_rd_test] [8/10] ADDR=0x95cd3d5e LEN=3 BURST=AXI4_BURST_INCR
# UVM_INFO ../src/mst/axi4_master_driver.sv(55) @ 2605000: uvm_test_top.env.master_agent.drv [axi4_master_driver] Driving AXI4_WRITE  ID=0xe  ADDR=0x95cd3d5e  LEN=3
# UVM_INFO ../src/mst/axi4_master_driver.sv(106) @ 2605000: uvm_test_top.env.master_agent.drv [axi4_master_driver] Write order: W -> AW (W first)
# UVM_INFO ../src/slv/axi4_slave_driver.sv(165) @ 2665000: uvm_test_top.env.slave_agent.drv [axi4_slave_driver] AW received: ID=0xe ADDR=0x95cd3d5e LEN=3 LOCK=AXI4_LOCK_NORMAL
# UVM_INFO ../src/mst/axi4_master_monitor.sv(124) @ 2665000: uvm_test_top.env.master_agent.mon [axi4_master_monitor] AW observed: ID=0xe ADDR=0x95cd3d5e LEN=3
# UVM_INFO ../src/slv/axi4_slave_monitor.sv(116) @ 2665000: uvm_test_top.env.slave_agent.mon [axi4_slave_monitor] AW received: ID=0xe ADDR=0x95cd3d5e LEN=3
# UVM_INFO ../src/mst/axi4_master_monitor.sv(184) @ 2685000: uvm_test_top.env.master_agent.mon [axi4_master_monitor] W data assembled: ID=0xe ADDR=0x95cd3d5e 4 beats
# UVM_INFO ../src/slv/axi4_slave_monitor.sv(167) @ 2685000: uvm_test_top.env.slave_agent.mon [axi4_slave_monitor] W data assembled: ID=0xe ADDR=0x95cd3d5e 4 beats
# UVM_INFO ../src/mst/axi4_master_driver.sv(197) @ 2715000: uvm_test_top.env.master_agent.drv [axi4_master_driver] Write response: AXI4_RESP_OKAY
# UVM_INFO ../src/slv/axi4_slave_driver.sv(263) @ 2715000: uvm_test_top.env.slave_agent.drv [axi4_slave_driver] Write complete: ID=0xe ADDR=0x95cd3d5e RESP=AXI4_RESP_OKAY  4 beats processed
# UVM_INFO ../src/slv/axi4_slave_monitor.sv(189) @ 2715000: uvm_test_top.env.slave_agent.mon [axi4_slave_monitor] Write response sent: ID=0xe ADDR=0x95cd3d5e RESP=AXI4_RESP_OKAY
# UVM_INFO ../src/env/axi4_scoreboard.sv(108) @ 2715000: uvm_test_top.env.scb [axi4_scoreboard] Slave AXI4_WRITE received: ID=0xe ADDR=0x95cd3d5e LEN=3
# UVM_INFO ../src/mst/axi4_master_monitor.sv(210) @ 2715000: uvm_test_top.env.master_agent.mon [axi4_master_monitor] Write complete: ID=0xe ADDR=0x95cd3d5e RESP=AXI4_RESP_OKAY
# UVM_INFO ../src/env/axi4_scoreboard.sv(87) @ 2715000: uvm_test_top.env.scb [axi4_scoreboard] Master AXI4_WRITE received: ID=0xe ADDR=0x95cd3d5e LEN=3
# UVM_INFO ../src/env/axi4_scoreboard.sv(271) @ 2715000: uvm_test_top.env.scb [axi4_scoreboard] [WRITE] MATCH #15: ID=0xe ADDR=0x95cd3d5e LEN=3
# UVM_INFO ../src/env/axi4_scoreboard.sv(204) @ 2715000: uvm_test_top.env.scb [axi4_scoreboard] [REF_MEM_WRITE] Addr=0x95cd3d5c Data=0x60
# UVM_INFO ../src/env/axi4_scoreboard.sv(204) @ 2715000: uvm_test_top.env.scb [axi4_scoreboard] [REF_MEM_WRITE] Addr=0x95cd3d5e Data=0x7e
# UVM_INFO ../src/env/axi4_scoreboard.sv(204) @ 2715000: uvm_test_top.env.scb [axi4_scoreboard] [REF_MEM_WRITE] Addr=0x95cd3d5f Data=0xcd
# UVM_INFO ../src/env/axi4_scoreboard.sv(204) @ 2715000: uvm_test_top.env.scb [axi4_scoreboard] [REF_MEM_WRITE] Addr=0x95cd3d60 Data=0x49
# UVM_INFO ../src/env/axi4_scoreboard.sv(204) @ 2715000: uvm_test_top.env.scb [axi4_scoreboard] [REF_MEM_WRITE] Addr=0x95cd3d62 Data=0xa9
# UVM_INFO ../src/env/axi4_scoreboard.sv(204) @ 2715000: uvm_test_top.env.scb [axi4_scoreboard] [REF_MEM_WRITE] Addr=0x95cd3d66 Data=0x31
# UVM_INFO ../src/env/axi4_scoreboard.sv(204) @ 2715000: uvm_test_top.env.scb [axi4_scoreboard] [REF_MEM_WRITE] Addr=0x95cd3d67 Data=0x53
# UVM_INFO ../src/env/axi4_scoreboard.sv(204) @ 2715000: uvm_test_top.env.scb [axi4_scoreboard] [REF_MEM_WRITE] Addr=0x95cd3d69 Data=0x3d
# UVM_INFO ../src/env/axi4_scoreboard.sv(204) @ 2715000: uvm_test_top.env.scb [axi4_scoreboard] [REF_MEM_WRITE] Addr=0x95cd3d6a Data=0x66
# UVM_INFO ../src/env/axi4_scoreboard.sv(204) @ 2715000: uvm_test_top.env.scb [axi4_scoreboard] [REF_MEM_WRITE] Addr=0x95cd3d6b Data=0xfc
# UVM_INFO ../src/seq/axi4_write_read_back_seq.sv(60) @ 2715000: uvm_test_top.env.master_agent.sqr@@wr_rd_seq_7 [axi4_write_read_back_seq] Write phase: ADDR=0x95cd3d5e LEN=3 SIZE=AXI4_SIZE_4B BURST=AXI4_BURST_INCR
# UVM_INFO ../src/mst/axi4_master_driver.sv(55) @ 2715000: uvm_test_top.env.master_agent.drv [axi4_master_driver] Driving AXI4_READ  ID=0x9  ADDR=0x95cd3d5e  LEN=3
# UVM_INFO ../src/slv/axi4_slave_driver.sv(302) @ 2745000: uvm_test_top.env.slave_agent.drv [axi4_slave_driver] AR received: ID=0x9 ADDR=0x95cd3d5e LEN=3 LOCK=AXI4_LOCK_NORMAL
# UVM_INFO ../src/mst/axi4_master_monitor.sv(246) @ 2745000: uvm_test_top.env.master_agent.mon [axi4_master_monitor] AR observed: ID=0x9 ADDR=0x95cd3d5e LEN=3
# UVM_INFO ../src/slv/axi4_slave_monitor.sv(224) @ 2745000: uvm_test_top.env.slave_agent.mon [axi4_slave_monitor] AR received: ID=0x9 ADDR=0x95cd3d5e LEN=3
# UVM_INFO ../src/mst/axi4_master_driver.sv(254) @ 2825000: uvm_test_top.env.master_agent.drv [axi4_master_driver] Read complete: 4 beats received
# UVM_INFO ../src/slv/axi4_slave_driver.sv(356) @ 2825000: uvm_test_top.env.slave_agent.drv [axi4_slave_driver] Read complete: ID=0x9 ADDR=0x95cd3d5e RESP=AXI4_RESP_OKAY  4 beats sent
# UVM_INFO ../src/mst/axi4_master_monitor.sv(314) @ 2825000: uvm_test_top.env.master_agent.mon [axi4_master_monitor] Read complete: ID=0x9 ADDR=0x95cd3d5e 4 beats
# UVM_INFO ../src/env/axi4_scoreboard.sv(87) @ 2825000: uvm_test_top.env.scb [axi4_scoreboard] Master AXI4_READ received: ID=0x9 ADDR=0x95cd3d5e LEN=3
# UVM_INFO ../src/slv/axi4_slave_monitor.sv(287) @ 2825000: uvm_test_top.env.slave_agent.mon [axi4_slave_monitor] Read data sent: ID=0x9 ADDR=0x95cd3d5e 4 beats
# UVM_INFO ../src/env/axi4_scoreboard.sv(108) @ 2825000: uvm_test_top.env.scb [axi4_scoreboard] Slave AXI4_READ received: ID=0x9 ADDR=0x95cd3d5e LEN=3
# UVM_INFO ../src/env/axi4_scoreboard.sv(271) @ 2825000: uvm_test_top.env.scb [axi4_scoreboard] [READ] MATCH #16: ID=0x9 ADDR=0x95cd3d5e LEN=3
# UVM_INFO ../src/seq/axi4_write_read_back_seq.sv(80) @ 2825000: uvm_test_top.env.master_agent.sqr@@wr_rd_seq_7 [axi4_write_read_back_seq] Read-back phase: ADDR=0x95cd3d5e LEN=3 - data integrity check via scoreboard
# UVM_INFO ../src/test/axi4_wr_rd_test.sv(52) @ 2825000: uvm_test_top [axi4_wr_rd_test] [9/10] ADDR=0xd7c2b2f9 LEN=14 BURST=AXI4_BURST_INCR
# UVM_INFO ../src/mst/axi4_master_driver.sv(55) @ 2825000: uvm_test_top.env.master_agent.drv [axi4_master_driver] Driving AXI4_WRITE  ID=0xf  ADDR=0xd7c2b2f9  LEN=14
# UVM_INFO ../src/mst/axi4_master_driver.sv(101) @ 2825000: uvm_test_top.env.master_agent.drv [axi4_master_driver] Write order: AW -> W (sequential)
# UVM_INFO ../src/slv/axi4_slave_driver.sv(165) @ 2855000: uvm_test_top.env.slave_agent.drv [axi4_slave_driver] AW received: ID=0xf ADDR=0xd7c2b2f9 LEN=14 LOCK=AXI4_LOCK_EXCLUSIVE
# UVM_INFO ../src/slv/axi4_slave_monitor.sv(116) @ 2855000: uvm_test_top.env.slave_agent.mon [axi4_slave_monitor] AW received: ID=0xf ADDR=0xd7c2b2f9 LEN=14
# UVM_INFO ../src/mst/axi4_master_monitor.sv(124) @ 2855000: uvm_test_top.env.master_agent.mon [axi4_master_monitor] AW observed: ID=0xf ADDR=0xd7c2b2f9 LEN=14
# UVM_INFO ../src/slv/axi4_slave_monitor.sv(167) @ 3155000: uvm_test_top.env.slave_agent.mon [axi4_slave_monitor] W data assembled: ID=0xf ADDR=0xd7c2b2f9 15 beats
# UVM_INFO ../src/mst/axi4_master_monitor.sv(184) @ 3155000: uvm_test_top.env.master_agent.mon [axi4_master_monitor] W data assembled: ID=0xf ADDR=0xd7c2b2f9 15 beats
# UVM_INFO ../src/mst/axi4_master_driver.sv(197) @ 3185000: uvm_test_top.env.master_agent.drv [axi4_master_driver] Write response: AXI4_RESP_OKAY
# UVM_INFO ../src/slv/axi4_slave_driver.sv(263) @ 3185000: uvm_test_top.env.slave_agent.drv [axi4_slave_driver] Write complete: ID=0xf ADDR=0xd7c2b2f9 RESP=AXI4_RESP_OKAY  15 beats processed
# UVM_INFO ../src/mst/axi4_master_monitor.sv(210) @ 3185000: uvm_test_top.env.master_agent.mon [axi4_master_monitor] Write complete: ID=0xf ADDR=0xd7c2b2f9 RESP=AXI4_RESP_OKAY
# UVM_INFO ../src/env/axi4_scoreboard.sv(87) @ 3185000: uvm_test_top.env.scb [axi4_scoreboard] Master AXI4_WRITE received: ID=0xf ADDR=0xd7c2b2f9 LEN=14
# UVM_INFO ../src/slv/axi4_slave_monitor.sv(189) @ 3185000: uvm_test_top.env.slave_agent.mon [axi4_slave_monitor] Write response sent: ID=0xf ADDR=0xd7c2b2f9 RESP=AXI4_RESP_OKAY
# UVM_INFO ../src/env/axi4_scoreboard.sv(108) @ 3185000: uvm_test_top.env.scb [axi4_scoreboard] Slave AXI4_WRITE received: ID=0xf ADDR=0xd7c2b2f9 LEN=14
# UVM_INFO ../src/env/axi4_scoreboard.sv(271) @ 3185000: uvm_test_top.env.scb [axi4_scoreboard] [WRITE] MATCH #17: ID=0xf ADDR=0xd7c2b2f9 LEN=14
# UVM_INFO ../src/env/axi4_scoreboard.sv(204) @ 3185000: uvm_test_top.env.scb [axi4_scoreboard] [REF_MEM_WRITE] Addr=0xd7c2b2f9 Data=0xb8
# UVM_INFO ../src/env/axi4_scoreboard.sv(204) @ 3185000: uvm_test_top.env.scb [axi4_scoreboard] [REF_MEM_WRITE] Addr=0xd7c2b2fa Data=0xa2
# UVM_INFO ../src/env/axi4_scoreboard.sv(204) @ 3185000: uvm_test_top.env.scb [axi4_scoreboard] [REF_MEM_WRITE] Addr=0xd7c2b2fb Data=0x62
# UVM_INFO ../src/env/axi4_scoreboard.sv(204) @ 3185000: uvm_test_top.env.scb [axi4_scoreboard] [REF_MEM_WRITE] Addr=0xd7c2b2fe Data=0x8b
# UVM_INFO ../src/env/axi4_scoreboard.sv(204) @ 3185000: uvm_test_top.env.scb [axi4_scoreboard] [REF_MEM_WRITE] Addr=0xd7c2b2ff Data=0x18
# UVM_INFO ../src/env/axi4_scoreboard.sv(204) @ 3185000: uvm_test_top.env.scb [axi4_scoreboard] [REF_MEM_WRITE] Addr=0xd7c2b300 Data=0xf9
# UVM_INFO ../src/env/axi4_scoreboard.sv(204) @ 3185000: uvm_test_top.env.scb [axi4_scoreboard] [REF_MEM_WRITE] Addr=0xd7c2b301 Data=0x4f
# UVM_INFO ../src/env/axi4_scoreboard.sv(204) @ 3185000: uvm_test_top.env.scb [axi4_scoreboard] [REF_MEM_WRITE] Addr=0xd7c2b302 Data=0x7a
# UVM_INFO ../src/env/axi4_scoreboard.sv(204) @ 3185000: uvm_test_top.env.scb [axi4_scoreboard] [REF_MEM_WRITE] Addr=0xd7c2b304 Data=0x04
# UVM_INFO ../src/env/axi4_scoreboard.sv(204) @ 3185000: uvm_test_top.env.scb [axi4_scoreboard] [REF_MEM_WRITE] Addr=0xd7c2b305 Data=0x14
# UVM_INFO ../src/env/axi4_scoreboard.sv(204) @ 3185000: uvm_test_top.env.scb [axi4_scoreboard] [REF_MEM_WRITE] Addr=0xd7c2b30a Data=0x94
# UVM_INFO ../src/env/axi4_scoreboard.sv(204) @ 3185000: uvm_test_top.env.scb [axi4_scoreboard] [REF_MEM_WRITE] Addr=0xd7c2b30e Data=0x7a
# UVM_INFO ../src/env/axi4_scoreboard.sv(204) @ 3185000: uvm_test_top.env.scb [axi4_scoreboard] [REF_MEM_WRITE] Addr=0xd7c2b30f Data=0xb2
# UVM_INFO ../src/env/axi4_scoreboard.sv(204) @ 3185000: uvm_test_top.env.scb [axi4_scoreboard] [REF_MEM_WRITE] Addr=0xd7c2b310 Data=0x05
# UVM_INFO ../src/env/axi4_scoreboard.sv(204) @ 3185000: uvm_test_top.env.scb [axi4_scoreboard] [REF_MEM_WRITE] Addr=0xd7c2b315 Data=0xad
# UVM_INFO ../src/env/axi4_scoreboard.sv(204) @ 3185000: uvm_test_top.env.scb [axi4_scoreboard] [REF_MEM_WRITE] Addr=0xd7c2b316 Data=0x46
# UVM_INFO ../src/env/axi4_scoreboard.sv(204) @ 3185000: uvm_test_top.env.scb [axi4_scoreboard] [REF_MEM_WRITE] Addr=0xd7c2b317 Data=0x0f
# UVM_INFO ../src/env/axi4_scoreboard.sv(204) @ 3185000: uvm_test_top.env.scb [axi4_scoreboard] [REF_MEM_WRITE] Addr=0xd7c2b318 Data=0x25
# UVM_INFO ../src/env/axi4_scoreboard.sv(204) @ 3185000: uvm_test_top.env.scb [axi4_scoreboard] [REF_MEM_WRITE] Addr=0xd7c2b31b Data=0xce
# UVM_INFO ../src/env/axi4_scoreboard.sv(204) @ 3185000: uvm_test_top.env.scb [axi4_scoreboard] [REF_MEM_WRITE] Addr=0xd7c2b31c Data=0x39
# UVM_INFO ../src/env/axi4_scoreboard.sv(204) @ 3185000: uvm_test_top.env.scb [axi4_scoreboard] [REF_MEM_WRITE] Addr=0xd7c2b31e Data=0x1a
# UVM_INFO ../src/env/axi4_scoreboard.sv(204) @ 3185000: uvm_test_top.env.scb [axi4_scoreboard] [REF_MEM_WRITE] Addr=0xd7c2b320 Data=0x75
# UVM_INFO ../src/env/axi4_scoreboard.sv(204) @ 3185000: uvm_test_top.env.scb [axi4_scoreboard] [REF_MEM_WRITE] Addr=0xd7c2b321 Data=0xe8
# UVM_INFO ../src/env/axi4_scoreboard.sv(204) @ 3185000: uvm_test_top.env.scb [axi4_scoreboard] [REF_MEM_WRITE] Addr=0xd7c2b323 Data=0x66
# UVM_INFO ../src/env/axi4_scoreboard.sv(204) @ 3185000: uvm_test_top.env.scb [axi4_scoreboard] [REF_MEM_WRITE] Addr=0xd7c2b324 Data=0x45
# UVM_INFO ../src/env/axi4_scoreboard.sv(204) @ 3185000: uvm_test_top.env.scb [axi4_scoreboard] [REF_MEM_WRITE] Addr=0xd7c2b325 Data=0x6e
# UVM_INFO ../src/env/axi4_scoreboard.sv(204) @ 3185000: uvm_test_top.env.scb [axi4_scoreboard] [REF_MEM_WRITE] Addr=0xd7c2b328 Data=0xb0
# UVM_INFO ../src/env/axi4_scoreboard.sv(204) @ 3185000: uvm_test_top.env.scb [axi4_scoreboard] [REF_MEM_WRITE] Addr=0xd7c2b329 Data=0x73
# UVM_INFO ../src/env/axi4_scoreboard.sv(204) @ 3185000: uvm_test_top.env.scb [axi4_scoreboard] [REF_MEM_WRITE] Addr=0xd7c2b32b Data=0x08
# UVM_INFO ../src/env/axi4_scoreboard.sv(204) @ 3185000: uvm_test_top.env.scb [axi4_scoreboard] [REF_MEM_WRITE] Addr=0xd7c2b32c Data=0xb8
# UVM_INFO ../src/env/axi4_scoreboard.sv(204) @ 3185000: uvm_test_top.env.scb [axi4_scoreboard] [REF_MEM_WRITE] Addr=0xd7c2b331 Data=0xd7
# UVM_INFO ../src/env/axi4_scoreboard.sv(204) @ 3185000: uvm_test_top.env.scb [axi4_scoreboard] [REF_MEM_WRITE] Addr=0xd7c2b333 Data=0x7e
# UVM_INFO ../src/seq/axi4_write_read_back_seq.sv(60) @ 3185000: uvm_test_top.env.master_agent.sqr@@wr_rd_seq_8 [axi4_write_read_back_seq] Write phase: ADDR=0xd7c2b2f9 LEN=14 SIZE=AXI4_SIZE_4B BURST=AXI4_BURST_INCR
# UVM_INFO ../src/mst/axi4_master_driver.sv(55) @ 3185000: uvm_test_top.env.master_agent.drv [axi4_master_driver] Driving AXI4_READ  ID=0x8  ADDR=0xd7c2b2f9  LEN=14
# UVM_INFO ../src/slv/axi4_slave_driver.sv(302) @ 3215000: uvm_test_top.env.slave_agent.drv [axi4_slave_driver] AR received: ID=0x8 ADDR=0xd7c2b2f9 LEN=14 LOCK=AXI4_LOCK_EXCLUSIVE
# UVM_INFO ../src/slv/axi4_slave_monitor.sv(224) @ 3215000: uvm_test_top.env.slave_agent.mon [axi4_slave_monitor] AR received: ID=0x8 ADDR=0xd7c2b2f9 LEN=14
# UVM_INFO ../src/mst/axi4_master_monitor.sv(246) @ 3215000: uvm_test_top.env.master_agent.mon [axi4_master_monitor] AR observed: ID=0x8 ADDR=0xd7c2b2f9 LEN=14
# UVM_INFO ../src/mst/axi4_master_driver.sv(254) @ 3515000: uvm_test_top.env.master_agent.drv [axi4_master_driver] Read complete: 15 beats received
# UVM_INFO ../src/slv/axi4_slave_driver.sv(356) @ 3515000: uvm_test_top.env.slave_agent.drv [axi4_slave_driver] Read complete: ID=0x8 ADDR=0xd7c2b2f9 RESP=AXI4_RESP_EXOKAY  15 beats sent
# UVM_INFO ../src/slv/axi4_slave_monitor.sv(287) @ 3515000: uvm_test_top.env.slave_agent.mon [axi4_slave_monitor] Read data sent: ID=0x8 ADDR=0xd7c2b2f9 15 beats
# UVM_INFO ../src/env/axi4_scoreboard.sv(108) @ 3515000: uvm_test_top.env.scb [axi4_scoreboard] Slave AXI4_READ received: ID=0x8 ADDR=0xd7c2b2f9 LEN=14
# UVM_INFO ../src/mst/axi4_master_monitor.sv(314) @ 3515000: uvm_test_top.env.master_agent.mon [axi4_master_monitor] Read complete: ID=0x8 ADDR=0xd7c2b2f9 15 beats
# UVM_INFO ../src/env/axi4_scoreboard.sv(87) @ 3515000: uvm_test_top.env.scb [axi4_scoreboard] Master AXI4_READ received: ID=0x8 ADDR=0xd7c2b2f9 LEN=14
# UVM_INFO ../src/env/axi4_scoreboard.sv(271) @ 3515000: uvm_test_top.env.scb [axi4_scoreboard] [READ] MATCH #18: ID=0x8 ADDR=0xd7c2b2f9 LEN=14
# UVM_ERROR ../src/env/axi4_scoreboard.sv(250) @ 3515000: uvm_test_top.env.scb [axi4_scoreboard] [DATA_INTEGRITY_FAIL] Read mismatch at Beat 0, Byte Lane 1! Addr=0xd7c2b2f9 | Expected=0xb8, Actual=0x00
# UVM_ERROR ../src/env/axi4_scoreboard.sv(250) @ 3515000: uvm_test_top.env.scb [axi4_scoreboard] [DATA_INTEGRITY_FAIL] Read mismatch at Beat 0, Byte Lane 2! Addr=0xd7c2b2fa | Expected=0xa2, Actual=0x00
# UVM_ERROR ../src/env/axi4_scoreboard.sv(250) @ 3515000: uvm_test_top.env.scb [axi4_scoreboard] [DATA_INTEGRITY_FAIL] Read mismatch at Beat 0, Byte Lane 3! Addr=0xd7c2b2fb | Expected=0x62, Actual=0x00
# UVM_ERROR ../src/env/axi4_scoreboard.sv(250) @ 3515000: uvm_test_top.env.scb [axi4_scoreboard] [DATA_INTEGRITY_FAIL] Read mismatch at Beat 1, Byte Lane 2! Addr=0xd7c2b2fe | Expected=0x8b, Actual=0x00
# UVM_ERROR ../src/env/axi4_scoreboard.sv(250) @ 3515000: uvm_test_top.env.scb [axi4_scoreboard] [DATA_INTEGRITY_FAIL] Read mismatch at Beat 1, Byte Lane 3! Addr=0xd7c2b2ff | Expected=0x18, Actual=0x00
# UVM_ERROR ../src/env/axi4_scoreboard.sv(250) @ 3515000: uvm_test_top.env.scb [axi4_scoreboard] [DATA_INTEGRITY_FAIL] Read mismatch at Beat 2, Byte Lane 0! Addr=0xd7c2b300 | Expected=0xf9, Actual=0x00
# UVM_ERROR ../src/env/axi4_scoreboard.sv(250) @ 3515000: uvm_test_top.env.scb [axi4_scoreboard] [DATA_INTEGRITY_FAIL] Read mismatch at Beat 2, Byte Lane 1! Addr=0xd7c2b301 | Expected=0x4f, Actual=0x00
# UVM_ERROR ../src/env/axi4_scoreboard.sv(250) @ 3515000: uvm_test_top.env.scb [axi4_scoreboard] [DATA_INTEGRITY_FAIL] Read mismatch at Beat 2, Byte Lane 2! Addr=0xd7c2b302 | Expected=0x7a, Actual=0x00
# UVM_ERROR ../src/env/axi4_scoreboard.sv(250) @ 3515000: uvm_test_top.env.scb [axi4_scoreboard] [DATA_INTEGRITY_FAIL] Read mismatch at Beat 3, Byte Lane 0! Addr=0xd7c2b304 | Expected=0x04, Actual=0x00
# UVM_ERROR ../src/env/axi4_scoreboard.sv(250) @ 3515000: uvm_test_top.env.scb [axi4_scoreboard] [DATA_INTEGRITY_FAIL] Read mismatch at Beat 3, Byte Lane 1! Addr=0xd7c2b305 | Expected=0x14, Actual=0x00
# UVM_ERROR ../src/env/axi4_scoreboard.sv(250) @ 3515000: uvm_test_top.env.scb [axi4_scoreboard] [DATA_INTEGRITY_FAIL] Read mismatch at Beat 4, Byte Lane 2! Addr=0xd7c2b30a | Expected=0x94, Actual=0x00
# UVM_ERROR ../src/env/axi4_scoreboard.sv(250) @ 3515000: uvm_test_top.env.scb [axi4_scoreboard] [DATA_INTEGRITY_FAIL] Read mismatch at Beat 5, Byte Lane 2! Addr=0xd7c2b30e | Expected=0x7a, Actual=0x00
# UVM_ERROR ../src/env/axi4_scoreboard.sv(250) @ 3515000: uvm_test_top.env.scb [axi4_scoreboard] [DATA_INTEGRITY_FAIL] Read mismatch at Beat 5, Byte Lane 3! Addr=0xd7c2b30f | Expected=0xb2, Actual=0x00
# UVM_ERROR ../src/env/axi4_scoreboard.sv(250) @ 3515000: uvm_test_top.env.scb [axi4_scoreboard] [DATA_INTEGRITY_FAIL] Read mismatch at Beat 6, Byte Lane 0! Addr=0xd7c2b310 | Expected=0x05, Actual=0x00
# UVM_ERROR ../src/env/axi4_scoreboard.sv(250) @ 3515000: uvm_test_top.env.scb [axi4_scoreboard] [DATA_INTEGRITY_FAIL] Read mismatch at Beat 7, Byte Lane 1! Addr=0xd7c2b315 | Expected=0xad, Actual=0x00
# UVM_ERROR ../src/env/axi4_scoreboard.sv(250) @ 3515000: uvm_test_top.env.scb [axi4_scoreboard] [DATA_INTEGRITY_FAIL] Read mismatch at Beat 7, Byte Lane 2! Addr=0xd7c2b316 | Expected=0x46, Actual=0x00
# UVM_ERROR ../src/env/axi4_scoreboard.sv(250) @ 3515000: uvm_test_top.env.scb [axi4_scoreboard] [DATA_INTEGRITY_FAIL] Read mismatch at Beat 7, Byte Lane 3! Addr=0xd7c2b317 | Expected=0x0f, Actual=0x00
# UVM_ERROR ../src/env/axi4_scoreboard.sv(250) @ 3515000: uvm_test_top.env.scb [axi4_scoreboard] [DATA_INTEGRITY_FAIL] Read mismatch at Beat 8, Byte Lane 0! Addr=0xd7c2b318 | Expected=0x25, Actual=0x00
# UVM_ERROR ../src/env/axi4_scoreboard.sv(250) @ 3515000: uvm_test_top.env.scb [axi4_scoreboard] [DATA_INTEGRITY_FAIL] Read mismatch at Beat 8, Byte Lane 3! Addr=0xd7c2b31b | Expected=0xce, Actual=0x00
# UVM_ERROR ../src/env/axi4_scoreboard.sv(250) @ 3515000: uvm_test_top.env.scb [axi4_scoreboard] [DATA_INTEGRITY_FAIL] Read mismatch at Beat 9, Byte Lane 0! Addr=0xd7c2b31c | Expected=0x39, Actual=0x00
# UVM_ERROR ../src/env/axi4_scoreboard.sv(250) @ 3515000: uvm_test_top.env.scb [axi4_scoreboard] [DATA_INTEGRITY_FAIL] Read mismatch at Beat 9, Byte Lane 2! Addr=0xd7c2b31e | Expected=0x1a, Actual=0x00
# UVM_ERROR ../src/env/axi4_scoreboard.sv(250) @ 3515000: uvm_test_top.env.scb [axi4_scoreboard] [DATA_INTEGRITY_FAIL] Read mismatch at Beat 10, Byte Lane 0! Addr=0xd7c2b320 | Expected=0x75, Actual=0x00
# UVM_ERROR ../src/env/axi4_scoreboard.sv(250) @ 3515000: uvm_test_top.env.scb [axi4_scoreboard] [DATA_INTEGRITY_FAIL] Read mismatch at Beat 10, Byte Lane 1! Addr=0xd7c2b321 | Expected=0xe8, Actual=0x00
# UVM_ERROR ../src/env/axi4_scoreboard.sv(250) @ 3515000: uvm_test_top.env.scb [axi4_scoreboard] [DATA_INTEGRITY_FAIL] Read mismatch at Beat 10, Byte Lane 3! Addr=0xd7c2b323 | Expected=0x66, Actual=0x00
# UVM_ERROR ../src/env/axi4_scoreboard.sv(250) @ 3515000: uvm_test_top.env.scb [axi4_scoreboard] [DATA_INTEGRITY_FAIL] Read mismatch at Beat 11, Byte Lane 0! Addr=0xd7c2b324 | Expected=0x45, Actual=0x00
# UVM_ERROR ../src/env/axi4_scoreboard.sv(250) @ 3515000: uvm_test_top.env.scb [axi4_scoreboard] [DATA_INTEGRITY_FAIL] Read mismatch at Beat 11, Byte Lane 1! Addr=0xd7c2b325 | Expected=0x6e, Actual=0x00
# UVM_ERROR ../src/env/axi4_scoreboard.sv(250) @ 3515000: uvm_test_top.env.scb [axi4_scoreboard] [DATA_INTEGRITY_FAIL] Read mismatch at Beat 12, Byte Lane 0! Addr=0xd7c2b328 | Expected=0xb0, Actual=0x00
# UVM_ERROR ../src/env/axi4_scoreboard.sv(250) @ 3515000: uvm_test_top.env.scb [axi4_scoreboard] [DATA_INTEGRITY_FAIL] Read mismatch at Beat 12, Byte Lane 1! Addr=0xd7c2b329 | Expected=0x73, Actual=0x00
# UVM_ERROR ../src/env/axi4_scoreboard.sv(250) @ 3515000: uvm_test_top.env.scb [axi4_scoreboard] [DATA_INTEGRITY_FAIL] Read mismatch at Beat 12, Byte Lane 3! Addr=0xd7c2b32b | Expected=0x08, Actual=0x00
# UVM_ERROR ../src/env/axi4_scoreboard.sv(250) @ 3515000: uvm_test_top.env.scb [axi4_scoreboard] [DATA_INTEGRITY_FAIL] Read mismatch at Beat 13, Byte Lane 0! Addr=0xd7c2b32c | Expected=0xb8, Actual=0x00
# UVM_ERROR ../src/env/axi4_scoreboard.sv(250) @ 3515000: uvm_test_top.env.scb [axi4_scoreboard] [DATA_INTEGRITY_FAIL] Read mismatch at Beat 14, Byte Lane 1! Addr=0xd7c2b331 | Expected=0xd7, Actual=0x00
# UVM_ERROR ../src/env/axi4_scoreboard.sv(250) @ 3515000: uvm_test_top.env.scb [axi4_scoreboard] [DATA_INTEGRITY_FAIL] Read mismatch at Beat 14, Byte Lane 3! Addr=0xd7c2b333 | Expected=0x7e, Actual=0x00
# UVM_INFO ../src/seq/axi4_write_read_back_seq.sv(80) @ 3515000: uvm_test_top.env.master_agent.sqr@@wr_rd_seq_8 [axi4_write_read_back_seq] Read-back phase: ADDR=0xd7c2b2f9 LEN=14 - data integrity check via scoreboard
# UVM_INFO ../src/test/axi4_wr_rd_test.sv(52) @ 3515000: uvm_test_top [axi4_wr_rd_test] [10/10] ADDR=0x65546659 LEN=5 BURST=AXI4_BURST_INCR
# UVM_INFO ../src/mst/axi4_master_driver.sv(55) @ 3515000: uvm_test_top.env.master_agent.drv [axi4_master_driver] Driving AXI4_WRITE  ID=0xd  ADDR=0x65546659  LEN=5
# UVM_INFO ../src/mst/axi4_master_driver.sv(106) @ 3515000: uvm_test_top.env.master_agent.drv [axi4_master_driver] Write order: W -> AW (W first)
# UVM_INFO ../src/slv/axi4_slave_driver.sv(165) @ 3585000: uvm_test_top.env.slave_agent.drv [axi4_slave_driver] AW received: ID=0xd ADDR=0x65546659 LEN=5 LOCK=AXI4_LOCK_EXCLUSIVE
# UVM_INFO ../src/mst/axi4_master_monitor.sv(124) @ 3585000: uvm_test_top.env.master_agent.mon [axi4_master_monitor] AW observed: ID=0xd ADDR=0x65546659 LEN=5
# UVM_INFO ../src/slv/axi4_slave_monitor.sv(116) @ 3585000: uvm_test_top.env.slave_agent.mon [axi4_slave_monitor] AW received: ID=0xd ADDR=0x65546659 LEN=5
# UVM_INFO ../src/slv/axi4_slave_monitor.sv(167) @ 3635000: uvm_test_top.env.slave_agent.mon [axi4_slave_monitor] W data assembled: ID=0xd ADDR=0x65546659 6 beats
# UVM_INFO ../src/mst/axi4_master_monitor.sv(184) @ 3635000: uvm_test_top.env.master_agent.mon [axi4_master_monitor] W data assembled: ID=0xd ADDR=0x65546659 6 beats
# UVM_INFO ../src/mst/axi4_master_driver.sv(197) @ 3665000: uvm_test_top.env.master_agent.drv [axi4_master_driver] Write response: AXI4_RESP_OKAY
# UVM_INFO ../src/slv/axi4_slave_driver.sv(263) @ 3665000: uvm_test_top.env.slave_agent.drv [axi4_slave_driver] Write complete: ID=0xd ADDR=0x65546659 RESP=AXI4_RESP_OKAY  6 beats processed
# UVM_INFO ../src/mst/axi4_master_monitor.sv(210) @ 3665000: uvm_test_top.env.master_agent.mon [axi4_master_monitor] Write complete: ID=0xd ADDR=0x65546659 RESP=AXI4_RESP_OKAY
# UVM_INFO ../src/env/axi4_scoreboard.sv(87) @ 3665000: uvm_test_top.env.scb [axi4_scoreboard] Master AXI4_WRITE received: ID=0xd ADDR=0x65546659 LEN=5
# UVM_INFO ../src/slv/axi4_slave_monitor.sv(189) @ 3665000: uvm_test_top.env.slave_agent.mon [axi4_slave_monitor] Write response sent: ID=0xd ADDR=0x65546659 RESP=AXI4_RESP_OKAY
# UVM_INFO ../src/env/axi4_scoreboard.sv(108) @ 3665000: uvm_test_top.env.scb [axi4_scoreboard] Slave AXI4_WRITE received: ID=0xd ADDR=0x65546659 LEN=5
# UVM_INFO ../src/env/axi4_scoreboard.sv(271) @ 3665000: uvm_test_top.env.scb [axi4_scoreboard] [WRITE] MATCH #19: ID=0xd ADDR=0x65546659 LEN=5
# UVM_INFO ../src/env/axi4_scoreboard.sv(204) @ 3665000: uvm_test_top.env.scb [axi4_scoreboard] [REF_MEM_WRITE] Addr=0x6554665b Data=0x66
# UVM_INFO ../src/env/axi4_scoreboard.sv(204) @ 3665000: uvm_test_top.env.scb [axi4_scoreboard] [REF_MEM_WRITE] Addr=0x6554665c Data=0x0e
# UVM_INFO ../src/env/axi4_scoreboard.sv(204) @ 3665000: uvm_test_top.env.scb [axi4_scoreboard] [REF_MEM_WRITE] Addr=0x6554665d Data=0xd0
# UVM_INFO ../src/env/axi4_scoreboard.sv(204) @ 3665000: uvm_test_top.env.scb [axi4_scoreboard] [REF_MEM_WRITE] Addr=0x6554665e Data=0x80
# UVM_INFO ../src/env/axi4_scoreboard.sv(204) @ 3665000: uvm_test_top.env.scb [axi4_scoreboard] [REF_MEM_WRITE] Addr=0x6554665f Data=0xff
# UVM_INFO ../src/env/axi4_scoreboard.sv(204) @ 3665000: uvm_test_top.env.scb [axi4_scoreboard] [REF_MEM_WRITE] Addr=0x65546664 Data=0xa4
# UVM_INFO ../src/env/axi4_scoreboard.sv(204) @ 3665000: uvm_test_top.env.scb [axi4_scoreboard] [REF_MEM_WRITE] Addr=0x65546666 Data=0x82
# UVM_INFO ../src/env/axi4_scoreboard.sv(204) @ 3665000: uvm_test_top.env.scb [axi4_scoreboard] [REF_MEM_WRITE] Addr=0x65546667 Data=0x96
# UVM_INFO ../src/env/axi4_scoreboard.sv(204) @ 3665000: uvm_test_top.env.scb [axi4_scoreboard] [REF_MEM_WRITE] Addr=0x65546668 Data=0x0a
# UVM_INFO ../src/env/axi4_scoreboard.sv(204) @ 3665000: uvm_test_top.env.scb [axi4_scoreboard] [REF_MEM_WRITE] Addr=0x6554666b Data=0xe5
# UVM_INFO ../src/env/axi4_scoreboard.sv(204) @ 3665000: uvm_test_top.env.scb [axi4_scoreboard] [REF_MEM_WRITE] Addr=0x6554666c Data=0xdd
# UVM_INFO ../src/env/axi4_scoreboard.sv(204) @ 3665000: uvm_test_top.env.scb [axi4_scoreboard] [REF_MEM_WRITE] Addr=0x6554666d Data=0x35
# UVM_INFO ../src/env/axi4_scoreboard.sv(204) @ 3665000: uvm_test_top.env.scb [axi4_scoreboard] [REF_MEM_WRITE] Addr=0x6554666f Data=0x08
# UVM_INFO ../src/seq/axi4_write_read_back_seq.sv(60) @ 3665000: uvm_test_top.env.master_agent.sqr@@wr_rd_seq_9 [axi4_write_read_back_seq] Write phase: ADDR=0x65546659 LEN=5 SIZE=AXI4_SIZE_4B BURST=AXI4_BURST_INCR
# UVM_INFO ../src/mst/axi4_master_driver.sv(55) @ 3665000: uvm_test_top.env.master_agent.drv [axi4_master_driver] Driving AXI4_READ  ID=0x1  ADDR=0x65546659  LEN=5
# UVM_INFO ../src/slv/axi4_slave_driver.sv(302) @ 3695000: uvm_test_top.env.slave_agent.drv [axi4_slave_driver] AR received: ID=0x1 ADDR=0x65546659 LEN=5 LOCK=AXI4_LOCK_EXCLUSIVE
# UVM_INFO ../src/slv/axi4_slave_monitor.sv(224) @ 3695000: uvm_test_top.env.slave_agent.mon [axi4_slave_monitor] AR received: ID=0x1 ADDR=0x65546659 LEN=5
# UVM_INFO ../src/mst/axi4_master_monitor.sv(246) @ 3695000: uvm_test_top.env.master_agent.mon [axi4_master_monitor] AR observed: ID=0x1 ADDR=0x65546659 LEN=5
# UVM_INFO ../src/mst/axi4_master_driver.sv(254) @ 3815000: uvm_test_top.env.master_agent.drv [axi4_master_driver] Read complete: 6 beats received
# UVM_INFO ../src/slv/axi4_slave_driver.sv(356) @ 3815000: uvm_test_top.env.slave_agent.drv [axi4_slave_driver] Read complete: ID=0x1 ADDR=0x65546659 RESP=AXI4_RESP_EXOKAY  6 beats sent
# UVM_INFO ../src/slv/axi4_slave_monitor.sv(287) @ 3815000: uvm_test_top.env.slave_agent.mon [axi4_slave_monitor] Read data sent: ID=0x1 ADDR=0x65546659 6 beats
# UVM_INFO ../src/env/axi4_scoreboard.sv(108) @ 3815000: uvm_test_top.env.scb [axi4_scoreboard] Slave AXI4_READ received: ID=0x1 ADDR=0x65546659 LEN=5
# UVM_INFO ../src/mst/axi4_master_monitor.sv(314) @ 3815000: uvm_test_top.env.master_agent.mon [axi4_master_monitor] Read complete: ID=0x1 ADDR=0x65546659 6 beats
# UVM_INFO ../src/env/axi4_scoreboard.sv(87) @ 3815000: uvm_test_top.env.scb [axi4_scoreboard] Master AXI4_READ received: ID=0x1 ADDR=0x65546659 LEN=5
# UVM_INFO ../src/env/axi4_scoreboard.sv(271) @ 3815000: uvm_test_top.env.scb [axi4_scoreboard] [READ] MATCH #20: ID=0x1 ADDR=0x65546659 LEN=5
# UVM_ERROR ../src/env/axi4_scoreboard.sv(250) @ 3815000: uvm_test_top.env.scb [axi4_scoreboard] [DATA_INTEGRITY_FAIL] Read mismatch at Beat 0, Byte Lane 3! Addr=0x6554665b | Expected=0x66, Actual=0x00
# UVM_ERROR ../src/env/axi4_scoreboard.sv(250) @ 3815000: uvm_test_top.env.scb [axi4_scoreboard] [DATA_INTEGRITY_FAIL] Read mismatch at Beat 0, Byte Lane 0! Addr=0x6554665c | Expected=0x0e, Actual=0x00
# UVM_ERROR ../src/env/axi4_scoreboard.sv(250) @ 3815000: uvm_test_top.env.scb [axi4_scoreboard] [DATA_INTEGRITY_FAIL] Read mismatch at Beat 1, Byte Lane 0! Addr=0x6554665c | Expected=0x0e, Actual=0x00
# UVM_ERROR ../src/env/axi4_scoreboard.sv(250) @ 3815000: uvm_test_top.env.scb [axi4_scoreboard] [DATA_INTEGRITY_FAIL] Read mismatch at Beat 1, Byte Lane 1! Addr=0x6554665d | Expected=0xd0, Actual=0x00
# UVM_ERROR ../src/env/axi4_scoreboard.sv(250) @ 3815000: uvm_test_top.env.scb [axi4_scoreboard] [DATA_INTEGRITY_FAIL] Read mismatch at Beat 1, Byte Lane 2! Addr=0x6554665e | Expected=0x80, Actual=0x00
# UVM_ERROR ../src/env/axi4_scoreboard.sv(250) @ 3815000: uvm_test_top.env.scb [axi4_scoreboard] [DATA_INTEGRITY_FAIL] Read mismatch at Beat 1, Byte Lane 3! Addr=0x6554665f | Expected=0xff, Actual=0x00
# UVM_ERROR ../src/env/axi4_scoreboard.sv(250) @ 3815000: uvm_test_top.env.scb [axi4_scoreboard] [DATA_INTEGRITY_FAIL] Read mismatch at Beat 3, Byte Lane 0! Addr=0x65546664 | Expected=0xa4, Actual=0x00
# UVM_ERROR ../src/env/axi4_scoreboard.sv(250) @ 3815000: uvm_test_top.env.scb [axi4_scoreboard] [DATA_INTEGRITY_FAIL] Read mismatch at Beat 3, Byte Lane 2! Addr=0x65546666 | Expected=0x82, Actual=0x00
# UVM_ERROR ../src/env/axi4_scoreboard.sv(250) @ 3815000: uvm_test_top.env.scb [axi4_scoreboard] [DATA_INTEGRITY_FAIL] Read mismatch at Beat 3, Byte Lane 3! Addr=0x65546667 | Expected=0x96, Actual=0x00
# UVM_ERROR ../src/env/axi4_scoreboard.sv(250) @ 3815000: uvm_test_top.env.scb [axi4_scoreboard] [DATA_INTEGRITY_FAIL] Read mismatch at Beat 4, Byte Lane 0! Addr=0x65546668 | Expected=0x0a, Actual=0x00
# UVM_ERROR ../src/env/axi4_scoreboard.sv(250) @ 3815000: uvm_test_top.env.scb [axi4_scoreboard] [DATA_INTEGRITY_FAIL] Read mismatch at Beat 4, Byte Lane 3! Addr=0x6554666b | Expected=0xe5, Actual=0x00
# UVM_ERROR ../src/env/axi4_scoreboard.sv(250) @ 3815000: uvm_test_top.env.scb [axi4_scoreboard] [DATA_INTEGRITY_FAIL] Read mismatch at Beat 5, Byte Lane 0! Addr=0x6554666c | Expected=0xdd, Actual=0x00
# UVM_ERROR ../src/env/axi4_scoreboard.sv(250) @ 3815000: uvm_test_top.env.scb [axi4_scoreboard] [DATA_INTEGRITY_FAIL] Read mismatch at Beat 5, Byte Lane 1! Addr=0x6554666d | Expected=0x35, Actual=0x00
# UVM_ERROR ../src/env/axi4_scoreboard.sv(250) @ 3815000: uvm_test_top.env.scb [axi4_scoreboard] [DATA_INTEGRITY_FAIL] Read mismatch at Beat 5, Byte Lane 3! Addr=0x6554666f | Expected=0x08, Actual=0x00
# UVM_INFO ../src/seq/axi4_write_read_back_seq.sv(80) @ 3815000: uvm_test_top.env.master_agent.sqr@@wr_rd_seq_9 [axi4_write_read_back_seq] Read-back phase: ADDR=0x65546659 LEN=5 - data integrity check via scoreboard
# UVM_INFO ../src/test/axi4_wr_rd_test.sv(62) @ 4315000: uvm_test_top [axi4_wr_rd_test] 10 write-read-back iterations complete
# UVM_INFO verilog_src/uvm-1.1d/src/base/uvm_objection.svh(1268) @ 4315000: reporter [TEST_DONE] 'run' phase is ready to proceed to the 'extract' phase
# UVM_ERROR ../src/env/axi4_scoreboard.sv(300) @ 4315000: uvm_test_top.env.scb [axi4_scoreboard] 65 transaction MISMATCHES detected
# UVM_INFO ../src/env/axi4_scoreboard.sv(340) @ 4315000: uvm_test_top.env.scb [axi4_scoreboard] 
# ========================================
#          SCOREBOARD SUMMARY
# ========================================
#   Master transactions : 20
#   Slave transactions  : 20
#   Matches             : 20
#   Mismatches          : 65
#   Unmatched master WR : 0
#   Unmatched master RD : 0
#   Unmatched slave  WR : 0
#   Unmatched slave  RD : 0
# ========================================
#   RESULT : FAIL
# ========================================
# UVM_INFO ../src/test/axi4_base_test.sv(93) @ 4315000: uvm_test_top [axi4_wr_rd_test] 
# === TEST FAILED === (66 errors)
# 
# 
# --- UVM Report Summary ---
# 
# ** Report counts by severity
# UVM_INFO :  450
# UVM_WARNING :    0
# UVM_ERROR :   66
# UVM_FATAL :    0
# ** Report counts by id
# [Questa UVM]     3
# [RNTST]     1
# [TB_TOP]     2
# [TEST_DONE]     1
# [TOP_TB]     1
# [UVMTOP]     1
# [axi4_master_agent]     1
# [axi4_master_driver]    51
# [axi4_master_monitor]    51
# [axi4_scoreboard]   273
# [axi4_slave_agent]     1
# [axi4_slave_driver]    41
# [axi4_slave_monitor]    51
# [axi4_vip_env]     5
# [axi4_wr_rd_test]    13
# [axi4_write_read_back_seq]    20
# ** Note: $finish    : /cadtools/mentor/Questa_10.6b/questasim/linux_x86_64/../verilog_src/uvm-1.1d/src/base/uvm_root.svh(430)
#    Time: 4315 ns  Iteration: 55  Instance: /tb_top
# End time: 08:36:30 on Jun 08,2026, Elapsed time: 0:00:42
# Errors: 0, Warnings: 0
