# vsim -c -coverage -l ./report/logs/run.log -sv_seed 1503 "+UVM_TESTNAME=axi4_wlast_before_aw_test" "+UVM_VERBOSITY=UVM_HIGH" "+DUMP_VCD" -do "coverage save -onexit ./report/coverage/axi4_wlast_before_aw_test_seed_1503.ucdb; run -all; quit -f" opt_tb_top 
# Start time: 15:31:33 on Jul 07,2026
# //  Questa Sim-64
# //  Version 10.6b linux_x86_64 May 25 2017
# //
# //  Copyright 1991-2017 Mentor Graphics Corporation
# //  All Rights Reserved.
# //
# //  QuestaSim and its associated documentation contain trade
# //  secrets and commercial or financial information that are the property of
# //  Mentor Graphics Corporation and are privileged, confidential,
# //  and exempt from disclosure under the Freedom of Information Act,
# //  5 U.S.C. Section 552. Furthermore, this information
# //  is prohibited from disclosure under the Trade Secrets Act,
# //  18 U.S.C. Section 1905.
# //
# Loading sv_std.std
# Loading work.axi4_if(fast)
# Loading mtiUvm.uvm_pkg
# Loading work.axi4_pkg(fast)
# Loading work.axi4_test_pkg(fast)
# Loading work.tb_top(fast)
# Loading work.axi4_if(fast)
# Loading work.axi4_sva(fast)
# Loading mtiUvm.questa_uvm_pkg(fast)
# Loading /cadtools/mentor/Questa_10.6b/questasim/uvm-1.1d/linux_x86_64/uvm_dpi.so
# coverage save -onexit ./report/coverage/axi4_wlast_before_aw_test_seed_1503.ucdb
#  run -all
# ----------------------------------------------------------------
# UVM-1.1d
# (C) 2007-2013 Mentor Graphics Corporation
# (C) 2007-2013 Cadence Design Systems, Inc.
# (C) 2006-2013 Synopsys, Inc.
# (C) 2011-2013 Cypress Semiconductor Corp.
# ----------------------------------------------------------------
# 
#   ***********       IMPORTANT RELEASE NOTES         ************
# 
#   You are using a version of the UVM library that has been compiled
#   with `UVM_NO_DEPRECATED undefined.
#   See http://www.eda.org/svdb/view.php?id=3313 for more details.
# 
#   You are using a version of the UVM library that has been compiled
#   with `UVM_OBJECT_MUST_HAVE_CONSTRUCTOR undefined.
#   See http://www.eda.org/svdb/view.php?id=3770 for more details.
# 
#       (Specify +UVM_NO_RELNOTES to turn off this notice)
# 
# UVM_INFO verilog_src/questa_uvm_pkg-1.2/src/questa_uvm_pkg.sv(215) @ 0: reporter [Questa UVM] QUESTA_UVM-1.2.3
# UVM_INFO verilog_src/questa_uvm_pkg-1.2/src/questa_uvm_pkg.sv(217) @ 0: reporter [Questa UVM]  questa_uvm::init(+struct)
# UVM_INFO ../src/tb_top.sv(147) @ 0: reporter [TB_TOP] Virtual interface set in config_db
# UVM_INFO @ 0: reporter [RNTST] Running test axi4_wlast_before_aw_test...
# UVM_INFO ../src/tb_top.sv(161) @ 0: reporter [TB_TOP] Waveform VCD dumping enabled (axi4_vip.vcd)
# UVM_INFO ../src/env/axi4_vip_env.sv(83) @ 0: uvm_test_top.env [axi4_vip_env] slave_vif not set - reusing master_vif (passthrough mode)
# UVM_INFO ../src/env/axi4_vip_env.sv(93) @ 0: uvm_test_top.env [axi4_vip_env] Scoreboard created
# UVM_INFO ../src/env/axi4_vip_env.sv(100) @ 0: uvm_test_top.env [axi4_vip_env] Coverage collectors created
# UVM_INFO ../src/mst/axi4_master_agent.sv(69) @ 0: uvm_test_top.env.master_agent [axi4_master_agent] ACTIVE mode - driver + sequencer created
# UVM_INFO ../src/slv/axi4_slave_agent.sv(82) @ 0: uvm_test_top.env.slave_agent [axi4_slave_agent] ACTIVE mode - ready_delay=[0:0] resp_delay=[0:0]
# UVM_INFO ../src/env/axi4_vip_env.sv(116) @ 0: uvm_test_top.env [axi4_vip_env] Scoreboard connected: master_mon.ap -> scb, slave_mon.ap -> scb
# UVM_INFO ../src/env/axi4_vip_env.sv(124) @ 0: uvm_test_top.env [axi4_vip_env] Coverage connected: master_mon.ap -> master_cov, slave_mon.ap -> slave_cov
# UVM_INFO @ 0: reporter [UVMTOP] UVM testbench topology:
# -----------------------------------------------------------------
# Name                       Type                       Size  Value
# -----------------------------------------------------------------
# uvm_test_top               axi4_wlast_before_aw_test  -     @475 
#   env                      axi4_vip_env               -     @490 
#     master_agent           axi4_master_agent          -     @505 
#       drv                  axi4_master_driver         -     @569 
#         rsp_port           uvm_analysis_port          -     @584 
#         seq_item_port      uvm_seq_item_pull_port     -     @576 
#       mon                  axi4_master_monitor        -     @561 
#         ap                 uvm_analysis_port          -     @702 
#       sqr                  axi4_master_sequencer      -     @592 
#         rsp_export         uvm_analysis_export        -     @599 
#         seq_item_export    uvm_seq_item_pull_imp      -     @693 
#         arbitration_queue  array                      0     -    
#         lock_queue         array                      0     -    
#         num_last_reqs      integral                   32    'd1  
#         num_last_rsps      integral                   32    'd1  
#     master_cov             axi4_coverage              -     @526 
#       analysis_imp         uvm_analysis_imp           -     @533 
#     scb                    axi4_scoreboard            -     @519 
#       master_export        uvm_analysis_imp_master    -     @716 
#       slave_export         uvm_analysis_imp_slave     -     @724 
#     slave_agent            axi4_slave_agent           -     @512 
#       drv                  axi4_slave_driver          -     @755 
#         rsp_port           uvm_analysis_port          -     @770 
#         seq_item_port      uvm_seq_item_pull_port     -     @762 
#       mon                  axi4_slave_monitor         -     @737 
#         ap                 uvm_analysis_port          -     @894 
#       sqr                  axi4_slave_sequencer       -     @778 
#         rsp_export         uvm_analysis_export        -     @785 
#         seq_item_export    uvm_seq_item_pull_imp      -     @879 
#         arbitration_queue  array                      0     -    
#         lock_queue         array                      0     -    
#         num_last_reqs      integral                   32    'd1  
#         num_last_rsps      integral                   32    'd1  
#     slave_cov              axi4_coverage              -     @541 
#       analysis_imp         uvm_analysis_imp           -     @548 
# -----------------------------------------------------------------
# 
# UVM_INFO verilog_src/questa_uvm_pkg-1.2/src/questa_uvm_pkg.sv(277) @ 0: reporter [Questa UVM] End Of Elaboration
# UVM_INFO ../src/test/axi4_wlast_before_aw_test.sv(29) @ 0: uvm_test_top [axi4_wlast_before_aw_test] Starting W-before-AW partial-overlap test (Case B)
# UVM_INFO ../src/seq/axi4_wlast_before_aw_seq.sv(32) @ 0: uvm_test_top.env.master_agent.sqr@@seq [axi4_wlast_before_aw_seq] Starting W-before-AW partial-overlap sequence (Case B)
# UVM_INFO ../src/tb_top.sv(49) @ 95000: reporter [TOP_TB] Reset de-asserted
# UVM_INFO ../src/slv/axi4_slave_driver.sv(131) @ 95000: uvm_test_top.env.slave_agent.drv [axi4_slave_driver] Reset deasserted - slave driver active
# UVM_INFO ../src/mst/axi4_master_driver.sv(64) @ 95000: uvm_test_top.env.master_agent.drv [axi4_master_driver] Reset deasserted - master driver active
# UVM_INFO ../src/mst/axi4_master_monitor.sv(77) @ 95000: uvm_test_top.env.master_agent.mon [axi4_master_monitor] Reset deasserted - monitor active
# UVM_INFO ../src/slv/axi4_slave_monitor.sv(71) @ 95000: uvm_test_top.env.slave_agent.mon [axi4_slave_monitor] Reset deasserted - monitor active
# UVM_INFO ../src/mst/axi4_master_driver.sv(73) @ 95000: uvm_test_top.env.master_agent.drv [axi4_master_driver] Driving AXI4_WRITE  ID=0x0  ADDR=0x00004000  LEN=15
# UVM_INFO ../src/slv/axi4_slave_driver.sv(228) @ 165000: uvm_test_top.env.slave_agent.drv [axi4_slave_driver] AW received: ID=0x0 ADDR=0x00004000 LEN=15 LOCK=AXI4_LOCK_EXCLUSIVE
# UVM_INFO ../src/mst/axi4_master_monitor.sv(124) @ 165000: uvm_test_top.env.master_agent.mon [axi4_master_monitor] AW observed: ID=0x0 ADDR=0x00004000 LEN=15
# UVM_INFO ../src/slv/axi4_slave_monitor.sv(116) @ 165000: uvm_test_top.env.slave_agent.mon [axi4_slave_monitor] AW received: ID=0x0 ADDR=0x00004000 LEN=15
# UVM_INFO ../src/mst/axi4_master_monitor.sv(184) @ 405000: uvm_test_top.env.master_agent.mon [axi4_master_monitor] W data assembled: ID=0x0 ADDR=0x00004000 16 beats
# UVM_INFO ../src/slv/axi4_slave_monitor.sv(167) @ 405000: uvm_test_top.env.slave_agent.mon [axi4_slave_monitor] W data assembled: ID=0x0 ADDR=0x00004000 16 beats
# UVM_INFO ../src/mst/axi4_master_driver.sv(289) @ 435000: uvm_test_top.env.master_agent.drv [axi4_master_driver] Master driver received B response: ID=0x0 RESP=AXI4_RESP_OKAY
# UVM_INFO ../src/slv/axi4_slave_driver.sv(348) @ 435000: uvm_test_top.env.slave_agent.drv [axi4_slave_driver] Write complete: ID=0x0 RESP=AXI4_RESP_OKAY
# UVM_INFO ../src/slv/axi4_slave_monitor.sv(189) @ 435000: uvm_test_top.env.slave_agent.mon [axi4_slave_monitor] Write response sent: ID=0x0 ADDR=0x00004000 RESP=AXI4_RESP_OKAY
# UVM_INFO ../src/env/axi4_scoreboard.sv(108) @ 435000: uvm_test_top.env.scb [axi4_scoreboard] Slave AXI4_WRITE received: ID=0x0 ADDR=0x00004000 LEN=15
# UVM_INFO ../src/mst/axi4_master_monitor.sv(210) @ 435000: uvm_test_top.env.master_agent.mon [axi4_master_monitor] Write complete: ID=0x0 ADDR=0x00004000 RESP=AXI4_RESP_OKAY
# UVM_INFO ../src/env/axi4_scoreboard.sv(87) @ 435000: uvm_test_top.env.scb [axi4_scoreboard] Master AXI4_WRITE received: ID=0x0 ADDR=0x00004000 LEN=15
# UVM_INFO ../src/env/axi4_scoreboard.sv(291) @ 435000: uvm_test_top.env.scb [axi4_scoreboard] [WRITE] MATCH #1: ID=0x0 ADDR=0x00004000 LEN=15
# UVM_INFO ../src/env/axi4_scoreboard.sv(226) @ 435000: uvm_test_top.env.scb [axi4_scoreboard] [REF_MEM_WRITE_IGNORED] Write ignored for ADDR=0x00004000 LOCK=AXI4_LOCK_EXCLUSIVE RESP=AXI4_RESP_OKAY
# UVM_INFO ../src/seq/axi4_wlast_before_aw_seq.sv(54) @ 435000: uvm_test_top.env.master_agent.sqr@@seq [axi4_wlast_before_aw_seq] W_BEFORE_AW done: ADDR=0x00004000 LEN=15 (16 beats) RESP=AXI4_RESP_OKAY
# UVM_INFO ../src/mst/axi4_master_driver.sv(73) @ 435000: uvm_test_top.env.master_agent.drv [axi4_master_driver] Driving AXI4_WRITE  ID=0x1  ADDR=0x00004100  LEN=7
# UVM_INFO ../src/slv/axi4_slave_driver.sv(228) @ 495000: uvm_test_top.env.slave_agent.drv [axi4_slave_driver] AW received: ID=0x1 ADDR=0x00004100 LEN=7 LOCK=AXI4_LOCK_EXCLUSIVE
# UVM_INFO ../src/slv/axi4_slave_monitor.sv(116) @ 495000: uvm_test_top.env.slave_agent.mon [axi4_slave_monitor] AW received: ID=0x1 ADDR=0x00004100 LEN=7
# UVM_INFO ../src/mst/axi4_master_monitor.sv(124) @ 495000: uvm_test_top.env.master_agent.mon [axi4_master_monitor] AW observed: ID=0x1 ADDR=0x00004100 LEN=7
# UVM_INFO ../src/slv/axi4_slave_monitor.sv(167) @ 595000: uvm_test_top.env.slave_agent.mon [axi4_slave_monitor] W data assembled: ID=0x1 ADDR=0x00004100 8 beats
# UVM_INFO ../src/mst/axi4_master_monitor.sv(184) @ 595000: uvm_test_top.env.master_agent.mon [axi4_master_monitor] W data assembled: ID=0x1 ADDR=0x00004100 8 beats
# UVM_INFO ../src/mst/axi4_master_driver.sv(289) @ 625000: uvm_test_top.env.master_agent.drv [axi4_master_driver] Master driver received B response: ID=0x1 RESP=AXI4_RESP_OKAY
# UVM_INFO ../src/slv/axi4_slave_driver.sv(348) @ 625000: uvm_test_top.env.slave_agent.drv [axi4_slave_driver] Write complete: ID=0x1 RESP=AXI4_RESP_OKAY
# UVM_INFO ../src/mst/axi4_master_monitor.sv(210) @ 625000: uvm_test_top.env.master_agent.mon [axi4_master_monitor] Write complete: ID=0x1 ADDR=0x00004100 RESP=AXI4_RESP_OKAY
# UVM_INFO ../src/env/axi4_scoreboard.sv(87) @ 625000: uvm_test_top.env.scb [axi4_scoreboard] Master AXI4_WRITE received: ID=0x1 ADDR=0x00004100 LEN=7
# UVM_INFO ../src/slv/axi4_slave_monitor.sv(189) @ 625000: uvm_test_top.env.slave_agent.mon [axi4_slave_monitor] Write response sent: ID=0x1 ADDR=0x00004100 RESP=AXI4_RESP_OKAY
# UVM_INFO ../src/env/axi4_scoreboard.sv(108) @ 625000: uvm_test_top.env.scb [axi4_scoreboard] Slave AXI4_WRITE received: ID=0x1 ADDR=0x00004100 LEN=7
# UVM_INFO ../src/env/axi4_scoreboard.sv(291) @ 625000: uvm_test_top.env.scb [axi4_scoreboard] [WRITE] MATCH #2: ID=0x1 ADDR=0x00004100 LEN=7
# UVM_INFO ../src/env/axi4_scoreboard.sv(226) @ 625000: uvm_test_top.env.scb [axi4_scoreboard] [REF_MEM_WRITE_IGNORED] Write ignored for ADDR=0x00004100 LOCK=AXI4_LOCK_EXCLUSIVE RESP=AXI4_RESP_OKAY
# UVM_INFO ../src/seq/axi4_wlast_before_aw_seq.sv(54) @ 625000: uvm_test_top.env.master_agent.sqr@@seq [axi4_wlast_before_aw_seq] W_BEFORE_AW done: ADDR=0x00004100 LEN=7 (8 beats) RESP=AXI4_RESP_OKAY
# UVM_INFO ../src/mst/axi4_master_driver.sv(73) @ 625000: uvm_test_top.env.master_agent.drv [axi4_master_driver] Driving AXI4_WRITE  ID=0x2  ADDR=0x00004200  LEN=15
# UVM_INFO ../src/slv/axi4_slave_driver.sv(228) @ 685000: uvm_test_top.env.slave_agent.drv [axi4_slave_driver] AW received: ID=0x2 ADDR=0x00004200 LEN=15 LOCK=AXI4_LOCK_NORMAL
# UVM_INFO ../src/mst/axi4_master_monitor.sv(124) @ 685000: uvm_test_top.env.master_agent.mon [axi4_master_monitor] AW observed: ID=0x2 ADDR=0x00004200 LEN=15
# UVM_INFO ../src/slv/axi4_slave_monitor.sv(116) @ 685000: uvm_test_top.env.slave_agent.mon [axi4_slave_monitor] AW received: ID=0x2 ADDR=0x00004200 LEN=15
# UVM_INFO ../src/mst/axi4_master_monitor.sv(184) @ 945000: uvm_test_top.env.master_agent.mon [axi4_master_monitor] W data assembled: ID=0x2 ADDR=0x00004200 16 beats
# UVM_INFO ../src/slv/axi4_slave_monitor.sv(167) @ 945000: uvm_test_top.env.slave_agent.mon [axi4_slave_monitor] W data assembled: ID=0x2 ADDR=0x00004200 16 beats
# UVM_INFO ../src/mst/axi4_master_driver.sv(289) @ 975000: uvm_test_top.env.master_agent.drv [axi4_master_driver] Master driver received B response: ID=0x2 RESP=AXI4_RESP_OKAY
# UVM_INFO ../src/slv/axi4_slave_driver.sv(348) @ 975000: uvm_test_top.env.slave_agent.drv [axi4_slave_driver] Write complete: ID=0x2 RESP=AXI4_RESP_OKAY
# UVM_INFO ../src/slv/axi4_slave_monitor.sv(189) @ 975000: uvm_test_top.env.slave_agent.mon [axi4_slave_monitor] Write response sent: ID=0x2 ADDR=0x00004200 RESP=AXI4_RESP_OKAY
# UVM_INFO ../src/env/axi4_scoreboard.sv(108) @ 975000: uvm_test_top.env.scb [axi4_scoreboard] Slave AXI4_WRITE received: ID=0x2 ADDR=0x00004200 LEN=15
# UVM_INFO ../src/mst/axi4_master_monitor.sv(210) @ 975000: uvm_test_top.env.master_agent.mon [axi4_master_monitor] Write complete: ID=0x2 ADDR=0x00004200 RESP=AXI4_RESP_OKAY
# UVM_INFO ../src/env/axi4_scoreboard.sv(87) @ 975000: uvm_test_top.env.scb [axi4_scoreboard] Master AXI4_WRITE received: ID=0x2 ADDR=0x00004200 LEN=15
# UVM_INFO ../src/env/axi4_scoreboard.sv(291) @ 975000: uvm_test_top.env.scb [axi4_scoreboard] [WRITE] MATCH #3: ID=0x2 ADDR=0x00004200 LEN=15
# UVM_INFO ../src/env/axi4_scoreboard.sv(219) @ 975000: uvm_test_top.env.scb [axi4_scoreboard] [REF_MEM_WRITE] Addr=0x00004200 Data=0xff
# UVM_INFO ../src/env/axi4_scoreboard.sv(219) @ 975000: uvm_test_top.env.scb [axi4_scoreboard] [REF_MEM_WRITE] Addr=0x00004201 Data=0xc1
# UVM_INFO ../src/env/axi4_scoreboard.sv(219) @ 975000: uvm_test_top.env.scb [axi4_scoreboard] [REF_MEM_WRITE] Addr=0x00004202 Data=0x61
# UVM_INFO ../src/env/axi4_scoreboard.sv(219) @ 975000: uvm_test_top.env.scb [axi4_scoreboard] [REF_MEM_WRITE] Addr=0x00004203 Data=0xb7
# UVM_INFO ../src/env/axi4_scoreboard.sv(219) @ 975000: uvm_test_top.env.scb [axi4_scoreboard] [REF_MEM_WRITE] Addr=0x00004204 Data=0x82
# UVM_INFO ../src/env/axi4_scoreboard.sv(219) @ 975000: uvm_test_top.env.scb [axi4_scoreboard] [REF_MEM_WRITE] Addr=0x00004205 Data=0x01
# UVM_INFO ../src/env/axi4_scoreboard.sv(219) @ 975000: uvm_test_top.env.scb [axi4_scoreboard] [REF_MEM_WRITE] Addr=0x00004206 Data=0x94
# UVM_INFO ../src/env/axi4_scoreboard.sv(219) @ 975000: uvm_test_top.env.scb [axi4_scoreboard] [REF_MEM_WRITE] Addr=0x00004207 Data=0xed
# UVM_INFO ../src/env/axi4_scoreboard.sv(219) @ 975000: uvm_test_top.env.scb [axi4_scoreboard] [REF_MEM_WRITE] Addr=0x00004208 Data=0x3b
# UVM_INFO ../src/env/axi4_scoreboard.sv(219) @ 975000: uvm_test_top.env.scb [axi4_scoreboard] [REF_MEM_WRITE] Addr=0x00004209 Data=0xbf
# UVM_INFO ../src/env/axi4_scoreboard.sv(219) @ 975000: uvm_test_top.env.scb [axi4_scoreboard] [REF_MEM_WRITE] Addr=0x0000420a Data=0xc6
# UVM_INFO ../src/env/axi4_scoreboard.sv(219) @ 975000: uvm_test_top.env.scb [axi4_scoreboard] [REF_MEM_WRITE] Addr=0x0000420b Data=0x7f
# UVM_INFO ../src/env/axi4_scoreboard.sv(219) @ 975000: uvm_test_top.env.scb [axi4_scoreboard] [REF_MEM_WRITE] Addr=0x0000420c Data=0xb3
# UVM_INFO ../src/env/axi4_scoreboard.sv(219) @ 975000: uvm_test_top.env.scb [axi4_scoreboard] [REF_MEM_WRITE] Addr=0x0000420d Data=0x33
# UVM_INFO ../src/env/axi4_scoreboard.sv(219) @ 975000: uvm_test_top.env.scb [axi4_scoreboard] [REF_MEM_WRITE] Addr=0x0000420e Data=0x0a
# UVM_INFO ../src/env/axi4_scoreboard.sv(219) @ 975000: uvm_test_top.env.scb [axi4_scoreboard] [REF_MEM_WRITE] Addr=0x0000420f Data=0xb1
# UVM_INFO ../src/env/axi4_scoreboard.sv(219) @ 975000: uvm_test_top.env.scb [axi4_scoreboard] [REF_MEM_WRITE] Addr=0x00004210 Data=0xa4
# UVM_INFO ../src/env/axi4_scoreboard.sv(219) @ 975000: uvm_test_top.env.scb [axi4_scoreboard] [REF_MEM_WRITE] Addr=0x00004211 Data=0xf6
# UVM_INFO ../src/env/axi4_scoreboard.sv(219) @ 975000: uvm_test_top.env.scb [axi4_scoreboard] [REF_MEM_WRITE] Addr=0x00004212 Data=0x44
# UVM_INFO ../src/env/axi4_scoreboard.sv(219) @ 975000: uvm_test_top.env.scb [axi4_scoreboard] [REF_MEM_WRITE] Addr=0x00004213 Data=0x58
# UVM_INFO ../src/env/axi4_scoreboard.sv(219) @ 975000: uvm_test_top.env.scb [axi4_scoreboard] [REF_MEM_WRITE] Addr=0x00004214 Data=0xdf
# UVM_INFO ../src/env/axi4_scoreboard.sv(219) @ 975000: uvm_test_top.env.scb [axi4_scoreboard] [REF_MEM_WRITE] Addr=0x00004215 Data=0xe6
# UVM_INFO ../src/env/axi4_scoreboard.sv(219) @ 975000: uvm_test_top.env.scb [axi4_scoreboard] [REF_MEM_WRITE] Addr=0x00004216 Data=0x1e
# UVM_INFO ../src/env/axi4_scoreboard.sv(219) @ 975000: uvm_test_top.env.scb [axi4_scoreboard] [REF_MEM_WRITE] Addr=0x00004217 Data=0x8f
# UVM_INFO ../src/env/axi4_scoreboard.sv(219) @ 975000: uvm_test_top.env.scb [axi4_scoreboard] [REF_MEM_WRITE] Addr=0x00004218 Data=0x9e
# UVM_INFO ../src/env/axi4_scoreboard.sv(219) @ 975000: uvm_test_top.env.scb [axi4_scoreboard] [REF_MEM_WRITE] Addr=0x00004219 Data=0x97
# UVM_INFO ../src/env/axi4_scoreboard.sv(219) @ 975000: uvm_test_top.env.scb [axi4_scoreboard] [REF_MEM_WRITE] Addr=0x0000421a Data=0x6d
# UVM_INFO ../src/env/axi4_scoreboard.sv(219) @ 975000: uvm_test_top.env.scb [axi4_scoreboard] [REF_MEM_WRITE] Addr=0x0000421b Data=0xea
# UVM_INFO ../src/env/axi4_scoreboard.sv(219) @ 975000: uvm_test_top.env.scb [axi4_scoreboard] [REF_MEM_WRITE] Addr=0x0000421c Data=0xb0
# UVM_INFO ../src/env/axi4_scoreboard.sv(219) @ 975000: uvm_test_top.env.scb [axi4_scoreboard] [REF_MEM_WRITE] Addr=0x0000421d Data=0x88
# UVM_INFO ../src/env/axi4_scoreboard.sv(219) @ 975000: uvm_test_top.env.scb [axi4_scoreboard] [REF_MEM_WRITE] Addr=0x0000421e Data=0xe7
# UVM_INFO ../src/env/axi4_scoreboard.sv(219) @ 975000: uvm_test_top.env.scb [axi4_scoreboard] [REF_MEM_WRITE] Addr=0x0000421f Data=0x03
# UVM_INFO ../src/env/axi4_scoreboard.sv(219) @ 975000: uvm_test_top.env.scb [axi4_scoreboard] [REF_MEM_WRITE] Addr=0x00004220 Data=0xb9
# UVM_INFO ../src/env/axi4_scoreboard.sv(219) @ 975000: uvm_test_top.env.scb [axi4_scoreboard] [REF_MEM_WRITE] Addr=0x00004221 Data=0x19
# UVM_INFO ../src/env/axi4_scoreboard.sv(219) @ 975000: uvm_test_top.env.scb [axi4_scoreboard] [REF_MEM_WRITE] Addr=0x00004222 Data=0x1c
# UVM_INFO ../src/env/axi4_scoreboard.sv(219) @ 975000: uvm_test_top.env.scb [axi4_scoreboard] [REF_MEM_WRITE] Addr=0x00004223 Data=0x42
# UVM_INFO ../src/env/axi4_scoreboard.sv(219) @ 975000: uvm_test_top.env.scb [axi4_scoreboard] [REF_MEM_WRITE] Addr=0x00004224 Data=0x8c
# UVM_INFO ../src/env/axi4_scoreboard.sv(219) @ 975000: uvm_test_top.env.scb [axi4_scoreboard] [REF_MEM_WRITE] Addr=0x00004225 Data=0x2e
# UVM_INFO ../src/env/axi4_scoreboard.sv(219) @ 975000: uvm_test_top.env.scb [axi4_scoreboard] [REF_MEM_WRITE] Addr=0x00004226 Data=0xe8
# UVM_INFO ../src/env/axi4_scoreboard.sv(219) @ 975000: uvm_test_top.env.scb [axi4_scoreboard] [REF_MEM_WRITE] Addr=0x00004227 Data=0x42
# UVM_INFO ../src/env/axi4_scoreboard.sv(219) @ 975000: uvm_test_top.env.scb [axi4_scoreboard] [REF_MEM_WRITE] Addr=0x00004228 Data=0x8d
# UVM_INFO ../src/env/axi4_scoreboard.sv(219) @ 975000: uvm_test_top.env.scb [axi4_scoreboard] [REF_MEM_WRITE] Addr=0x00004229 Data=0xf6
# UVM_INFO ../src/env/axi4_scoreboard.sv(219) @ 975000: uvm_test_top.env.scb [axi4_scoreboard] [REF_MEM_WRITE] Addr=0x0000422a Data=0xc1
# UVM_INFO ../src/env/axi4_scoreboard.sv(219) @ 975000: uvm_test_top.env.scb [axi4_scoreboard] [REF_MEM_WRITE] Addr=0x0000422b Data=0xda
# UVM_INFO ../src/env/axi4_scoreboard.sv(219) @ 975000: uvm_test_top.env.scb [axi4_scoreboard] [REF_MEM_WRITE] Addr=0x0000422c Data=0xb2
# UVM_INFO ../src/env/axi4_scoreboard.sv(219) @ 975000: uvm_test_top.env.scb [axi4_scoreboard] [REF_MEM_WRITE] Addr=0x0000422d Data=0xc5
# UVM_INFO ../src/env/axi4_scoreboard.sv(219) @ 975000: uvm_test_top.env.scb [axi4_scoreboard] [REF_MEM_WRITE] Addr=0x0000422e Data=0x86
# UVM_INFO ../src/env/axi4_scoreboard.sv(219) @ 975000: uvm_test_top.env.scb [axi4_scoreboard] [REF_MEM_WRITE] Addr=0x0000422f Data=0x70
# UVM_INFO ../src/env/axi4_scoreboard.sv(219) @ 975000: uvm_test_top.env.scb [axi4_scoreboard] [REF_MEM_WRITE] Addr=0x00004230 Data=0xcd
# UVM_INFO ../src/env/axi4_scoreboard.sv(219) @ 975000: uvm_test_top.env.scb [axi4_scoreboard] [REF_MEM_WRITE] Addr=0x00004231 Data=0x50
# UVM_INFO ../src/env/axi4_scoreboard.sv(219) @ 975000: uvm_test_top.env.scb [axi4_scoreboard] [REF_MEM_WRITE] Addr=0x00004232 Data=0xf5
# UVM_INFO ../src/env/axi4_scoreboard.sv(219) @ 975000: uvm_test_top.env.scb [axi4_scoreboard] [REF_MEM_WRITE] Addr=0x00004233 Data=0x4b
# UVM_INFO ../src/env/axi4_scoreboard.sv(219) @ 975000: uvm_test_top.env.scb [axi4_scoreboard] [REF_MEM_WRITE] Addr=0x00004234 Data=0xbe
# UVM_INFO ../src/env/axi4_scoreboard.sv(219) @ 975000: uvm_test_top.env.scb [axi4_scoreboard] [REF_MEM_WRITE] Addr=0x00004235 Data=0x56
# UVM_INFO ../src/env/axi4_scoreboard.sv(219) @ 975000: uvm_test_top.env.scb [axi4_scoreboard] [REF_MEM_WRITE] Addr=0x00004236 Data=0x81
# UVM_INFO ../src/env/axi4_scoreboard.sv(219) @ 975000: uvm_test_top.env.scb [axi4_scoreboard] [REF_MEM_WRITE] Addr=0x00004237 Data=0x0a
# UVM_INFO ../src/env/axi4_scoreboard.sv(219) @ 975000: uvm_test_top.env.scb [axi4_scoreboard] [REF_MEM_WRITE] Addr=0x00004238 Data=0x2f
# UVM_INFO ../src/env/axi4_scoreboard.sv(219) @ 975000: uvm_test_top.env.scb [axi4_scoreboard] [REF_MEM_WRITE] Addr=0x00004239 Data=0xab
# UVM_INFO ../src/env/axi4_scoreboard.sv(219) @ 975000: uvm_test_top.env.scb [axi4_scoreboard] [REF_MEM_WRITE] Addr=0x0000423a Data=0xb4
# UVM_INFO ../src/env/axi4_scoreboard.sv(219) @ 975000: uvm_test_top.env.scb [axi4_scoreboard] [REF_MEM_WRITE] Addr=0x0000423b Data=0x15
# UVM_INFO ../src/env/axi4_scoreboard.sv(219) @ 975000: uvm_test_top.env.scb [axi4_scoreboard] [REF_MEM_WRITE] Addr=0x0000423c Data=0x91
# UVM_INFO ../src/env/axi4_scoreboard.sv(219) @ 975000: uvm_test_top.env.scb [axi4_scoreboard] [REF_MEM_WRITE] Addr=0x0000423d Data=0x56
# UVM_INFO ../src/env/axi4_scoreboard.sv(219) @ 975000: uvm_test_top.env.scb [axi4_scoreboard] [REF_MEM_WRITE] Addr=0x0000423e Data=0x5a
# UVM_INFO ../src/env/axi4_scoreboard.sv(219) @ 975000: uvm_test_top.env.scb [axi4_scoreboard] [REF_MEM_WRITE] Addr=0x0000423f Data=0xc6
# UVM_INFO ../src/seq/axi4_wlast_before_aw_seq.sv(54) @ 975000: uvm_test_top.env.master_agent.sqr@@seq [axi4_wlast_before_aw_seq] W_BEFORE_AW done: ADDR=0x00004200 LEN=15 (16 beats) RESP=AXI4_RESP_OKAY
# UVM_INFO ../src/mst/axi4_master_driver.sv(73) @ 975000: uvm_test_top.env.master_agent.drv [axi4_master_driver] Driving AXI4_WRITE  ID=0x3  ADDR=0x00004300  LEN=7
# UVM_INFO ../src/slv/axi4_slave_driver.sv(228) @ 1025000: uvm_test_top.env.slave_agent.drv [axi4_slave_driver] AW received: ID=0x3 ADDR=0x00004300 LEN=7 LOCK=AXI4_LOCK_NORMAL
# UVM_INFO ../src/mst/axi4_master_monitor.sv(124) @ 1025000: uvm_test_top.env.master_agent.mon [axi4_master_monitor] AW observed: ID=0x3 ADDR=0x00004300 LEN=7
# UVM_INFO ../src/slv/axi4_slave_monitor.sv(116) @ 1025000: uvm_test_top.env.slave_agent.mon [axi4_slave_monitor] AW received: ID=0x3 ADDR=0x00004300 LEN=7
# UVM_INFO ../src/slv/axi4_slave_monitor.sv(167) @ 1135000: uvm_test_top.env.slave_agent.mon [axi4_slave_monitor] W data assembled: ID=0x3 ADDR=0x00004300 8 beats
# UVM_INFO ../src/mst/axi4_master_monitor.sv(184) @ 1135000: uvm_test_top.env.master_agent.mon [axi4_master_monitor] W data assembled: ID=0x3 ADDR=0x00004300 8 beats
# UVM_INFO ../src/mst/axi4_master_driver.sv(289) @ 1165000: uvm_test_top.env.master_agent.drv [axi4_master_driver] Master driver received B response: ID=0x3 RESP=AXI4_RESP_OKAY
# UVM_INFO ../src/slv/axi4_slave_driver.sv(348) @ 1165000: uvm_test_top.env.slave_agent.drv [axi4_slave_driver] Write complete: ID=0x3 RESP=AXI4_RESP_OKAY
# UVM_INFO ../src/mst/axi4_master_monitor.sv(210) @ 1165000: uvm_test_top.env.master_agent.mon [axi4_master_monitor] Write complete: ID=0x3 ADDR=0x00004300 RESP=AXI4_RESP_OKAY
# UVM_INFO ../src/env/axi4_scoreboard.sv(87) @ 1165000: uvm_test_top.env.scb [axi4_scoreboard] Master AXI4_WRITE received: ID=0x3 ADDR=0x00004300 LEN=7
# UVM_INFO ../src/slv/axi4_slave_monitor.sv(189) @ 1165000: uvm_test_top.env.slave_agent.mon [axi4_slave_monitor] Write response sent: ID=0x3 ADDR=0x00004300 RESP=AXI4_RESP_OKAY
# UVM_INFO ../src/env/axi4_scoreboard.sv(108) @ 1165000: uvm_test_top.env.scb [axi4_scoreboard] Slave AXI4_WRITE received: ID=0x3 ADDR=0x00004300 LEN=7
# UVM_INFO ../src/env/axi4_scoreboard.sv(291) @ 1165000: uvm_test_top.env.scb [axi4_scoreboard] [WRITE] MATCH #4: ID=0x3 ADDR=0x00004300 LEN=7
# UVM_INFO ../src/env/axi4_scoreboard.sv(219) @ 1165000: uvm_test_top.env.scb [axi4_scoreboard] [REF_MEM_WRITE] Addr=0x00004300 Data=0x85
# UVM_INFO ../src/env/axi4_scoreboard.sv(219) @ 1165000: uvm_test_top.env.scb [axi4_scoreboard] [REF_MEM_WRITE] Addr=0x00004301 Data=0xff
# UVM_INFO ../src/env/axi4_scoreboard.sv(219) @ 1165000: uvm_test_top.env.scb [axi4_scoreboard] [REF_MEM_WRITE] Addr=0x00004302 Data=0x54
# UVM_INFO ../src/env/axi4_scoreboard.sv(219) @ 1165000: uvm_test_top.env.scb [axi4_scoreboard] [REF_MEM_WRITE] Addr=0x00004303 Data=0x05
# UVM_INFO ../src/env/axi4_scoreboard.sv(219) @ 1165000: uvm_test_top.env.scb [axi4_scoreboard] [REF_MEM_WRITE] Addr=0x00004304 Data=0xe7
# UVM_INFO ../src/env/axi4_scoreboard.sv(219) @ 1165000: uvm_test_top.env.scb [axi4_scoreboard] [REF_MEM_WRITE] Addr=0x00004305 Data=0x9b
# UVM_INFO ../src/env/axi4_scoreboard.sv(219) @ 1165000: uvm_test_top.env.scb [axi4_scoreboard] [REF_MEM_WRITE] Addr=0x00004306 Data=0xa7
# UVM_INFO ../src/env/axi4_scoreboard.sv(219) @ 1165000: uvm_test_top.env.scb [axi4_scoreboard] [REF_MEM_WRITE] Addr=0x00004307 Data=0x79
# UVM_INFO ../src/env/axi4_scoreboard.sv(219) @ 1165000: uvm_test_top.env.scb [axi4_scoreboard] [REF_MEM_WRITE] Addr=0x00004308 Data=0xd0
# UVM_INFO ../src/env/axi4_scoreboard.sv(219) @ 1165000: uvm_test_top.env.scb [axi4_scoreboard] [REF_MEM_WRITE] Addr=0x00004309 Data=0x26
# UVM_INFO ../src/env/axi4_scoreboard.sv(219) @ 1165000: uvm_test_top.env.scb [axi4_scoreboard] [REF_MEM_WRITE] Addr=0x0000430a Data=0xe6
# UVM_INFO ../src/env/axi4_scoreboard.sv(219) @ 1165000: uvm_test_top.env.scb [axi4_scoreboard] [REF_MEM_WRITE] Addr=0x0000430b Data=0xb1
# UVM_INFO ../src/env/axi4_scoreboard.sv(219) @ 1165000: uvm_test_top.env.scb [axi4_scoreboard] [REF_MEM_WRITE] Addr=0x0000430c Data=0x90
# UVM_INFO ../src/env/axi4_scoreboard.sv(219) @ 1165000: uvm_test_top.env.scb [axi4_scoreboard] [REF_MEM_WRITE] Addr=0x0000430d Data=0xfb
# UVM_INFO ../src/env/axi4_scoreboard.sv(219) @ 1165000: uvm_test_top.env.scb [axi4_scoreboard] [REF_MEM_WRITE] Addr=0x0000430e Data=0xce
# UVM_INFO ../src/env/axi4_scoreboard.sv(219) @ 1165000: uvm_test_top.env.scb [axi4_scoreboard] [REF_MEM_WRITE] Addr=0x0000430f Data=0x6e
# UVM_INFO ../src/env/axi4_scoreboard.sv(219) @ 1165000: uvm_test_top.env.scb [axi4_scoreboard] [REF_MEM_WRITE] Addr=0x00004310 Data=0xcb
# UVM_INFO ../src/env/axi4_scoreboard.sv(219) @ 1165000: uvm_test_top.env.scb [axi4_scoreboard] [REF_MEM_WRITE] Addr=0x00004311 Data=0x68
# UVM_INFO ../src/env/axi4_scoreboard.sv(219) @ 1165000: uvm_test_top.env.scb [axi4_scoreboard] [REF_MEM_WRITE] Addr=0x00004312 Data=0x52
# UVM_INFO ../src/env/axi4_scoreboard.sv(219) @ 1165000: uvm_test_top.env.scb [axi4_scoreboard] [REF_MEM_WRITE] Addr=0x00004313 Data=0xfa
# UVM_INFO ../src/env/axi4_scoreboard.sv(219) @ 1165000: uvm_test_top.env.scb [axi4_scoreboard] [REF_MEM_WRITE] Addr=0x00004314 Data=0xee
# UVM_INFO ../src/env/axi4_scoreboard.sv(219) @ 1165000: uvm_test_top.env.scb [axi4_scoreboard] [REF_MEM_WRITE] Addr=0x00004315 Data=0xa9
# UVM_INFO ../src/env/axi4_scoreboard.sv(219) @ 1165000: uvm_test_top.env.scb [axi4_scoreboard] [REF_MEM_WRITE] Addr=0x00004316 Data=0xd2
# UVM_INFO ../src/env/axi4_scoreboard.sv(219) @ 1165000: uvm_test_top.env.scb [axi4_scoreboard] [REF_MEM_WRITE] Addr=0x00004317 Data=0x74
# UVM_INFO ../src/env/axi4_scoreboard.sv(219) @ 1165000: uvm_test_top.env.scb [axi4_scoreboard] [REF_MEM_WRITE] Addr=0x00004318 Data=0xb2
# UVM_INFO ../src/env/axi4_scoreboard.sv(219) @ 1165000: uvm_test_top.env.scb [axi4_scoreboard] [REF_MEM_WRITE] Addr=0x00004319 Data=0x96
# UVM_INFO ../src/env/axi4_scoreboard.sv(219) @ 1165000: uvm_test_top.env.scb [axi4_scoreboard] [REF_MEM_WRITE] Addr=0x0000431a Data=0xac
# UVM_INFO ../src/env/axi4_scoreboard.sv(219) @ 1165000: uvm_test_top.env.scb [axi4_scoreboard] [REF_MEM_WRITE] Addr=0x0000431b Data=0x2d
# UVM_INFO ../src/env/axi4_scoreboard.sv(219) @ 1165000: uvm_test_top.env.scb [axi4_scoreboard] [REF_MEM_WRITE] Addr=0x0000431c Data=0x99
# UVM_INFO ../src/env/axi4_scoreboard.sv(219) @ 1165000: uvm_test_top.env.scb [axi4_scoreboard] [REF_MEM_WRITE] Addr=0x0000431d Data=0xd2
# UVM_INFO ../src/env/axi4_scoreboard.sv(219) @ 1165000: uvm_test_top.env.scb [axi4_scoreboard] [REF_MEM_WRITE] Addr=0x0000431e Data=0xd9
# UVM_INFO ../src/env/axi4_scoreboard.sv(219) @ 1165000: uvm_test_top.env.scb [axi4_scoreboard] [REF_MEM_WRITE] Addr=0x0000431f Data=0x8f
# UVM_INFO ../src/seq/axi4_wlast_before_aw_seq.sv(54) @ 1165000: uvm_test_top.env.master_agent.sqr@@seq [axi4_wlast_before_aw_seq] W_BEFORE_AW done: ADDR=0x00004300 LEN=7 (8 beats) RESP=AXI4_RESP_OKAY
# UVM_INFO ../src/seq/axi4_wlast_before_aw_seq.sv(58) @ 1165000: uvm_test_top.env.master_agent.sqr@@seq [axi4_wlast_before_aw_seq] W-before-AW partial-overlap sequence complete
# UVM_INFO ../src/test/axi4_wlast_before_aw_test.sv(38) @ 1665000: uvm_test_top [axi4_wlast_before_aw_test] W-before-AW partial-overlap test complete
# UVM_INFO verilog_src/uvm-1.1d/src/base/uvm_objection.svh(1268) @ 1665000: reporter [TEST_DONE] 'run' phase is ready to proceed to the 'extract' phase
# UVM_INFO ../src/env/axi4_scoreboard.sv(360) @ 1665000: uvm_test_top.env.scb [axi4_scoreboard] 
# ========================================
#          SCOREBOARD SUMMARY
# ========================================
#   Master transactions : 4
#   Slave transactions  : 4
#   Matches             : 4
#   Mismatches          : 0
#   Unmatched master WR : 0
#   Unmatched master RD : 0
#   Unmatched slave  WR : 0
#   Unmatched slave  RD : 0
# ========================================
#   RESULT : PASS
# ========================================
# UVM_INFO ../src/test/axi4_base_test.sv(91) @ 1665000: uvm_test_top [axi4_wlast_before_aw_test] 
# === TEST PASSED ===
# 
# 
# --- UVM Report Summary ---
# 
# ** Report counts by severity
# UVM_INFO :  180
# UVM_WARNING :    0
# UVM_ERROR :    0
# UVM_FATAL :    0
# ** Report counts by id
# [Questa UVM]     3
# [RNTST]     1
# [TB_TOP]     2
# [TEST_DONE]     1
# [TOP_TB]     1
# [UVMTOP]     1
# [axi4_master_agent]     1
# [axi4_master_driver]     9
# [axi4_master_monitor]    13
# [axi4_scoreboard]   111
# [axi4_slave_agent]     1
# [axi4_slave_driver]     9
# [axi4_slave_monitor]    13
# [axi4_vip_env]     5
# [axi4_wlast_before_aw_seq]     6
# [axi4_wlast_before_aw_test]     3
# ** Note: $finish    : /cadtools/mentor/Questa_10.6b/questasim/linux_x86_64/../verilog_src/uvm-1.1d/src/base/uvm_root.svh(430)
#    Time: 1665 ns  Iteration: 55  Instance: /tb_top
# Saving coverage database on exit...
# End time: 15:31:35 on Jul 07,2026, Elapsed time: 0:00:02
# Errors: 0, Warnings: 0
