# vsim -c -l ./report/logs/run.log -sv_seed random "+UVM_TESTNAME=axi4_wr_rd_test" "+UVM_VERBOSITY=UVM_HIGH" "+DUMP_VCD" -do "if {[string equal [design visibility] "port"] || [string equal [design visibility] "none"]} { 	       coverage save -onexit ./report/coverage/axi4_wr_rd_test_seed_random .ucdb; 	     }; run -all; quit -f" opt_tb_top 
# Start time: 14:04:02 on May 31,2026
# //  Questa Sim-64
# //  Version 10.6b linux_x86_64 May 25 2017
# //
# //  Copyright 1991-2017 Mentor Graphics Corporation
# //  All Rights Reserved.
# //
# //  QuestaSim and its associated documentation contain trade
# //  secrets and commercial or financial information that are the property of
# //  Mentor Graphics Corporation and are privileged, confidential,
# //  and exempt from disclosure under the Freedom of Information Act,
# //  5 U.S.C. Section 552. Furthermore, this information
# //  is prohibited from disclosure under the Trade Secrets Act,
# //  18 U.S.C. Section 1905.
# //
# Loading sv_std.std
# Loading work.axi4_if(fast)
# Loading mtiUvm.uvm_pkg
# Loading work.axi4_pkg(fast)
# Loading work.axi4_test_pkg(fast)
# Loading work.tb_top(fast)
# Loading work.axi4_if(fast)
# Loading mtiUvm.questa_uvm_pkg(fast)
# Loading /cadtools/mentor/Questa_10.6b/questasim/uvm-1.1d/linux_x86_64/uvm_dpi.so
# Sv_Seed = 2445153178
# if {[string equal [design visibility] "port"] || [string equal [design visibility] "none"]} { 	       coverage save -onexit ./report/coverage/axi4_wr_rd_test_seed_random .ucdb; 	     }
# invalid command name "design"
#  run -all
# ----------------------------------------------------------------
# UVM-1.1d
# (C) 2007-2013 Mentor Graphics Corporation
# (C) 2007-2013 Cadence Design Systems, Inc.
# (C) 2006-2013 Synopsys, Inc.
# (C) 2011-2013 Cypress Semiconductor Corp.
# ----------------------------------------------------------------
# 
#   ***********       IMPORTANT RELEASE NOTES         ************
# 
#   You are using a version of the UVM library that has been compiled
#   with `UVM_NO_DEPRECATED undefined.
#   See http://www.eda.org/svdb/view.php?id=3313 for more details.
# 
#   You are using a version of the UVM library that has been compiled
#   with `UVM_OBJECT_MUST_HAVE_CONSTRUCTOR undefined.
#   See http://www.eda.org/svdb/view.php?id=3770 for more details.
# 
#       (Specify +UVM_NO_RELNOTES to turn off this notice)
# 
# UVM_INFO verilog_src/questa_uvm_pkg-1.2/src/questa_uvm_pkg.sv(215) @ 0: reporter [Questa UVM] QUESTA_UVM-1.2.3
# UVM_INFO verilog_src/questa_uvm_pkg-1.2/src/questa_uvm_pkg.sv(217) @ 0: reporter [Questa UVM]  questa_uvm::init(+struct)
# UVM_INFO ../src/tb_top.sv(70) @ 0: reporter [TB_TOP] Virtual interface set in config_db
# UVM_INFO @ 0: reporter [RNTST] Running test axi4_wr_rd_test...
# UVM_INFO ../src/tb_top.sv(84) @ 0: reporter [TB_TOP] Waveform VCD dumping enabled (axi4_vip.vcd)
# UVM_INFO ../src/env/axi4_vip_env.sv(83) @ 0: uvm_test_top.env [axi4_vip_env] slave_vif not set — reusing master_vif (passthrough mode)
# UVM_INFO ../src/env/axi4_vip_env.sv(93) @ 0: uvm_test_top.env [axi4_vip_env] Scoreboard created
# UVM_INFO ../src/env/axi4_vip_env.sv(100) @ 0: uvm_test_top.env [axi4_vip_env] Coverage collectors created
# UVM_INFO ../src/mst/axi4_master_agent.sv(69) @ 0: uvm_test_top.env.master_agent [axi4_master_agent] ACTIVE mode — driver + sequencer created
# UVM_INFO ../src/slv/axi4_slave_agent.sv(82) @ 0: uvm_test_top.env.slave_agent [axi4_slave_agent] ACTIVE mode — ready_delay=[0:0] resp_delay=[0:0]
# UVM_INFO ../src/env/axi4_vip_env.sv(117) @ 0: uvm_test_top.env [axi4_vip_env] Scoreboard connected: master_mon.ap -> scb, slave_mon.ap -> scb
# UVM_INFO ../src/env/axi4_vip_env.sv(126) @ 0: uvm_test_top.env [axi4_vip_env] Coverage connected: master_mon.ap -> master_cov, slave_mon.ap -> slave_cov
# UVM_INFO @ 0: reporter [UVMTOP] UVM testbench topology:
# ---------------------------------------------------------------
# Name                       Type                     Size  Value
# ---------------------------------------------------------------
# uvm_test_top               axi4_wr_rd_test          -     @473 
#   env                      axi4_vip_env             -     @488 
#     master_agent           axi4_master_agent        -     @503 
#       drv                  axi4_master_driver       -     @567 
#         rsp_port           uvm_analysis_port        -     @582 
#         seq_item_port      uvm_seq_item_pull_port   -     @574 
#       mon                  axi4_master_monitor      -     @559 
#         ap                 uvm_analysis_port        -     @700 
#       sqr                  axi4_master_sequencer    -     @590 
#         rsp_export         uvm_analysis_export      -     @597 
#         seq_item_export    uvm_seq_item_pull_imp    -     @691 
#         arbitration_queue  array                    0     -    
#         lock_queue         array                    0     -    
#         num_last_reqs      integral                 32    'd1  
#         num_last_rsps      integral                 32    'd1  
#     master_cov             axi4_coverage            -     @524 
#       analysis_imp         uvm_analysis_imp         -     @531 
#     scb                    axi4_scoreboard          -     @517 
#       master_export        uvm_analysis_imp_master  -     @714 
#       slave_export         uvm_analysis_imp_slave   -     @722 
#     slave_agent            axi4_slave_agent         -     @510 
#       drv                  axi4_slave_driver        -     @753 
#         rsp_port           uvm_analysis_port        -     @768 
#         seq_item_port      uvm_seq_item_pull_port   -     @760 
#       mon                  axi4_slave_monitor       -     @735 
#         ap                 uvm_analysis_port        -     @890 
#       sqr                  axi4_slave_sequencer     -     @776 
#         rsp_export         uvm_analysis_export      -     @783 
#         seq_item_export    uvm_seq_item_pull_imp    -     @877 
#         arbitration_queue  array                    0     -    
#         lock_queue         array                    0     -    
#         num_last_reqs      integral                 32    'd1  
#         num_last_rsps      integral                 32    'd1  
#     slave_cov              axi4_coverage            -     @539 
#       analysis_imp         uvm_analysis_imp         -     @546 
# ---------------------------------------------------------------
# 
# UVM_INFO verilog_src/questa_uvm_pkg-1.2/src/questa_uvm_pkg.sv(277) @ 0: reporter [Questa UVM] End Of Elaboration
# UVM_INFO ../src/test/axi4_wr_rd_test.sv(37) @ 0: uvm_test_top [axi4_wr_rd_test] Starting 10 write-read-back iterations
# UVM_INFO ../src/test/axi4_wr_rd_test.sv(52) @ 0: uvm_test_top [axi4_wr_rd_test] [1/10] ADDR=0x08ccc8b5 LEN=3 BURST=AXI4_BURST_INCR
# UVM_INFO ../src/tb_top.sv(49) @ 95000: reporter [TOP_TB] Reset de-asserted
# UVM_INFO ../src/slv/axi4_slave_driver.sv(66) @ 95000: uvm_test_top.env.slave_agent.drv [axi4_slave_driver] Reset deasserted - slave driver active
# UVM_INFO ../src/mst/axi4_master_driver.sv(46) @ 95000: uvm_test_top.env.master_agent.drv [axi4_master_driver] Reset deasserted - master driver active
# UVM_INFO ../src/mst/axi4_master_monitor.sv(77) @ 95000: uvm_test_top.env.master_agent.mon [axi4_master_monitor] Reset deasserted — monitor active
# UVM_INFO ../src/slv/axi4_slave_monitor.sv(71) @ 95000: uvm_test_top.env.slave_agent.mon [axi4_slave_monitor] Reset deasserted — monitor active
# UVM_INFO ../src/mst/axi4_master_driver.sv(55) @ 95000: uvm_test_top.env.master_agent.drv [axi4_master_driver] Driving AXI4_WRITE  ID=0x4  ADDR=0x08ccc8b5  LEN=3
# UVM_INFO ../src/mst/axi4_master_driver.sv(94) @ 95000: uvm_test_top.env.master_agent.drv [axi4_master_driver] Write order: AW || W (parallel)
# UVM_INFO ../src/slv/axi4_slave_driver.sv(159) @ 115000: uvm_test_top.env.slave_agent.drv [axi4_slave_driver] AW received: ID=0x4 ADDR=0x08ccc8b5 LEN=3
# UVM_INFO ../src/slv/axi4_slave_monitor.sv(116) @ 115000: uvm_test_top.env.slave_agent.mon [axi4_slave_monitor] AW received: ID=0x4 ADDR=0x08ccc8b5 LEN=3
# UVM_INFO ../src/mst/axi4_master_monitor.sv(124) @ 115000: uvm_test_top.env.master_agent.mon [axi4_master_monitor] AW observed: ID=0x4 ADDR=0x08ccc8b5 LEN=3
# UVM_INFO ../src/mst/axi4_master_monitor.sv(184) @ 165000: uvm_test_top.env.master_agent.mon [axi4_master_monitor] W data assembled: ID=0x4 ADDR=0x08ccc8b5 4 beats
# UVM_INFO ../src/slv/axi4_slave_monitor.sv(167) @ 165000: uvm_test_top.env.slave_agent.mon [axi4_slave_monitor] W data assembled: ID=0x4 ADDR=0x08ccc8b5 4 beats
# UVM_INFO ../src/mst/axi4_master_driver.sv(197) @ 195000: uvm_test_top.env.master_agent.drv [axi4_master_driver] Write response: AXI4_RESP_OKAY
# UVM_INFO ../src/slv/axi4_slave_driver.sv(223) @ 195000: uvm_test_top.env.slave_agent.drv [axi4_slave_driver] Write complete: ID=0x4  4 beats stored
# UVM_INFO ../src/slv/axi4_slave_monitor.sv(189) @ 195000: uvm_test_top.env.slave_agent.mon [axi4_slave_monitor] Write response sent: ID=0x4 ADDR=0x08ccc8b5 RESP=AXI4_RESP_OKAY
# UVM_INFO ../src/env/axi4_scoreboard.sv(103) @ 195000: uvm_test_top.env.scb [axi4_scoreboard] Slave AXI4_WRITE received: ID=0x4 ADDR=0x08ccc8b5 LEN=3
# UVM_INFO ../src/mst/axi4_master_monitor.sv(210) @ 195000: uvm_test_top.env.master_agent.mon [axi4_master_monitor] Write complete: ID=0x4 ADDR=0x08ccc8b5 RESP=AXI4_RESP_OKAY
# UVM_INFO ../src/env/axi4_scoreboard.sv(82) @ 195000: uvm_test_top.env.scb [axi4_scoreboard] Master AXI4_WRITE received: ID=0x4 ADDR=0x08ccc8b5 LEN=3
# UVM_INFO ../src/env/axi4_scoreboard.sv(154) @ 195000: uvm_test_top.env.scb [axi4_scoreboard] [WRITE] MATCH #1: ID=0x4 ADDR=0x08ccc8b5 LEN=3
# UVM_INFO ../src/seq/axi4_write_read_back_seq.sv(60) @ 195000: uvm_test_top.env.master_agent.sqr@@wr_rd_seq_0 [axi4_write_read_back_seq] Write phase: ADDR=0x08ccc8b5 LEN=3 SIZE=AXI4_SIZE_4B BURST=AXI4_BURST_INCR
# UVM_INFO ../src/mst/axi4_master_driver.sv(55) @ 195000: uvm_test_top.env.master_agent.drv [axi4_master_driver] Driving AXI4_READ  ID=0xb  ADDR=0x08ccc8b5  LEN=3
# UVM_INFO ../src/slv/axi4_slave_driver.sv(259) @ 225000: uvm_test_top.env.slave_agent.drv [axi4_slave_driver] AR received: ID=0xb ADDR=0x08ccc8b5 LEN=3
# UVM_INFO ../src/mst/axi4_master_monitor.sv(246) @ 225000: uvm_test_top.env.master_agent.mon [axi4_master_monitor] AR observed: ID=0xb ADDR=0x08ccc8b5 LEN=3
# UVM_INFO ../src/slv/axi4_slave_monitor.sv(224) @ 225000: uvm_test_top.env.slave_agent.mon [axi4_slave_monitor] AR received: ID=0xb ADDR=0x08ccc8b5 LEN=3
# UVM_INFO ../src/mst/axi4_master_driver.sv(254) @ 305000: uvm_test_top.env.master_agent.drv [axi4_master_driver] Read complete: 4 beats received
# UVM_INFO ../src/slv/axi4_slave_driver.sv(293) @ 305000: uvm_test_top.env.slave_agent.drv [axi4_slave_driver] Read complete: ID=0xb  4 beats sent
# UVM_INFO ../src/mst/axi4_master_monitor.sv(314) @ 305000: uvm_test_top.env.master_agent.mon [axi4_master_monitor] Read complete: ID=0xb ADDR=0x08ccc8b5 4 beats
# UVM_INFO ../src/env/axi4_scoreboard.sv(82) @ 305000: uvm_test_top.env.scb [axi4_scoreboard] Master AXI4_READ received: ID=0xb ADDR=0x08ccc8b5 LEN=3
# UVM_INFO ../src/slv/axi4_slave_monitor.sv(287) @ 305000: uvm_test_top.env.slave_agent.mon [axi4_slave_monitor] Read data sent: ID=0xb ADDR=0x08ccc8b5 4 beats
# UVM_INFO ../src/env/axi4_scoreboard.sv(103) @ 305000: uvm_test_top.env.scb [axi4_scoreboard] Slave AXI4_READ received: ID=0xb ADDR=0x08ccc8b5 LEN=3
# UVM_INFO ../src/env/axi4_scoreboard.sv(154) @ 305000: uvm_test_top.env.scb [axi4_scoreboard] [READ] MATCH #2: ID=0xb ADDR=0x08ccc8b5 LEN=3
# UVM_INFO ../src/seq/axi4_write_read_back_seq.sv(80) @ 305000: uvm_test_top.env.master_agent.sqr@@wr_rd_seq_0 [axi4_write_read_back_seq] Read-back phase: ADDR=0x08ccc8b5 LEN=3 — data integrity check via scoreboard
# UVM_INFO ../src/test/axi4_wr_rd_test.sv(52) @ 305000: uvm_test_top [axi4_wr_rd_test] [2/10] ADDR=0x7f432584 LEN=7 BURST=AXI4_BURST_INCR
# UVM_INFO ../src/mst/axi4_master_driver.sv(55) @ 305000: uvm_test_top.env.master_agent.drv [axi4_master_driver] Driving AXI4_WRITE  ID=0x5  ADDR=0x7f432584  LEN=7
# UVM_INFO ../src/mst/axi4_master_driver.sv(101) @ 305000: uvm_test_top.env.master_agent.drv [axi4_master_driver] Write order: AW -> W (sequential)
# UVM_INFO ../src/slv/axi4_slave_driver.sv(159) @ 335000: uvm_test_top.env.slave_agent.drv [axi4_slave_driver] AW received: ID=0x5 ADDR=0x7f432584 LEN=7
# UVM_INFO ../src/slv/axi4_slave_monitor.sv(116) @ 335000: uvm_test_top.env.slave_agent.mon [axi4_slave_monitor] AW received: ID=0x5 ADDR=0x7f432584 LEN=7
# UVM_INFO ../src/mst/axi4_master_monitor.sv(124) @ 335000: uvm_test_top.env.master_agent.mon [axi4_master_monitor] AW observed: ID=0x5 ADDR=0x7f432584 LEN=7
# UVM_INFO ../src/slv/axi4_slave_monitor.sv(167) @ 495000: uvm_test_top.env.slave_agent.mon [axi4_slave_monitor] W data assembled: ID=0x5 ADDR=0x7f432584 8 beats
# UVM_INFO ../src/mst/axi4_master_monitor.sv(184) @ 495000: uvm_test_top.env.master_agent.mon [axi4_master_monitor] W data assembled: ID=0x5 ADDR=0x7f432584 8 beats
# UVM_INFO ../src/mst/axi4_master_driver.sv(197) @ 525000: uvm_test_top.env.master_agent.drv [axi4_master_driver] Write response: AXI4_RESP_OKAY
# UVM_INFO ../src/slv/axi4_slave_driver.sv(223) @ 525000: uvm_test_top.env.slave_agent.drv [axi4_slave_driver] Write complete: ID=0x5  8 beats stored
# UVM_INFO ../src/mst/axi4_master_monitor.sv(210) @ 525000: uvm_test_top.env.master_agent.mon [axi4_master_monitor] Write complete: ID=0x5 ADDR=0x7f432584 RESP=AXI4_RESP_OKAY
# UVM_INFO ../src/env/axi4_scoreboard.sv(82) @ 525000: uvm_test_top.env.scb [axi4_scoreboard] Master AXI4_WRITE received: ID=0x5 ADDR=0x7f432584 LEN=7
# UVM_INFO ../src/slv/axi4_slave_monitor.sv(189) @ 525000: uvm_test_top.env.slave_agent.mon [axi4_slave_monitor] Write response sent: ID=0x5 ADDR=0x7f432584 RESP=AXI4_RESP_OKAY
# UVM_INFO ../src/env/axi4_scoreboard.sv(103) @ 525000: uvm_test_top.env.scb [axi4_scoreboard] Slave AXI4_WRITE received: ID=0x5 ADDR=0x7f432584 LEN=7
# UVM_INFO ../src/env/axi4_scoreboard.sv(154) @ 525000: uvm_test_top.env.scb [axi4_scoreboard] [WRITE] MATCH #3: ID=0x5 ADDR=0x7f432584 LEN=7
# UVM_INFO ../src/seq/axi4_write_read_back_seq.sv(60) @ 525000: uvm_test_top.env.master_agent.sqr@@wr_rd_seq_1 [axi4_write_read_back_seq] Write phase: ADDR=0x7f432584 LEN=7 SIZE=AXI4_SIZE_4B BURST=AXI4_BURST_INCR
# UVM_INFO ../src/mst/axi4_master_driver.sv(55) @ 525000: uvm_test_top.env.master_agent.drv [axi4_master_driver] Driving AXI4_READ  ID=0x1  ADDR=0x7f432584  LEN=7
# UVM_INFO ../src/slv/axi4_slave_driver.sv(259) @ 555000: uvm_test_top.env.slave_agent.drv [axi4_slave_driver] AR received: ID=0x1 ADDR=0x7f432584 LEN=7
# UVM_INFO ../src/slv/axi4_slave_monitor.sv(224) @ 555000: uvm_test_top.env.slave_agent.mon [axi4_slave_monitor] AR received: ID=0x1 ADDR=0x7f432584 LEN=7
# UVM_INFO ../src/mst/axi4_master_monitor.sv(246) @ 555000: uvm_test_top.env.master_agent.mon [axi4_master_monitor] AR observed: ID=0x1 ADDR=0x7f432584 LEN=7
# UVM_INFO ../src/mst/axi4_master_driver.sv(254) @ 715000: uvm_test_top.env.master_agent.drv [axi4_master_driver] Read complete: 8 beats received
# UVM_INFO ../src/slv/axi4_slave_driver.sv(293) @ 715000: uvm_test_top.env.slave_agent.drv [axi4_slave_driver] Read complete: ID=0x1  8 beats sent
# UVM_INFO ../src/slv/axi4_slave_monitor.sv(287) @ 715000: uvm_test_top.env.slave_agent.mon [axi4_slave_monitor] Read data sent: ID=0x1 ADDR=0x7f432584 8 beats
# UVM_INFO ../src/env/axi4_scoreboard.sv(103) @ 715000: uvm_test_top.env.scb [axi4_scoreboard] Slave AXI4_READ received: ID=0x1 ADDR=0x7f432584 LEN=7
# UVM_INFO ../src/mst/axi4_master_monitor.sv(314) @ 715000: uvm_test_top.env.master_agent.mon [axi4_master_monitor] Read complete: ID=0x1 ADDR=0x7f432584 8 beats
# UVM_INFO ../src/env/axi4_scoreboard.sv(82) @ 715000: uvm_test_top.env.scb [axi4_scoreboard] Master AXI4_READ received: ID=0x1 ADDR=0x7f432584 LEN=7
# UVM_INFO ../src/env/axi4_scoreboard.sv(154) @ 715000: uvm_test_top.env.scb [axi4_scoreboard] [READ] MATCH #4: ID=0x1 ADDR=0x7f432584 LEN=7
# UVM_INFO ../src/seq/axi4_write_read_back_seq.sv(80) @ 715000: uvm_test_top.env.master_agent.sqr@@wr_rd_seq_1 [axi4_write_read_back_seq] Read-back phase: ADDR=0x7f432584 LEN=7 — data integrity check via scoreboard
# UVM_INFO ../src/test/axi4_wr_rd_test.sv(52) @ 715000: uvm_test_top [axi4_wr_rd_test] [3/10] ADDR=0xc6613e36 LEN=10 BURST=AXI4_BURST_INCR
# UVM_INFO ../src/mst/axi4_master_driver.sv(55) @ 715000: uvm_test_top.env.master_agent.drv [axi4_master_driver] Driving AXI4_WRITE  ID=0xb  ADDR=0xc6613e36  LEN=10
# UVM_INFO ../src/mst/axi4_master_driver.sv(106) @ 715000: uvm_test_top.env.master_agent.drv [axi4_master_driver] Write order: W -> AW (W first)
# UVM_INFO ../src/slv/axi4_slave_driver.sv(159) @ 785000: uvm_test_top.env.slave_agent.drv [axi4_slave_driver] AW received: ID=0xb ADDR=0xc6613e36 LEN=10
# UVM_INFO ../src/mst/axi4_master_monitor.sv(124) @ 785000: uvm_test_top.env.master_agent.mon [axi4_master_monitor] AW observed: ID=0xb ADDR=0xc6613e36 LEN=10
# UVM_INFO ../src/slv/axi4_slave_monitor.sv(116) @ 785000: uvm_test_top.env.slave_agent.mon [axi4_slave_monitor] AW received: ID=0xb ADDR=0xc6613e36 LEN=10
# UVM_INFO ../src/slv/axi4_slave_monitor.sv(167) @ 935000: uvm_test_top.env.slave_agent.mon [axi4_slave_monitor] W data assembled: ID=0xb ADDR=0xc6613e36 11 beats
# UVM_INFO ../src/mst/axi4_master_monitor.sv(184) @ 935000: uvm_test_top.env.master_agent.mon [axi4_master_monitor] W data assembled: ID=0xb ADDR=0xc6613e36 11 beats
# UVM_INFO ../src/mst/axi4_master_driver.sv(197) @ 965000: uvm_test_top.env.master_agent.drv [axi4_master_driver] Write response: AXI4_RESP_OKAY
# UVM_INFO ../src/slv/axi4_slave_driver.sv(223) @ 965000: uvm_test_top.env.slave_agent.drv [axi4_slave_driver] Write complete: ID=0xb  11 beats stored
# UVM_INFO ../src/mst/axi4_master_monitor.sv(210) @ 965000: uvm_test_top.env.master_agent.mon [axi4_master_monitor] Write complete: ID=0xb ADDR=0xc6613e36 RESP=AXI4_RESP_OKAY
# UVM_INFO ../src/env/axi4_scoreboard.sv(82) @ 965000: uvm_test_top.env.scb [axi4_scoreboard] Master AXI4_WRITE received: ID=0xb ADDR=0xc6613e36 LEN=10
# UVM_INFO ../src/slv/axi4_slave_monitor.sv(189) @ 965000: uvm_test_top.env.slave_agent.mon [axi4_slave_monitor] Write response sent: ID=0xb ADDR=0xc6613e36 RESP=AXI4_RESP_OKAY
# UVM_INFO ../src/env/axi4_scoreboard.sv(103) @ 965000: uvm_test_top.env.scb [axi4_scoreboard] Slave AXI4_WRITE received: ID=0xb ADDR=0xc6613e36 LEN=10
# UVM_INFO ../src/env/axi4_scoreboard.sv(154) @ 965000: uvm_test_top.env.scb [axi4_scoreboard] [WRITE] MATCH #5: ID=0xb ADDR=0xc6613e36 LEN=10
# UVM_INFO ../src/seq/axi4_write_read_back_seq.sv(60) @ 965000: uvm_test_top.env.master_agent.sqr@@wr_rd_seq_2 [axi4_write_read_back_seq] Write phase: ADDR=0xc6613e36 LEN=10 SIZE=AXI4_SIZE_4B BURST=AXI4_BURST_INCR
# UVM_INFO ../src/mst/axi4_master_driver.sv(55) @ 965000: uvm_test_top.env.master_agent.drv [axi4_master_driver] Driving AXI4_READ  ID=0xa  ADDR=0xc6613e36  LEN=10
# UVM_INFO ../src/slv/axi4_slave_driver.sv(259) @ 995000: uvm_test_top.env.slave_agent.drv [axi4_slave_driver] AR received: ID=0xa ADDR=0xc6613e36 LEN=10
# UVM_INFO ../src/slv/axi4_slave_monitor.sv(224) @ 995000: uvm_test_top.env.slave_agent.mon [axi4_slave_monitor] AR received: ID=0xa ADDR=0xc6613e36 LEN=10
# UVM_INFO ../src/mst/axi4_master_monitor.sv(246) @ 995000: uvm_test_top.env.master_agent.mon [axi4_master_monitor] AR observed: ID=0xa ADDR=0xc6613e36 LEN=10
# UVM_INFO ../src/mst/axi4_master_driver.sv(254) @ 1215000: uvm_test_top.env.master_agent.drv [axi4_master_driver] Read complete: 11 beats received
# UVM_INFO ../src/slv/axi4_slave_driver.sv(293) @ 1215000: uvm_test_top.env.slave_agent.drv [axi4_slave_driver] Read complete: ID=0xa  11 beats sent
# UVM_INFO ../src/slv/axi4_slave_monitor.sv(287) @ 1215000: uvm_test_top.env.slave_agent.mon [axi4_slave_monitor] Read data sent: ID=0xa ADDR=0xc6613e36 11 beats
# UVM_INFO ../src/env/axi4_scoreboard.sv(103) @ 1215000: uvm_test_top.env.scb [axi4_scoreboard] Slave AXI4_READ received: ID=0xa ADDR=0xc6613e36 LEN=10
# UVM_INFO ../src/mst/axi4_master_monitor.sv(314) @ 1215000: uvm_test_top.env.master_agent.mon [axi4_master_monitor] Read complete: ID=0xa ADDR=0xc6613e36 11 beats
# UVM_INFO ../src/env/axi4_scoreboard.sv(82) @ 1215000: uvm_test_top.env.scb [axi4_scoreboard] Master AXI4_READ received: ID=0xa ADDR=0xc6613e36 LEN=10
# UVM_INFO ../src/env/axi4_scoreboard.sv(154) @ 1215000: uvm_test_top.env.scb [axi4_scoreboard] [READ] MATCH #6: ID=0xa ADDR=0xc6613e36 LEN=10
# UVM_INFO ../src/seq/axi4_write_read_back_seq.sv(80) @ 1215000: uvm_test_top.env.master_agent.sqr@@wr_rd_seq_2 [axi4_write_read_back_seq] Read-back phase: ADDR=0xc6613e36 LEN=10 — data integrity check via scoreboard
# UVM_INFO ../src/test/axi4_wr_rd_test.sv(52) @ 1215000: uvm_test_top [axi4_wr_rd_test] [4/10] ADDR=0x39a13d3e LEN=4 BURST=AXI4_BURST_INCR
# UVM_INFO ../src/mst/axi4_master_driver.sv(55) @ 1215000: uvm_test_top.env.master_agent.drv [axi4_master_driver] Driving AXI4_WRITE  ID=0x2  ADDR=0x39a13d3e  LEN=4
# UVM_INFO ../src/mst/axi4_master_driver.sv(94) @ 1215000: uvm_test_top.env.master_agent.drv [axi4_master_driver] Write order: AW || W (parallel)
# UVM_INFO ../src/slv/axi4_slave_driver.sv(159) @ 1245000: uvm_test_top.env.slave_agent.drv [axi4_slave_driver] AW received: ID=0x2 ADDR=0x39a13d3e LEN=4
# UVM_INFO ../src/mst/axi4_master_monitor.sv(124) @ 1245000: uvm_test_top.env.master_agent.mon [axi4_master_monitor] AW observed: ID=0x2 ADDR=0x39a13d3e LEN=4
# UVM_INFO ../src/slv/axi4_slave_monitor.sv(116) @ 1245000: uvm_test_top.env.slave_agent.mon [axi4_slave_monitor] AW received: ID=0x2 ADDR=0x39a13d3e LEN=4
# UVM_INFO ../src/slv/axi4_slave_monitor.sv(167) @ 1315000: uvm_test_top.env.slave_agent.mon [axi4_slave_monitor] W data assembled: ID=0x2 ADDR=0x39a13d3e 5 beats
# UVM_INFO ../src/mst/axi4_master_monitor.sv(184) @ 1315000: uvm_test_top.env.master_agent.mon [axi4_master_monitor] W data assembled: ID=0x2 ADDR=0x39a13d3e 5 beats
# UVM_INFO ../src/mst/axi4_master_driver.sv(197) @ 1345000: uvm_test_top.env.master_agent.drv [axi4_master_driver] Write response: AXI4_RESP_OKAY
# UVM_INFO ../src/slv/axi4_slave_driver.sv(223) @ 1345000: uvm_test_top.env.slave_agent.drv [axi4_slave_driver] Write complete: ID=0x2  5 beats stored
# UVM_INFO ../src/mst/axi4_master_monitor.sv(210) @ 1345000: uvm_test_top.env.master_agent.mon [axi4_master_monitor] Write complete: ID=0x2 ADDR=0x39a13d3e RESP=AXI4_RESP_OKAY
# UVM_INFO ../src/env/axi4_scoreboard.sv(82) @ 1345000: uvm_test_top.env.scb [axi4_scoreboard] Master AXI4_WRITE received: ID=0x2 ADDR=0x39a13d3e LEN=4
# UVM_INFO ../src/slv/axi4_slave_monitor.sv(189) @ 1345000: uvm_test_top.env.slave_agent.mon [axi4_slave_monitor] Write response sent: ID=0x2 ADDR=0x39a13d3e RESP=AXI4_RESP_OKAY
# UVM_INFO ../src/env/axi4_scoreboard.sv(103) @ 1345000: uvm_test_top.env.scb [axi4_scoreboard] Slave AXI4_WRITE received: ID=0x2 ADDR=0x39a13d3e LEN=4
# UVM_INFO ../src/env/axi4_scoreboard.sv(154) @ 1345000: uvm_test_top.env.scb [axi4_scoreboard] [WRITE] MATCH #7: ID=0x2 ADDR=0x39a13d3e LEN=4
# UVM_INFO ../src/seq/axi4_write_read_back_seq.sv(60) @ 1345000: uvm_test_top.env.master_agent.sqr@@wr_rd_seq_3 [axi4_write_read_back_seq] Write phase: ADDR=0x39a13d3e LEN=4 SIZE=AXI4_SIZE_4B BURST=AXI4_BURST_INCR
# UVM_INFO ../src/mst/axi4_master_driver.sv(55) @ 1345000: uvm_test_top.env.master_agent.drv [axi4_master_driver] Driving AXI4_READ  ID=0x5  ADDR=0x39a13d3e  LEN=4
# UVM_INFO ../src/slv/axi4_slave_driver.sv(259) @ 1375000: uvm_test_top.env.slave_agent.drv [axi4_slave_driver] AR received: ID=0x5 ADDR=0x39a13d3e LEN=4
# UVM_INFO ../src/slv/axi4_slave_monitor.sv(224) @ 1375000: uvm_test_top.env.slave_agent.mon [axi4_slave_monitor] AR received: ID=0x5 ADDR=0x39a13d3e LEN=4
# UVM_INFO ../src/mst/axi4_master_monitor.sv(246) @ 1375000: uvm_test_top.env.master_agent.mon [axi4_master_monitor] AR observed: ID=0x5 ADDR=0x39a13d3e LEN=4
# UVM_INFO ../src/mst/axi4_master_driver.sv(254) @ 1475000: uvm_test_top.env.master_agent.drv [axi4_master_driver] Read complete: 5 beats received
# UVM_INFO ../src/slv/axi4_slave_driver.sv(293) @ 1475000: uvm_test_top.env.slave_agent.drv [axi4_slave_driver] Read complete: ID=0x5  5 beats sent
# UVM_INFO ../src/slv/axi4_slave_monitor.sv(287) @ 1475000: uvm_test_top.env.slave_agent.mon [axi4_slave_monitor] Read data sent: ID=0x5 ADDR=0x39a13d3e 5 beats
# UVM_INFO ../src/env/axi4_scoreboard.sv(103) @ 1475000: uvm_test_top.env.scb [axi4_scoreboard] Slave AXI4_READ received: ID=0x5 ADDR=0x39a13d3e LEN=4
# UVM_INFO ../src/mst/axi4_master_monitor.sv(314) @ 1475000: uvm_test_top.env.master_agent.mon [axi4_master_monitor] Read complete: ID=0x5 ADDR=0x39a13d3e 5 beats
# UVM_INFO ../src/env/axi4_scoreboard.sv(82) @ 1475000: uvm_test_top.env.scb [axi4_scoreboard] Master AXI4_READ received: ID=0x5 ADDR=0x39a13d3e LEN=4
# UVM_INFO ../src/env/axi4_scoreboard.sv(154) @ 1475000: uvm_test_top.env.scb [axi4_scoreboard] [READ] MATCH #8: ID=0x5 ADDR=0x39a13d3e LEN=4
# UVM_INFO ../src/seq/axi4_write_read_back_seq.sv(80) @ 1475000: uvm_test_top.env.master_agent.sqr@@wr_rd_seq_3 [axi4_write_read_back_seq] Read-back phase: ADDR=0x39a13d3e LEN=4 — data integrity check via scoreboard
# UVM_INFO ../src/test/axi4_wr_rd_test.sv(52) @ 1475000: uvm_test_top [axi4_wr_rd_test] [5/10] ADDR=0x4f4f8075 LEN=14 BURST=AXI4_BURST_INCR
# UVM_INFO ../src/mst/axi4_master_driver.sv(55) @ 1475000: uvm_test_top.env.master_agent.drv [axi4_master_driver] Driving AXI4_WRITE  ID=0xc  ADDR=0x4f4f8075  LEN=14
# UVM_INFO ../src/mst/axi4_master_driver.sv(94) @ 1475000: uvm_test_top.env.master_agent.drv [axi4_master_driver] Write order: AW || W (parallel)
# UVM_INFO ../src/slv/axi4_slave_driver.sv(159) @ 1505000: uvm_test_top.env.slave_agent.drv [axi4_slave_driver] AW received: ID=0xc ADDR=0x4f4f8075 LEN=14
# UVM_INFO ../src/mst/axi4_master_monitor.sv(124) @ 1505000: uvm_test_top.env.master_agent.mon [axi4_master_monitor] AW observed: ID=0xc ADDR=0x4f4f8075 LEN=14
# UVM_INFO ../src/slv/axi4_slave_monitor.sv(116) @ 1505000: uvm_test_top.env.slave_agent.mon [axi4_slave_monitor] AW received: ID=0xc ADDR=0x4f4f8075 LEN=14
# UVM_INFO ../src/slv/axi4_slave_monitor.sv(167) @ 1775000: uvm_test_top.env.slave_agent.mon [axi4_slave_monitor] W data assembled: ID=0xc ADDR=0x4f4f8075 15 beats
# UVM_INFO ../src/mst/axi4_master_monitor.sv(184) @ 1775000: uvm_test_top.env.master_agent.mon [axi4_master_monitor] W data assembled: ID=0xc ADDR=0x4f4f8075 15 beats
# UVM_INFO ../src/mst/axi4_master_driver.sv(197) @ 1805000: uvm_test_top.env.master_agent.drv [axi4_master_driver] Write response: AXI4_RESP_OKAY
# UVM_INFO ../src/slv/axi4_slave_driver.sv(223) @ 1805000: uvm_test_top.env.slave_agent.drv [axi4_slave_driver] Write complete: ID=0xc  15 beats stored
# UVM_INFO ../src/mst/axi4_master_monitor.sv(210) @ 1805000: uvm_test_top.env.master_agent.mon [axi4_master_monitor] Write complete: ID=0xc ADDR=0x4f4f8075 RESP=AXI4_RESP_OKAY
# UVM_INFO ../src/env/axi4_scoreboard.sv(82) @ 1805000: uvm_test_top.env.scb [axi4_scoreboard] Master AXI4_WRITE received: ID=0xc ADDR=0x4f4f8075 LEN=14
# UVM_INFO ../src/slv/axi4_slave_monitor.sv(189) @ 1805000: uvm_test_top.env.slave_agent.mon [axi4_slave_monitor] Write response sent: ID=0xc ADDR=0x4f4f8075 RESP=AXI4_RESP_OKAY
# UVM_INFO ../src/env/axi4_scoreboard.sv(103) @ 1805000: uvm_test_top.env.scb [axi4_scoreboard] Slave AXI4_WRITE received: ID=0xc ADDR=0x4f4f8075 LEN=14
# UVM_INFO ../src/env/axi4_scoreboard.sv(154) @ 1805000: uvm_test_top.env.scb [axi4_scoreboard] [WRITE] MATCH #9: ID=0xc ADDR=0x4f4f8075 LEN=14
# UVM_INFO ../src/seq/axi4_write_read_back_seq.sv(60) @ 1805000: uvm_test_top.env.master_agent.sqr@@wr_rd_seq_4 [axi4_write_read_back_seq] Write phase: ADDR=0x4f4f8075 LEN=14 SIZE=AXI4_SIZE_4B BURST=AXI4_BURST_INCR
# UVM_INFO ../src/mst/axi4_master_driver.sv(55) @ 1805000: uvm_test_top.env.master_agent.drv [axi4_master_driver] Driving AXI4_READ  ID=0x6  ADDR=0x4f4f8075  LEN=14
# UVM_INFO ../src/slv/axi4_slave_driver.sv(259) @ 1835000: uvm_test_top.env.slave_agent.drv [axi4_slave_driver] AR received: ID=0x6 ADDR=0x4f4f8075 LEN=14
# UVM_INFO ../src/slv/axi4_slave_monitor.sv(224) @ 1835000: uvm_test_top.env.slave_agent.mon [axi4_slave_monitor] AR received: ID=0x6 ADDR=0x4f4f8075 LEN=14
# UVM_INFO ../src/mst/axi4_master_monitor.sv(246) @ 1835000: uvm_test_top.env.master_agent.mon [axi4_master_monitor] AR observed: ID=0x6 ADDR=0x4f4f8075 LEN=14
# UVM_INFO ../src/mst/axi4_master_driver.sv(254) @ 2135000: uvm_test_top.env.master_agent.drv [axi4_master_driver] Read complete: 15 beats received
# UVM_INFO ../src/slv/axi4_slave_driver.sv(293) @ 2135000: uvm_test_top.env.slave_agent.drv [axi4_slave_driver] Read complete: ID=0x6  15 beats sent
# UVM_INFO ../src/slv/axi4_slave_monitor.sv(287) @ 2135000: uvm_test_top.env.slave_agent.mon [axi4_slave_monitor] Read data sent: ID=0x6 ADDR=0x4f4f8075 15 beats
# UVM_INFO ../src/env/axi4_scoreboard.sv(103) @ 2135000: uvm_test_top.env.scb [axi4_scoreboard] Slave AXI4_READ received: ID=0x6 ADDR=0x4f4f8075 LEN=14
# UVM_INFO ../src/mst/axi4_master_monitor.sv(314) @ 2135000: uvm_test_top.env.master_agent.mon [axi4_master_monitor] Read complete: ID=0x6 ADDR=0x4f4f8075 15 beats
# UVM_INFO ../src/env/axi4_scoreboard.sv(82) @ 2135000: uvm_test_top.env.scb [axi4_scoreboard] Master AXI4_READ received: ID=0x6 ADDR=0x4f4f8075 LEN=14
# UVM_INFO ../src/env/axi4_scoreboard.sv(154) @ 2135000: uvm_test_top.env.scb [axi4_scoreboard] [READ] MATCH #10: ID=0x6 ADDR=0x4f4f8075 LEN=14
# UVM_INFO ../src/seq/axi4_write_read_back_seq.sv(80) @ 2135000: uvm_test_top.env.master_agent.sqr@@wr_rd_seq_4 [axi4_write_read_back_seq] Read-back phase: ADDR=0x4f4f8075 LEN=14 — data integrity check via scoreboard
# UVM_INFO ../src/test/axi4_wr_rd_test.sv(52) @ 2135000: uvm_test_top [axi4_wr_rd_test] [6/10] ADDR=0x86685a50 LEN=7 BURST=AXI4_BURST_INCR
# UVM_INFO ../src/mst/axi4_master_driver.sv(55) @ 2135000: uvm_test_top.env.master_agent.drv [axi4_master_driver] Driving AXI4_WRITE  ID=0x4  ADDR=0x86685a50  LEN=7
# UVM_INFO ../src/mst/axi4_master_driver.sv(101) @ 2135000: uvm_test_top.env.master_agent.drv [axi4_master_driver] Write order: AW -> W (sequential)
# UVM_INFO ../src/slv/axi4_slave_driver.sv(159) @ 2165000: uvm_test_top.env.slave_agent.drv [axi4_slave_driver] AW received: ID=0x4 ADDR=0x86685a50 LEN=7
# UVM_INFO ../src/mst/axi4_master_monitor.sv(124) @ 2165000: uvm_test_top.env.master_agent.mon [axi4_master_monitor] AW observed: ID=0x4 ADDR=0x86685a50 LEN=7
# UVM_INFO ../src/slv/axi4_slave_monitor.sv(116) @ 2165000: uvm_test_top.env.slave_agent.mon [axi4_slave_monitor] AW received: ID=0x4 ADDR=0x86685a50 LEN=7
# UVM_INFO ../src/mst/axi4_master_monitor.sv(184) @ 2325000: uvm_test_top.env.master_agent.mon [axi4_master_monitor] W data assembled: ID=0x4 ADDR=0x86685a50 8 beats
# UVM_INFO ../src/slv/axi4_slave_monitor.sv(167) @ 2325000: uvm_test_top.env.slave_agent.mon [axi4_slave_monitor] W data assembled: ID=0x4 ADDR=0x86685a50 8 beats
# UVM_INFO ../src/mst/axi4_master_driver.sv(197) @ 2355000: uvm_test_top.env.master_agent.drv [axi4_master_driver] Write response: AXI4_RESP_OKAY
# UVM_INFO ../src/slv/axi4_slave_driver.sv(223) @ 2355000: uvm_test_top.env.slave_agent.drv [axi4_slave_driver] Write complete: ID=0x4  8 beats stored
# UVM_INFO ../src/slv/axi4_slave_monitor.sv(189) @ 2355000: uvm_test_top.env.slave_agent.mon [axi4_slave_monitor] Write response sent: ID=0x4 ADDR=0x86685a50 RESP=AXI4_RESP_OKAY
# UVM_INFO ../src/env/axi4_scoreboard.sv(103) @ 2355000: uvm_test_top.env.scb [axi4_scoreboard] Slave AXI4_WRITE received: ID=0x4 ADDR=0x86685a50 LEN=7
# UVM_INFO ../src/mst/axi4_master_monitor.sv(210) @ 2355000: uvm_test_top.env.master_agent.mon [axi4_master_monitor] Write complete: ID=0x4 ADDR=0x86685a50 RESP=AXI4_RESP_OKAY
# UVM_INFO ../src/env/axi4_scoreboard.sv(82) @ 2355000: uvm_test_top.env.scb [axi4_scoreboard] Master AXI4_WRITE received: ID=0x4 ADDR=0x86685a50 LEN=7
# UVM_INFO ../src/env/axi4_scoreboard.sv(154) @ 2355000: uvm_test_top.env.scb [axi4_scoreboard] [WRITE] MATCH #11: ID=0x4 ADDR=0x86685a50 LEN=7
# UVM_INFO ../src/seq/axi4_write_read_back_seq.sv(60) @ 2355000: uvm_test_top.env.master_agent.sqr@@wr_rd_seq_5 [axi4_write_read_back_seq] Write phase: ADDR=0x86685a50 LEN=7 SIZE=AXI4_SIZE_4B BURST=AXI4_BURST_INCR
# UVM_INFO ../src/mst/axi4_master_driver.sv(55) @ 2355000: uvm_test_top.env.master_agent.drv [axi4_master_driver] Driving AXI4_READ  ID=0xb  ADDR=0x86685a50  LEN=7
# UVM_INFO ../src/slv/axi4_slave_driver.sv(259) @ 2385000: uvm_test_top.env.slave_agent.drv [axi4_slave_driver] AR received: ID=0xb ADDR=0x86685a50 LEN=7
# UVM_INFO ../src/mst/axi4_master_monitor.sv(246) @ 2385000: uvm_test_top.env.master_agent.mon [axi4_master_monitor] AR observed: ID=0xb ADDR=0x86685a50 LEN=7
# UVM_INFO ../src/slv/axi4_slave_monitor.sv(224) @ 2385000: uvm_test_top.env.slave_agent.mon [axi4_slave_monitor] AR received: ID=0xb ADDR=0x86685a50 LEN=7
# UVM_INFO ../src/mst/axi4_master_driver.sv(254) @ 2545000: uvm_test_top.env.master_agent.drv [axi4_master_driver] Read complete: 8 beats received
# UVM_INFO ../src/slv/axi4_slave_driver.sv(293) @ 2545000: uvm_test_top.env.slave_agent.drv [axi4_slave_driver] Read complete: ID=0xb  8 beats sent
# UVM_INFO ../src/mst/axi4_master_monitor.sv(314) @ 2545000: uvm_test_top.env.master_agent.mon [axi4_master_monitor] Read complete: ID=0xb ADDR=0x86685a50 8 beats
# UVM_INFO ../src/env/axi4_scoreboard.sv(82) @ 2545000: uvm_test_top.env.scb [axi4_scoreboard] Master AXI4_READ received: ID=0xb ADDR=0x86685a50 LEN=7
# UVM_INFO ../src/slv/axi4_slave_monitor.sv(287) @ 2545000: uvm_test_top.env.slave_agent.mon [axi4_slave_monitor] Read data sent: ID=0xb ADDR=0x86685a50 8 beats
# UVM_INFO ../src/env/axi4_scoreboard.sv(103) @ 2545000: uvm_test_top.env.scb [axi4_scoreboard] Slave AXI4_READ received: ID=0xb ADDR=0x86685a50 LEN=7
# UVM_INFO ../src/env/axi4_scoreboard.sv(154) @ 2545000: uvm_test_top.env.scb [axi4_scoreboard] [READ] MATCH #12: ID=0xb ADDR=0x86685a50 LEN=7
# UVM_INFO ../src/seq/axi4_write_read_back_seq.sv(80) @ 2545000: uvm_test_top.env.master_agent.sqr@@wr_rd_seq_5 [axi4_write_read_back_seq] Read-back phase: ADDR=0x86685a50 LEN=7 — data integrity check via scoreboard
# UVM_INFO ../src/test/axi4_wr_rd_test.sv(52) @ 2545000: uvm_test_top [axi4_wr_rd_test] [7/10] ADDR=0x6e04616f LEN=10 BURST=AXI4_BURST_INCR
# UVM_INFO ../src/mst/axi4_master_driver.sv(55) @ 2545000: uvm_test_top.env.master_agent.drv [axi4_master_driver] Driving AXI4_WRITE  ID=0x9  ADDR=0x6e04616f  LEN=10
# UVM_INFO ../src/mst/axi4_master_driver.sv(94) @ 2545000: uvm_test_top.env.master_agent.drv [axi4_master_driver] Write order: AW || W (parallel)
# UVM_INFO ../src/slv/axi4_slave_driver.sv(159) @ 2575000: uvm_test_top.env.slave_agent.drv [axi4_slave_driver] AW received: ID=0x9 ADDR=0x6e04616f LEN=10
# UVM_INFO ../src/slv/axi4_slave_monitor.sv(116) @ 2575000: uvm_test_top.env.slave_agent.mon [axi4_slave_monitor] AW received: ID=0x9 ADDR=0x6e04616f LEN=10
# UVM_INFO ../src/mst/axi4_master_monitor.sv(124) @ 2575000: uvm_test_top.env.master_agent.mon [axi4_master_monitor] AW observed: ID=0x9 ADDR=0x6e04616f LEN=10
# UVM_INFO ../src/mst/axi4_master_monitor.sv(184) @ 2765000: uvm_test_top.env.master_agent.mon [axi4_master_monitor] W data assembled: ID=0x9 ADDR=0x6e04616f 11 beats
# UVM_INFO ../src/slv/axi4_slave_monitor.sv(167) @ 2765000: uvm_test_top.env.slave_agent.mon [axi4_slave_monitor] W data assembled: ID=0x9 ADDR=0x6e04616f 11 beats
# UVM_INFO ../src/mst/axi4_master_driver.sv(197) @ 2795000: uvm_test_top.env.master_agent.drv [axi4_master_driver] Write response: AXI4_RESP_OKAY
# UVM_INFO ../src/slv/axi4_slave_driver.sv(223) @ 2795000: uvm_test_top.env.slave_agent.drv [axi4_slave_driver] Write complete: ID=0x9  11 beats stored
# UVM_INFO ../src/slv/axi4_slave_monitor.sv(189) @ 2795000: uvm_test_top.env.slave_agent.mon [axi4_slave_monitor] Write response sent: ID=0x9 ADDR=0x6e04616f RESP=AXI4_RESP_OKAY
# UVM_INFO ../src/env/axi4_scoreboard.sv(103) @ 2795000: uvm_test_top.env.scb [axi4_scoreboard] Slave AXI4_WRITE received: ID=0x9 ADDR=0x6e04616f LEN=10
# UVM_INFO ../src/mst/axi4_master_monitor.sv(210) @ 2795000: uvm_test_top.env.master_agent.mon [axi4_master_monitor] Write complete: ID=0x9 ADDR=0x6e04616f RESP=AXI4_RESP_OKAY
# UVM_INFO ../src/env/axi4_scoreboard.sv(82) @ 2795000: uvm_test_top.env.scb [axi4_scoreboard] Master AXI4_WRITE received: ID=0x9 ADDR=0x6e04616f LEN=10
# UVM_INFO ../src/env/axi4_scoreboard.sv(154) @ 2795000: uvm_test_top.env.scb [axi4_scoreboard] [WRITE] MATCH #13: ID=0x9 ADDR=0x6e04616f LEN=10
# UVM_INFO ../src/seq/axi4_write_read_back_seq.sv(60) @ 2795000: uvm_test_top.env.master_agent.sqr@@wr_rd_seq_6 [axi4_write_read_back_seq] Write phase: ADDR=0x6e04616f LEN=10 SIZE=AXI4_SIZE_4B BURST=AXI4_BURST_INCR
# UVM_INFO ../src/mst/axi4_master_driver.sv(55) @ 2795000: uvm_test_top.env.master_agent.drv [axi4_master_driver] Driving AXI4_READ  ID=0x8  ADDR=0x6e04616f  LEN=10
# UVM_INFO ../src/slv/axi4_slave_driver.sv(259) @ 2825000: uvm_test_top.env.slave_agent.drv [axi4_slave_driver] AR received: ID=0x8 ADDR=0x6e04616f LEN=10
# UVM_INFO ../src/mst/axi4_master_monitor.sv(246) @ 2825000: uvm_test_top.env.master_agent.mon [axi4_master_monitor] AR observed: ID=0x8 ADDR=0x6e04616f LEN=10
# UVM_INFO ../src/slv/axi4_slave_monitor.sv(224) @ 2825000: uvm_test_top.env.slave_agent.mon [axi4_slave_monitor] AR received: ID=0x8 ADDR=0x6e04616f LEN=10
# UVM_INFO ../src/mst/axi4_master_driver.sv(254) @ 3045000: uvm_test_top.env.master_agent.drv [axi4_master_driver] Read complete: 11 beats received
# UVM_INFO ../src/slv/axi4_slave_driver.sv(293) @ 3045000: uvm_test_top.env.slave_agent.drv [axi4_slave_driver] Read complete: ID=0x8  11 beats sent
# UVM_INFO ../src/mst/axi4_master_monitor.sv(314) @ 3045000: uvm_test_top.env.master_agent.mon [axi4_master_monitor] Read complete: ID=0x8 ADDR=0x6e04616f 11 beats
# UVM_INFO ../src/env/axi4_scoreboard.sv(82) @ 3045000: uvm_test_top.env.scb [axi4_scoreboard] Master AXI4_READ received: ID=0x8 ADDR=0x6e04616f LEN=10
# UVM_INFO ../src/slv/axi4_slave_monitor.sv(287) @ 3045000: uvm_test_top.env.slave_agent.mon [axi4_slave_monitor] Read data sent: ID=0x8 ADDR=0x6e04616f 11 beats
# UVM_INFO ../src/env/axi4_scoreboard.sv(103) @ 3045000: uvm_test_top.env.scb [axi4_scoreboard] Slave AXI4_READ received: ID=0x8 ADDR=0x6e04616f LEN=10
# UVM_INFO ../src/env/axi4_scoreboard.sv(154) @ 3045000: uvm_test_top.env.scb [axi4_scoreboard] [READ] MATCH #14: ID=0x8 ADDR=0x6e04616f LEN=10
# UVM_INFO ../src/seq/axi4_write_read_back_seq.sv(80) @ 3045000: uvm_test_top.env.master_agent.sqr@@wr_rd_seq_6 [axi4_write_read_back_seq] Read-back phase: ADDR=0x6e04616f LEN=10 — data integrity check via scoreboard
# UVM_INFO ../src/test/axi4_wr_rd_test.sv(52) @ 3045000: uvm_test_top [axi4_wr_rd_test] [8/10] ADDR=0x60f43997 LEN=6 BURST=AXI4_BURST_INCR
# UVM_INFO ../src/mst/axi4_master_driver.sv(55) @ 3045000: uvm_test_top.env.master_agent.drv [axi4_master_driver] Driving AXI4_WRITE  ID=0x1  ADDR=0x60f43997  LEN=6
# UVM_INFO ../src/mst/axi4_master_driver.sv(94) @ 3045000: uvm_test_top.env.master_agent.drv [axi4_master_driver] Write order: AW || W (parallel)
# UVM_INFO ../src/slv/axi4_slave_driver.sv(159) @ 3075000: uvm_test_top.env.slave_agent.drv [axi4_slave_driver] AW received: ID=0x1 ADDR=0x60f43997 LEN=6
# UVM_INFO ../src/slv/axi4_slave_monitor.sv(116) @ 3075000: uvm_test_top.env.slave_agent.mon [axi4_slave_monitor] AW received: ID=0x1 ADDR=0x60f43997 LEN=6
# UVM_INFO ../src/mst/axi4_master_monitor.sv(124) @ 3075000: uvm_test_top.env.master_agent.mon [axi4_master_monitor] AW observed: ID=0x1 ADDR=0x60f43997 LEN=6
# UVM_INFO ../src/mst/axi4_master_monitor.sv(184) @ 3185000: uvm_test_top.env.master_agent.mon [axi4_master_monitor] W data assembled: ID=0x1 ADDR=0x60f43997 7 beats
# UVM_INFO ../src/slv/axi4_slave_monitor.sv(167) @ 3185000: uvm_test_top.env.slave_agent.mon [axi4_slave_monitor] W data assembled: ID=0x1 ADDR=0x60f43997 7 beats
# UVM_INFO ../src/mst/axi4_master_driver.sv(197) @ 3215000: uvm_test_top.env.master_agent.drv [axi4_master_driver] Write response: AXI4_RESP_OKAY
# UVM_INFO ../src/slv/axi4_slave_driver.sv(223) @ 3215000: uvm_test_top.env.slave_agent.drv [axi4_slave_driver] Write complete: ID=0x1  7 beats stored
# UVM_INFO ../src/slv/axi4_slave_monitor.sv(189) @ 3215000: uvm_test_top.env.slave_agent.mon [axi4_slave_monitor] Write response sent: ID=0x1 ADDR=0x60f43997 RESP=AXI4_RESP_OKAY
# UVM_INFO ../src/env/axi4_scoreboard.sv(103) @ 3215000: uvm_test_top.env.scb [axi4_scoreboard] Slave AXI4_WRITE received: ID=0x1 ADDR=0x60f43997 LEN=6
# UVM_INFO ../src/mst/axi4_master_monitor.sv(210) @ 3215000: uvm_test_top.env.master_agent.mon [axi4_master_monitor] Write complete: ID=0x1 ADDR=0x60f43997 RESP=AXI4_RESP_OKAY
# UVM_INFO ../src/env/axi4_scoreboard.sv(82) @ 3215000: uvm_test_top.env.scb [axi4_scoreboard] Master AXI4_WRITE received: ID=0x1 ADDR=0x60f43997 LEN=6
# UVM_INFO ../src/env/axi4_scoreboard.sv(154) @ 3215000: uvm_test_top.env.scb [axi4_scoreboard] [WRITE] MATCH #15: ID=0x1 ADDR=0x60f43997 LEN=6
# UVM_INFO ../src/seq/axi4_write_read_back_seq.sv(60) @ 3215000: uvm_test_top.env.master_agent.sqr@@wr_rd_seq_7 [axi4_write_read_back_seq] Write phase: ADDR=0x60f43997 LEN=6 SIZE=AXI4_SIZE_4B BURST=AXI4_BURST_INCR
# UVM_INFO ../src/mst/axi4_master_driver.sv(55) @ 3215000: uvm_test_top.env.master_agent.drv [axi4_master_driver] Driving AXI4_READ  ID=0xb  ADDR=0x60f43997  LEN=6
# UVM_INFO ../src/slv/axi4_slave_driver.sv(259) @ 3245000: uvm_test_top.env.slave_agent.drv [axi4_slave_driver] AR received: ID=0xb ADDR=0x60f43997 LEN=6
# UVM_INFO ../src/mst/axi4_master_monitor.sv(246) @ 3245000: uvm_test_top.env.master_agent.mon [axi4_master_monitor] AR observed: ID=0xb ADDR=0x60f43997 LEN=6
# UVM_INFO ../src/slv/axi4_slave_monitor.sv(224) @ 3245000: uvm_test_top.env.slave_agent.mon [axi4_slave_monitor] AR received: ID=0xb ADDR=0x60f43997 LEN=6
# UVM_INFO ../src/mst/axi4_master_driver.sv(254) @ 3385000: uvm_test_top.env.master_agent.drv [axi4_master_driver] Read complete: 7 beats received
# UVM_INFO ../src/slv/axi4_slave_driver.sv(293) @ 3385000: uvm_test_top.env.slave_agent.drv [axi4_slave_driver] Read complete: ID=0xb  7 beats sent
# UVM_INFO ../src/mst/axi4_master_monitor.sv(314) @ 3385000: uvm_test_top.env.master_agent.mon [axi4_master_monitor] Read complete: ID=0xb ADDR=0x60f43997 7 beats
# UVM_INFO ../src/env/axi4_scoreboard.sv(82) @ 3385000: uvm_test_top.env.scb [axi4_scoreboard] Master AXI4_READ received: ID=0xb ADDR=0x60f43997 LEN=6
# UVM_INFO ../src/slv/axi4_slave_monitor.sv(287) @ 3385000: uvm_test_top.env.slave_agent.mon [axi4_slave_monitor] Read data sent: ID=0xb ADDR=0x60f43997 7 beats
# UVM_INFO ../src/env/axi4_scoreboard.sv(103) @ 3385000: uvm_test_top.env.scb [axi4_scoreboard] Slave AXI4_READ received: ID=0xb ADDR=0x60f43997 LEN=6
# UVM_INFO ../src/env/axi4_scoreboard.sv(154) @ 3385000: uvm_test_top.env.scb [axi4_scoreboard] [READ] MATCH #16: ID=0xb ADDR=0x60f43997 LEN=6
# UVM_INFO ../src/seq/axi4_write_read_back_seq.sv(80) @ 3385000: uvm_test_top.env.master_agent.sqr@@wr_rd_seq_7 [axi4_write_read_back_seq] Read-back phase: ADDR=0x60f43997 LEN=6 — data integrity check via scoreboard
# UVM_INFO ../src/test/axi4_wr_rd_test.sv(52) @ 3385000: uvm_test_top [axi4_wr_rd_test] [9/10] ADDR=0xf46c13c3 LEN=4 BURST=AXI4_BURST_INCR
# UVM_INFO ../src/mst/axi4_master_driver.sv(55) @ 3385000: uvm_test_top.env.master_agent.drv [axi4_master_driver] Driving AXI4_WRITE  ID=0x7  ADDR=0xf46c13c3  LEN=4
# UVM_INFO ../src/mst/axi4_master_driver.sv(94) @ 3385000: uvm_test_top.env.master_agent.drv [axi4_master_driver] Write order: AW || W (parallel)
# UVM_INFO ../src/slv/axi4_slave_driver.sv(159) @ 3415000: uvm_test_top.env.slave_agent.drv [axi4_slave_driver] AW received: ID=0x7 ADDR=0xf46c13c3 LEN=4
# UVM_INFO ../src/slv/axi4_slave_monitor.sv(116) @ 3415000: uvm_test_top.env.slave_agent.mon [axi4_slave_monitor] AW received: ID=0x7 ADDR=0xf46c13c3 LEN=4
# UVM_INFO ../src/mst/axi4_master_monitor.sv(124) @ 3415000: uvm_test_top.env.master_agent.mon [axi4_master_monitor] AW observed: ID=0x7 ADDR=0xf46c13c3 LEN=4
# UVM_INFO ../src/mst/axi4_master_monitor.sv(184) @ 3485000: uvm_test_top.env.master_agent.mon [axi4_master_monitor] W data assembled: ID=0x7 ADDR=0xf46c13c3 5 beats
# UVM_INFO ../src/slv/axi4_slave_monitor.sv(167) @ 3485000: uvm_test_top.env.slave_agent.mon [axi4_slave_monitor] W data assembled: ID=0x7 ADDR=0xf46c13c3 5 beats
# UVM_INFO ../src/mst/axi4_master_driver.sv(197) @ 3515000: uvm_test_top.env.master_agent.drv [axi4_master_driver] Write response: AXI4_RESP_OKAY
# UVM_INFO ../src/slv/axi4_slave_driver.sv(223) @ 3515000: uvm_test_top.env.slave_agent.drv [axi4_slave_driver] Write complete: ID=0x7  5 beats stored
# UVM_INFO ../src/slv/axi4_slave_monitor.sv(189) @ 3515000: uvm_test_top.env.slave_agent.mon [axi4_slave_monitor] Write response sent: ID=0x7 ADDR=0xf46c13c3 RESP=AXI4_RESP_OKAY
# UVM_INFO ../src/env/axi4_scoreboard.sv(103) @ 3515000: uvm_test_top.env.scb [axi4_scoreboard] Slave AXI4_WRITE received: ID=0x7 ADDR=0xf46c13c3 LEN=4
# UVM_INFO ../src/mst/axi4_master_monitor.sv(210) @ 3515000: uvm_test_top.env.master_agent.mon [axi4_master_monitor] Write complete: ID=0x7 ADDR=0xf46c13c3 RESP=AXI4_RESP_OKAY
# UVM_INFO ../src/env/axi4_scoreboard.sv(82) @ 3515000: uvm_test_top.env.scb [axi4_scoreboard] Master AXI4_WRITE received: ID=0x7 ADDR=0xf46c13c3 LEN=4
# UVM_INFO ../src/env/axi4_scoreboard.sv(154) @ 3515000: uvm_test_top.env.scb [axi4_scoreboard] [WRITE] MATCH #17: ID=0x7 ADDR=0xf46c13c3 LEN=4
# UVM_INFO ../src/seq/axi4_write_read_back_seq.sv(60) @ 3515000: uvm_test_top.env.master_agent.sqr@@wr_rd_seq_8 [axi4_write_read_back_seq] Write phase: ADDR=0xf46c13c3 LEN=4 SIZE=AXI4_SIZE_4B BURST=AXI4_BURST_INCR
# UVM_INFO ../src/mst/axi4_master_driver.sv(55) @ 3515000: uvm_test_top.env.master_agent.drv [axi4_master_driver] Driving AXI4_READ  ID=0x5  ADDR=0xf46c13c3  LEN=4
# UVM_INFO ../src/slv/axi4_slave_driver.sv(259) @ 3545000: uvm_test_top.env.slave_agent.drv [axi4_slave_driver] AR received: ID=0x5 ADDR=0xf46c13c3 LEN=4
# UVM_INFO ../src/mst/axi4_master_monitor.sv(246) @ 3545000: uvm_test_top.env.master_agent.mon [axi4_master_monitor] AR observed: ID=0x5 ADDR=0xf46c13c3 LEN=4
# UVM_INFO ../src/slv/axi4_slave_monitor.sv(224) @ 3545000: uvm_test_top.env.slave_agent.mon [axi4_slave_monitor] AR received: ID=0x5 ADDR=0xf46c13c3 LEN=4
# UVM_INFO ../src/mst/axi4_master_driver.sv(254) @ 3645000: uvm_test_top.env.master_agent.drv [axi4_master_driver] Read complete: 5 beats received
# UVM_INFO ../src/slv/axi4_slave_driver.sv(293) @ 3645000: uvm_test_top.env.slave_agent.drv [axi4_slave_driver] Read complete: ID=0x5  5 beats sent
# UVM_INFO ../src/mst/axi4_master_monitor.sv(314) @ 3645000: uvm_test_top.env.master_agent.mon [axi4_master_monitor] Read complete: ID=0x5 ADDR=0xf46c13c3 5 beats
# UVM_INFO ../src/env/axi4_scoreboard.sv(82) @ 3645000: uvm_test_top.env.scb [axi4_scoreboard] Master AXI4_READ received: ID=0x5 ADDR=0xf46c13c3 LEN=4
# UVM_INFO ../src/slv/axi4_slave_monitor.sv(287) @ 3645000: uvm_test_top.env.slave_agent.mon [axi4_slave_monitor] Read data sent: ID=0x5 ADDR=0xf46c13c3 5 beats
# UVM_INFO ../src/env/axi4_scoreboard.sv(103) @ 3645000: uvm_test_top.env.scb [axi4_scoreboard] Slave AXI4_READ received: ID=0x5 ADDR=0xf46c13c3 LEN=4
# UVM_INFO ../src/env/axi4_scoreboard.sv(154) @ 3645000: uvm_test_top.env.scb [axi4_scoreboard] [READ] MATCH #18: ID=0x5 ADDR=0xf46c13c3 LEN=4
# UVM_INFO ../src/seq/axi4_write_read_back_seq.sv(80) @ 3645000: uvm_test_top.env.master_agent.sqr@@wr_rd_seq_8 [axi4_write_read_back_seq] Read-back phase: ADDR=0xf46c13c3 LEN=4 — data integrity check via scoreboard
# UVM_INFO ../src/test/axi4_wr_rd_test.sv(52) @ 3645000: uvm_test_top [axi4_wr_rd_test] [10/10] ADDR=0x8dd83a1d LEN=11 BURST=AXI4_BURST_INCR
# UVM_INFO ../src/mst/axi4_master_driver.sv(55) @ 3645000: uvm_test_top.env.master_agent.drv [axi4_master_driver] Driving AXI4_WRITE  ID=0x0  ADDR=0x8dd83a1d  LEN=11
# UVM_INFO ../src/mst/axi4_master_driver.sv(106) @ 3645000: uvm_test_top.env.master_agent.drv [axi4_master_driver] Write order: W -> AW (W first)
# UVM_INFO ../src/slv/axi4_slave_driver.sv(159) @ 3715000: uvm_test_top.env.slave_agent.drv [axi4_slave_driver] AW received: ID=0x0 ADDR=0x8dd83a1d LEN=11
# UVM_INFO ../src/slv/axi4_slave_monitor.sv(116) @ 3715000: uvm_test_top.env.slave_agent.mon [axi4_slave_monitor] AW received: ID=0x0 ADDR=0x8dd83a1d LEN=11
# UVM_INFO ../src/mst/axi4_master_monitor.sv(124) @ 3715000: uvm_test_top.env.master_agent.mon [axi4_master_monitor] AW observed: ID=0x0 ADDR=0x8dd83a1d LEN=11
# UVM_INFO ../src/mst/axi4_master_monitor.sv(184) @ 3885000: uvm_test_top.env.master_agent.mon [axi4_master_monitor] W data assembled: ID=0x0 ADDR=0x8dd83a1d 12 beats
# UVM_INFO ../src/slv/axi4_slave_monitor.sv(167) @ 3885000: uvm_test_top.env.slave_agent.mon [axi4_slave_monitor] W data assembled: ID=0x0 ADDR=0x8dd83a1d 12 beats
# UVM_INFO ../src/mst/axi4_master_driver.sv(197) @ 3915000: uvm_test_top.env.master_agent.drv [axi4_master_driver] Write response: AXI4_RESP_OKAY
# UVM_INFO ../src/slv/axi4_slave_driver.sv(223) @ 3915000: uvm_test_top.env.slave_agent.drv [axi4_slave_driver] Write complete: ID=0x0  12 beats stored
# UVM_INFO ../src/slv/axi4_slave_monitor.sv(189) @ 3915000: uvm_test_top.env.slave_agent.mon [axi4_slave_monitor] Write response sent: ID=0x0 ADDR=0x8dd83a1d RESP=AXI4_RESP_OKAY
# UVM_INFO ../src/env/axi4_scoreboard.sv(103) @ 3915000: uvm_test_top.env.scb [axi4_scoreboard] Slave AXI4_WRITE received: ID=0x0 ADDR=0x8dd83a1d LEN=11
# UVM_INFO ../src/mst/axi4_master_monitor.sv(210) @ 3915000: uvm_test_top.env.master_agent.mon [axi4_master_monitor] Write complete: ID=0x0 ADDR=0x8dd83a1d RESP=AXI4_RESP_OKAY
# UVM_INFO ../src/env/axi4_scoreboard.sv(82) @ 3915000: uvm_test_top.env.scb [axi4_scoreboard] Master AXI4_WRITE received: ID=0x0 ADDR=0x8dd83a1d LEN=11
# UVM_INFO ../src/env/axi4_scoreboard.sv(154) @ 3915000: uvm_test_top.env.scb [axi4_scoreboard] [WRITE] MATCH #19: ID=0x0 ADDR=0x8dd83a1d LEN=11
# UVM_INFO ../src/seq/axi4_write_read_back_seq.sv(60) @ 3915000: uvm_test_top.env.master_agent.sqr@@wr_rd_seq_9 [axi4_write_read_back_seq] Write phase: ADDR=0x8dd83a1d LEN=11 SIZE=AXI4_SIZE_4B BURST=AXI4_BURST_INCR
# UVM_INFO ../src/mst/axi4_master_driver.sv(55) @ 3915000: uvm_test_top.env.master_agent.drv [axi4_master_driver] Driving AXI4_READ  ID=0x9  ADDR=0x8dd83a1d  LEN=11
# UVM_INFO ../src/slv/axi4_slave_driver.sv(259) @ 3945000: uvm_test_top.env.slave_agent.drv [axi4_slave_driver] AR received: ID=0x9 ADDR=0x8dd83a1d LEN=11
# UVM_INFO ../src/mst/axi4_master_monitor.sv(246) @ 3945000: uvm_test_top.env.master_agent.mon [axi4_master_monitor] AR observed: ID=0x9 ADDR=0x8dd83a1d LEN=11
# UVM_INFO ../src/slv/axi4_slave_monitor.sv(224) @ 3945000: uvm_test_top.env.slave_agent.mon [axi4_slave_monitor] AR received: ID=0x9 ADDR=0x8dd83a1d LEN=11
# UVM_INFO ../src/mst/axi4_master_driver.sv(254) @ 4185000: uvm_test_top.env.master_agent.drv [axi4_master_driver] Read complete: 12 beats received
# UVM_INFO ../src/slv/axi4_slave_driver.sv(293) @ 4185000: uvm_test_top.env.slave_agent.drv [axi4_slave_driver] Read complete: ID=0x9  12 beats sent
# UVM_INFO ../src/mst/axi4_master_monitor.sv(314) @ 4185000: uvm_test_top.env.master_agent.mon [axi4_master_monitor] Read complete: ID=0x9 ADDR=0x8dd83a1d 12 beats
# UVM_INFO ../src/env/axi4_scoreboard.sv(82) @ 4185000: uvm_test_top.env.scb [axi4_scoreboard] Master AXI4_READ received: ID=0x9 ADDR=0x8dd83a1d LEN=11
# UVM_INFO ../src/slv/axi4_slave_monitor.sv(287) @ 4185000: uvm_test_top.env.slave_agent.mon [axi4_slave_monitor] Read data sent: ID=0x9 ADDR=0x8dd83a1d 12 beats
# UVM_INFO ../src/env/axi4_scoreboard.sv(103) @ 4185000: uvm_test_top.env.scb [axi4_scoreboard] Slave AXI4_READ received: ID=0x9 ADDR=0x8dd83a1d LEN=11
# UVM_INFO ../src/env/axi4_scoreboard.sv(154) @ 4185000: uvm_test_top.env.scb [axi4_scoreboard] [READ] MATCH #20: ID=0x9 ADDR=0x8dd83a1d LEN=11
# UVM_INFO ../src/seq/axi4_write_read_back_seq.sv(80) @ 4185000: uvm_test_top.env.master_agent.sqr@@wr_rd_seq_9 [axi4_write_read_back_seq] Read-back phase: ADDR=0x8dd83a1d LEN=11 — data integrity check via scoreboard
# UVM_INFO ../src/test/axi4_wr_rd_test.sv(62) @ 4685000: uvm_test_top [axi4_wr_rd_test] 10 write-read-back iterations complete
# UVM_INFO verilog_src/uvm-1.1d/src/base/uvm_objection.svh(1268) @ 4685000: reporter [TEST_DONE] 'run' phase is ready to proceed to the 'extract' phase
# UVM_INFO ../src/env/axi4_scoreboard.sv(218) @ 4685000: uvm_test_top.env.scb [axi4_scoreboard] 
# ========================================
#          SCOREBOARD SUMMARY
# ========================================
#   Master transactions : 20
#   Slave transactions  : 20
#   Matches             : 20
#   Mismatches          : 0
#   Unmatched master WR : 0
#   Unmatched master RD : 0
#   Unmatched slave  WR : 0
#   Unmatched slave  RD : 0
# ========================================
#   RESULT : PASS
# ========================================
# UVM_INFO ../src/test/axi4_base_test.sv(91) @ 4685000: uvm_test_top [axi4_wr_rd_test] 
# === TEST PASSED ===
# 
# 
# --- UVM Report Summary ---
# 
# ** Report counts by severity
# UVM_INFO :  304
# UVM_WARNING :    0
# UVM_ERROR :    0
# UVM_FATAL :    0
# ** Report counts by id
# [Questa UVM]     3
# [RNTST]     1
# [TB_TOP]     2
# [TEST_DONE]     1
# [TOP_TB]     1
# [UVMTOP]     1
# [axi4_master_agent]     1
# [axi4_master_driver]    51
# [axi4_master_monitor]    51
# [axi4_scoreboard]    61
# [axi4_slave_agent]     1
# [axi4_slave_driver]    41
# [axi4_slave_monitor]    51
# [axi4_vip_env]     5
# [axi4_wr_rd_test]    13
# [axi4_write_read_back_seq]    20
# ** Note: $finish    : /cadtools/mentor/Questa_10.6b/questasim/linux_x86_64/../verilog_src/uvm-1.1d/src/base/uvm_root.svh(430)
#    Time: 4685 ns  Iteration: 55  Instance: /tb_top
# End time: 14:04:24 on May 31,2026, Elapsed time: 0:00:22
# Errors: 0, Warnings: 0
